(1446672549.613554) can0 072#20A0000027FF00F0
(1446672549.618201) can0 1B0#EC00B00000008000
(1446672549.618486) can0 1B5#2FFFC000000000F9
(1446672549.618732) can0 1D8#6380000000000000
(1446672549.618978) can0 010#F831B02F00000000
(1446672549.619234) can0 1E0#E016BD80816B2400
(1446672549.619519) can0 2A9#840000C0C20006AC
(1446672549.619768) can0 2C3#505400FFFF012E53
(1446672549.621803) can0 008#8000800031DC80FE
(1446672549.628187) can0 0F5#00825F7F80008000
(1446672549.628385) can0 120#8954004F80008000
(1446672549.628626) can0 130#11FF8300001C99BC
(1446672549.628909) can0 010#F831B02F00000000
(1446672549.629140) can0 072#2080000027FF00F0
(1446672549.629376) can0 150#C083C7FF70000000
(1446672549.629621) can0 1D0#6100000000000000
(1446672549.629906) can0 055#809C00B22801F801
(1446672549.630142) can0 065#01EB8E00F7FAE000
(1446672549.630408) can0 070#000EF208F8046000
(1446672549.630717) can0 075#1854000000000000
(1446672549.630949) can0 080#802608E200805005
(1446672549.631247) can0 0B0#A352C209A2778352
(1446672549.631248) can0 145#A10040FC8050F2FD
(1446672549.631514) can0 28C#00BE3600000050A0
(1446672549.631756) can0 2B5#0022AD935200004B
(1446672549.631973) can0 008#8000800021EC80FE
(1446672549.632218) can0 370#00D3435F00900004
(1446672549.632472) can0 400#2202010101010302
(1446672549.633901) can0 210#463E09A8A000DFAD
(1446672549.638240) can0 1B0#EC00B00000008000
(1446672549.638504) can0 1B5#2FFFC000000000F9
(1446672549.638747) can0 1D8#6380000000000000
(1446672549.638953) can0 010#F931B02F00000000
(1446672549.639163) can0 1E0#E016BD80C15B2800
(1446672549.641820) can0 008#8000800011FC80FE
(1446672549.643343) can0 072#20A0000027FF00F0
(1446672549.643587) can0 360#01A00003D3000000
(1446672549.648185) can0 0F5#0072637F80008000
(1446672549.648422) can0 120#8954004F80008000
(1446672549.648600) can0 130#11FF7300001C99C4
(1446672549.648894) can0 150#C073C7FF80000000
(1446672549.649139) can0 010#F831B02F00000000
(1446672549.649402) can0 1D0#610A000000000000
(1446672549.649702) can0 390#4F5236020000FF80
(1446672549.649970) can0 055#809C00B22801F801
(1446672549.650242) can0 065#01EB8E00F7FAE000
(1446672549.650507) can0 070#000EF208F8046000
(1446672549.650507) can0 075#1854000000000000
(1446672549.650774) can0 080#802608E200805005
(1446672549.651018) can0 0B0#A352C209A2778352
(1446672549.651363) can0 145#211040FC8050F2FD
(1446672549.651607) can0 405#1232303136333335
(1446672549.651849) can0 008#80008000010C80FE
(1446672549.658218) can0 1B0#EC00B00000008000
(1446672549.658485) can0 1B5#2FFFC000000000F9
(1446672549.658728) can0 1D8#6380000000000000
(1446672549.658972) can0 010#F831B02F00000000
(1446672549.659222) can0 072#2080000027FF00F0
(1446672549.659435) can0 1E0#E016BD80C14B2C00
(1446672549.659676) can0 210#4E3E09A8A000DFAD
(1446672549.659892) can0 2A9#840000C0DB0006AC
(1446672549.660133) can0 2C3#505400FFFF012E53
(1446672549.661756) can0 008#80008000F11C80FE
(1446672549.668164) can0 0F5#0062677F80008000
(1446672549.668407) can0 120#8954004F80008000
(1446672549.668624) can0 130#11FF6300001C99CC
(1446672549.668893) can0 010#F831B02F00000000
(1446672549.669164) can0 150#C063C7FF90000000
(1446672549.669381) can0 1D0#6100000000000000
(1446672549.669705) can0 055#809C00B22801F801
(1446672549.669971) can0 065#01EB8E00F7FAE000
(1446672549.670224) can0 070#000EF208F8046000
(1446672549.670486) can0 075#1854000000000000
(1446672549.670728) can0 080#802608E200805005
(1446672549.670942) can0 0B0#A352C209A2778352
(1446672549.671164) can0 145#211040FC8050F2FD
(1446672549.671414) can0 28C#00BE3600000050A0
(1446672549.671629) can0 2B5#0022AD935200004B
(1446672549.671872) can0 008#80008000E12C80FE
(1446672549.672138) can0 2C0#E5A0000001000000
(1446672549.672350) can0 2C5#0000E00000008700
(1446672549.672591) can0 3AF#2000000000000000
(1446672549.673647) can0 072#20A0000027FF00F0
(1446672549.673898) can0 3B0#00C4000028D2D800
(1446672549.678190) can0 1B0#EC00B00000008000
(1446672549.678459) can0 1B5#2FFFC000000000F9
(1446672549.678727) can0 010#F831B02F00000000
(1446672549.678970) can0 1D8#6380000000000000
(1446672549.679190) can0 1E0#E016BD80814B2C00
(1446672549.681788) can0 008#80008000D13C80FE
(1446672549.683580) can0 210#4E3E09A8A000DFAD
(1446672549.688163) can0 0F5#00526B7F80008000
(1446672549.688407) can0 120#8954004F80008000
(1446672549.688650) can0 130#11FF5300001C99D4
(1446672549.688893) can0 010#F831B02F00000000
(1446672549.689164) can0 072#2080000027FF00F0
(1446672549.689406) can0 150#C053C7FFA0000000
(1446672549.689650) can0 1D0#6100000000000000
(1446672549.689906) can0 055#809C00B22801F801
(1446672549.690176) can0 065#01EB8E00F7FAE000
(1446672549.690393) can0 070#000EF208F8046000
(1446672549.690636) can0 075#1854000000000000
(1446672549.690886) can0 080#802608E200805005
(1446672549.691157) can0 0B0#A352C209A2778352
(1446672549.691431) can0 145#A10040FC8050F2FD
(1446672549.691700) can0 3CA#C000005500000000
(1446672549.691943) can0 008#80008000C14C80FE
(1446672549.698190) can0 1B0#EC00B00000008000
(1446672549.698459) can0 1B5#2FFFC000000000F9
(1446672549.698670) can0 1D8#6380000000000000
(1446672549.698970) can0 010#F831B02F00000000
(1446672549.699195) can0 1E0#E016BD80C13B3000
(1446672549.699491) can0 2A9#840000C0C20006AC
(1446672549.699733) can0 2C3#505400FFFF012E53
(1446672549.701789) can0 008#80008000B15C80FE
(1446672549.703527) can0 072#20A0000027FF00F0
(1446672549.708163) can0 0F5#00426F7F80008000
(1446672549.708406) can0 120#8954004F80008000
(1446672549.708649) can0 130#11FF4300001C99DC
(1446672549.708892) can0 010#F831B02F00000000
(1446672549.709163) can0 150#C043C7FFB0000000
(1446672549.709431) can0 1D0#6100000000000000
(1446672549.709701) can0 210#463E09A8A000DFAD
(1446672549.709941) can0 055#809C00B22801F801
(1446672549.710209) can0 065#01EB8E00F7FAE000
(1446672549.710479) can0 070#000EF208F8046000
(1446672549.710773) can0 075#1854000000000000
(1446672549.710774) can0 080#802608E200805005
(1446672549.711017) can0 0B0#A352C209A2778352
(1446672549.711383) can0 145#211040FC8050F2FD
(1446672549.711622) can0 28C#00BE3600000050A0
(1446672549.711889) can0 2B5#0022AD935200004B
(1446672549.712138) can0 008#80008000A16C80FE
(1446672549.718167) can0 1B0#EC00B00000008000
(1446672549.718457) can0 1B5#2FFFC000000000F9
(1446672549.718700) can0 1D8#6380000000000000
(1446672549.718943) can0 010#F931B02F00000000
(1446672549.719215) can0 072#2080000027FF00F0
(1446672549.719459) can0 1E0#E016BD80C12B3400
(1446672549.721800) can0 008#80008000917C80FE
(1446672549.728163) can0 0F5#0032737F80008000
(1446672549.728380) can0 120#8954004F80008000
(1446672549.728623) can0 130#11FF3300001C99E4
(1446672549.728835) can0 010#F831B02F00000000
(1446672549.729163) can0 150#C033C7FFC0000000
(1446672549.729406) can0 1D0#610A000000000000
(1446672549.729763) can0 055#809C00B22801F801
(1446672549.730048) can0 065#01EB8E00F7FAE000
(1446672549.730406) can0 070#000EF208F8046000
(1446672549.730673) can0 075#1854000000000000
(1446672549.730962) can0 080#802608E200805005
(1446672549.730963) can0 0B0#A352C209A2778352
(1446672549.731261) can0 145#211040FC8050F2FD
(1446672549.731490) can0 2C0#E5A0000001000000
(1446672549.731677) can0 2C5#0000E00000008700
(1446672549.731917) can0 008#80008000818C80FE
(1446672549.732182) can0 370#00D3435F00900004
(1446672549.732405) can0 3E0#0080984D18000000
(1446672549.733816) can0 072#20A0000027FF00F0
(1446672549.734137) can0 210#4E3E09A8A000DFAD
(1446672549.738217) can0 1B0#EC00B00000008000
(1446672549.738484) can0 1B5#2FFFC000000000F9
(1446672549.738696) can0 010#F831B02F00000000
(1446672549.738937) can0 1D8#6380000000000000
(1446672549.739221) can0 1E0#E016BD80812B3400
(1446672549.739438) can0 2A9#840000C0DB0006AC
(1446672549.739681) can0 2C3#505400FFFF012E53
(1446672549.741787) can0 008#80008000719C80FE
(1446672549.743500) can0 360#01A00003D3000000
(1446672549.748162) can0 0F5#0022777F80008000
(1446672549.748405) can0 120#8954004F80008000
(1446672549.748649) can0 130#11FF2300001C99EC
(1446672549.748891) can0 150#C023C7FFD0000000
(1446672549.749162) can0 010#F831B02F00000000
(1446672549.749405) can0 072#2080000027FF00F0
(1446672549.749648) can0 1D0#6100000000000000
(1446672549.749860) can0 055#809C00B22801F801
(1446672549.750130) can0 065#01EB8E00F7FAE000
(1446672549.750400) can0 070#000EF208F8046000
(1446672549.750668) can0 075#1854000000000000
(1446672549.750935) can0 080#802608E200805005
(1446672549.751241) can0 0B0#A352C209A2778352
(1446672549.751241) can0 145#A10040FC8050F2FD
(1446672549.751510) can0 28C#00BE3600000050A0
(1446672549.751753) can0 2B5#0022AD935200004B
(1446672549.751990) can0 008#8000800061AC80FE
(1446672549.752214) can0 390#4F5332020000FF80
(1446672549.758191) can0 1B0#EC00B00000008000
(1446672549.758482) can0 1B5#2FFFC000000000F9
(1446672549.758726) can0 1D8#6380000000000000
(1446672549.758967) can0 010#F831B02F00000000
(1446672549.759214) can0 1E0#E016BD80C11B3800
(1446672549.759457) can0 210#4E3E09A82000DFAD
(1446672549.759673) can0 3D0#C28006E8006100A8
(1446672549.761761) can0 008#8000800051BC80FE
(1446672549.763786) can0 072#20A0000027FF00F0
(1446672549.768162) can0 0F5#00127B7F80008000
(1446672549.768405) can0 120#8954004F80008000
(1446672549.768648) can0 130#11FF1300001C99F4
(1446672549.768891) can0 010#F831B02F00000000
(1446672549.769162) can0 150#C013C7FFE0000000
(1446672549.769405) can0 1D0#6100000000000000
(1446672549.769779) can0 055#809C00B22801F801
(1446672549.770047) can0 065#01EB8E00F7FAE000
(1446672549.770350) can0 070#000EF208F8046000
(1446672549.770616) can0 075#1854000000000000
(1446672549.770887) can0 080#802608E200805005
(1446672549.771184) can0 0B0#A352C209A2778352
(1446672549.771184) can0 145#211040FC8050F2FD
(1446672549.771769) can0 008#8000800041CC80FE
(1446672549.778189) can0 1B0#EC00B00000008000
(1446672549.778457) can0 1B5#2FFFC000000000F9
(1446672549.778700) can0 010#F831B02F00000000
(1446672549.778943) can0 072#2080000027FF00F0
(1446672549.779193) can0 1D8#6380000000000000
(1446672549.779436) can0 1E0#E016BD80C10B3C00
(1446672549.779652) can0 2A9#840000C0C20006AC
(1446672549.779909) can0 2C3#505400FFFF012E53
(1446672549.781729) can0 008#8000800031DC80FE
(1446672549.783598) can0 210#463E09A8A000DFAD
(1446672549.788131) can0 0F5#00027F7F80008000
(1446672549.788404) can0 120#8954004F80008000
(1446672549.788648) can0 130#11FF0300001C99FC
(1446672549.788890) can0 010#F831B02F00000000
(1446672549.789161) can0 150#C003C7FFF0000000
(1446672549.789404) can0 1D0#6100000000000000
(1446672549.789725) can0 055#809C00B22801F801
(1446672549.789994) can0 065#01EB8E00F7FAE000
(1446672549.790258) can0 070#000EF208F8046000
(1446672549.790501) can0 075#1854000000000000
(1446672549.790673) can0 080#802608E200805005
(1446672549.790939) can0 0B0#A352C209A2778352
(1446672549.791180) can0 145#211040FC8050F2FD
(1446672549.791404) can0 28C#00BE3600000050A0
(1446672549.791628) can0 2B5#0022AD935200004B
(1446672549.791871) can0 008#8000800021EC80FE
(1446672549.792136) can0 2C0#E5A0000001000000
(1446672549.792378) can0 2C5#0000E00000008700
(1446672549.792602) can0 3AF#2000000000000000
(1446672549.793599) can0 072#20A0000027FF00F0
(1446672549.793866) can0 3B0#00C4000028D2FC00
(1446672549.798183) can0 1B0#EC00B00000008000
(1446672549.798474) can0 1B5#2FFFC000000000F9
(1446672549.798694) can0 1D8#6380000000000000
(1446672549.798968) can0 010#F931B02F00000000
(1446672549.799193) can0 1E0#E016BD80810B3C00
(1446672549.801760) can0 008#8000800011FC80FE
(1446672549.808153) can0 0F5#00F2437F80008000
(1446672549.808404) can0 120#8954004F80008000
(1446672549.808621) can0 130#11FFF300001C9984
(1446672549.808863) can0 010#F831B02F00000000
(1446672549.809130) can0 072#2080000027FF00F0
(1446672549.809378) can0 150#C0F3C7FF00000000
(1446672549.809621) can0 1D0#610A000000000000
(1446672549.809864) can0 055#809C00B22801F801
(1446672549.810049) can0 065#01EB8E00F7FAE000
(1446672549.810364) can0 070#000EF208F8046000
(1446672549.810582) can0 075#1854000000000000
(1446672549.810824) can0 080#802608E200805005
(1446672549.811041) can0 0B0#A352C209A2778352
(1446672549.811278) can0 145#A10040FC8050F2FD
(1446672549.811482) can0 210#463E09A8A000DFAD
(1446672549.811725) can0 3CA#C000005600000000
(1446672549.811965) can0 008#80008000010C80FE
(1446672549.818156) can0 1B0#EC00B00000008000
(1446672549.818439) can0 1B5#2FFFC000000000F9
(1446672549.818698) can0 1D8#6380000000000000
(1446672549.818941) can0 010#F831B02F00000000
(1446672549.819187) can0 1E0#E016BD80C1FB0000
(1446672549.819429) can0 2A9#840000C0CA0006AC
(1446672549.819647) can0 2C3#505400FFFF012E53
(1446672549.821773) can0 008#80008000F11C80FE
(1446672549.823343) can0 072#20A0000027FF00F0
(1446672549.828161) can0 0F5#00E2477F80008000
(1446672549.828380) can0 120#8954004F80008000
(1446672549.828615) can0 130#11FFE300001C998C
(1446672549.828864) can0 010#F831B02F00000000
(1446672549.829161) can0 150#C0E3C7FF10000000
(1446672549.829380) can0 1D0#6100000000000000
(1446672549.829699) can0 055#809C00B22801F801
(1446672549.829993) can0 065#01EB8E00F7FAE000
(1446672549.830239) can0 070#000EF208F8046000
(1446672549.830482) can0 075#1854000000000000
(1446672549.830725) can0 080#802608E200805005
(1446672549.830967) can0 0B0#A352C209A2778352
(1446672549.831193) can0 145#211040FC8050F2FD
(1446672549.831404) can0 28C#00BE3600000050A0
(1446672549.831645) can0 2B5#0022AD935200004B
(1446672549.831908) can0 008#80008000E12C80FE
(1446672549.832132) can0 370#00D3435F00900004
(1446672549.833754) can0 210#463E09A8A000DFAD
(1446672549.838187) can0 1B0#EC00B00000008000
(1446672549.838455) can0 1B5#2FFFC000000000F9
(1446672549.838698) can0 1D8#6380000000000000
(1446672549.838941) can0 010#F831B02F00000000
(1446672549.839192) can0 072#2080000027FF00F0
(1446672549.839412) can0 1E0#E016BD80C1EB0400
(1446672549.841732) can0 008#80008000D13C80FE
(1446672549.843469) can0 360#01A00003D3000000
(1446672549.848138) can0 0F5#00D24B7F80008000
(1446672549.848402) can0 120#8954004F80008000
(1446672549.848645) can0 130#11FFD300001C9994
(1446672549.848889) can0 150#C0D3C7FF20000000
(1446672549.849160) can0 010#F831B02F00000000
(1446672549.849456) can0 1D0#6100000000000000
(1446672549.849724) can0 390#4F542E020000FF80
(1446672549.850007) can0 055#809C00B22801F801
(1446672549.850264) can0 065#01EB8E00F7FAE000
(1446672549.850265) can0 070#000EF208F8046000
(1446672549.850532) can0 075#1854000000000000
(1446672549.850773) can0 080#802608E200805005
(1446672549.851016) can0 0B0#A352C209A2778352
(1446672549.851256) can0 145#211040FC8050F2FD
(1446672549.851481) can0 2C0#E5A0000001000000
(1446672549.851698) can0 2C5#0000E00000008700
(1446672549.851941) can0 008#80008000C14C80FE
(1446672549.853604) can0 072#20A0000027FF00F0
(1446672549.858186) can0 1B0#EC00B00000008000
(1446672549.858455) can0 1B5#2FFFC000000000F9
(1446672549.858698) can0 010#F831B02F00000000
(1446672549.858941) can0 1D8#6380000000000000
(1446672549.859192) can0 1E0#E016BD8081EB0400
(1446672549.859434) can0 210#4E3E09A8A000DFAD
(1446672549.859651) can0 2A9#840000C0D30006AC
(1446672549.859863) can0 2C3#505400FFFF012E53
(1446672549.861726) can0 008#80008000B15C80FE
(1446672549.868129) can0 0F5#00C24F7F80008000
(1446672549.868372) can0 120#8954004F80008000
(1446672549.868619) can0 130#11FFC300001C999C
(1446672549.868863) can0 010#F831B02F00000000
(1446672549.869159) can0 072#2080000027FF00F0
(1446672549.869403) can0 150#C0C3C7FF30000000
(1446672549.869671) can0 1D0#6100000000000000
(1446672549.869941) can0 055#809C00B22801F801
(1446672549.870216) can0 065#01EB8E00F7FAE000
(1446672549.870468) can0 070#000EF208F8046000
(1446672549.870751) can0 075#1854000000000000
(1446672549.870751) can0 080#802608E200805005
(1446672549.870994) can0 0B0#A352C209A2778352
(1446672549.871232) can0 145#A10040FC8050F2FD
(1446672549.871481) can0 28C#00BE3600000050A0
(1446672549.871731) can0 2B5#0022AD935200004B
(1446672549.871967) can0 008#80008000A16C80FE
(1446672549.878161) can0 1B0#EC00B00000008000
(1446672549.878446) can0 1B5#2FFFC000000000F9
(1446672549.878688) can0 1D8#6380000000000000
(1446672549.878932) can0 010#F931B02F00000000
(1446672549.879184) can0 1E0#E016BD80C1DB0800
(1446672549.879420) can0 400#2300010100010102
(1446672549.881724) can0 008#80008000917C80FE
(1446672549.883470) can0 072#20A0000027FF00F0
(1446672549.883714) can0 210#4E3E09A8A000DFAD
(1446672549.888160) can0 0F5#00B2537F80008000
(1446672549.888379) can0 120#8954004F80008000
(1446672549.888588) can0 130#11FFB300001C99A4
(1446672549.888861) can0 150#C0B3C7FF40000000
(1446672549.889159) can0 010#F831B02F00000000
(1446672549.889401) can0 1D0#610A000000000000
(1446672549.889724) can0 055#809C00B22801F801
(1446672549.889993) can0 065#01EB8E00F7FAE000
(1446672549.890212) can0 070#000EF208F8046000
(1446672549.890453) can0 075#1854000000000000
(1446672549.890728) can0 080#802608E200805005
(1446672549.890945) can0 0B0#A352C209A2778352
(1446672549.891185) can0 145#211040FC8050F2FD
(1446672549.891715) can0 008#80008000818C80FE
(1446672549.898186) can0 1B0#EC00B00000008000
(1446672549.898454) can0 1B5#2FFFC000000000F9
(1446672549.898697) can0 1D8#6380000000000000
(1446672549.898941) can0 010#F831B02F00000000
(1446672549.899191) can0 072#2080000027FF00F0
(1446672549.899433) can0 1E0#E016BD80C1CB0C00
(1446672549.899676) can0 2A9#840000C0CA0006AC
(1446672549.899889) can0 2C3#505400FFFF012E53
(1446672549.900126) can0 405#016439861B62F82A
(1446672549.901730) can0 008#80008000719C80FE
(1446672549.908160) can0 0F5#00A2577F80008000
(1446672549.908401) can0 120#8954004F80008000
(1446672549.908645) can0 130#11FFA300001C99AC
(1446672549.908873) can0 010#F831B02F00000000
(1446672549.909159) can0 150#C0A3C7FF50000000
(1446672549.909402) can0 1D0#6100000000000000
(1446672549.909645) can0 210#463E09A82000DFAD
(1446672549.909913) can0 055#809C00B22801F801
(1446672549.910159) can0 065#01EB8E00F7FAE000
(1446672549.910432) can0 070#000EF208F8046000
(1446672549.910699) can0 075#1854000000000000
(1446672549.910993) can0 080#802608E200805005
(1446672549.910994) can0 0B0#A352C209A2778352
(1446672549.911258) can0 145#211040FC8050F2FD
(1446672549.911531) can0 28C#00BE3600000050A0
(1446672549.911774) can0 2B5#0022AD935200004B
(1446672549.911984) can0 008#8000800061AC80FE
(1446672549.912217) can0 2C0#E5A0000001000000
(1446672549.912459) can0 2C5#0000E00000008700
(1446672549.912702) can0 3AF#2000000000000000
(1446672549.913784) can0 072#20A0000027FF00F0
(1446672549.914077) can0 3B0#00C4000028D2D800
(1446672549.918161) can0 1B0#EC00B00000008000
(1446672549.918453) can0 1B5#2FFFC000000000F9
(1446672549.918695) can0 1D8#6380000000000000
(1446672549.918964) can0 010#F831B02F00000000
(1446672549.919210) can0 1E0#E016BD8081CB0C00
(1446672549.921730) can0 008#8000800051BC80FE
(1446672549.928158) can0 0F5#00925B7F80008000
(1446672549.928401) can0 120#8954004F80008000
(1446672549.928670) can0 130#11FF9300001C99B4
(1446672549.928916) can0 150#C093C7FF60000000
(1446672549.929215) can0 010#F831B02F00000000
(1446672549.929485) can0 072#2080000027FF00F0
(1446672549.929754) can0 1D0#6100000000000000
(1446672549.930049) can0 055#809C00B22801F801
(1446672549.930050) can0 065#01EB8E00F7FAE000
(1446672549.930375) can0 070#000EF208F8046000
(1446672549.930639) can0 075#1854000000000000
(1446672549.930907) can0 080#802608E200805005
(1446672549.931237) can0 0B0#A352C209A2778352
(1446672549.931238) can0 145#A10040FC8050F2FD
(1446672549.931479) can0 370#00D3435F00900004
(1446672549.931748) can0 3CA#C000004000000000
(1446672549.931991) can0 008#8000800041CC80FE
(1446672549.933576) can0 210#4E3E09A8A000DFAD
(1446672549.938186) can0 1B0#EC00B00000008000
(1446672549.938445) can0 1B5#2FFFC000000000F9
(1446672549.938688) can0 1D8#6380000000000000
(1446672549.938931) can0 010#F831B02F00000000
(1446672549.939133) can0 1E0#E016BD80C1BB1000
(1446672549.939377) can0 2A9#840000C0D30006AC
(1446672549.939650) can0 2C3#505400FFFF012E53
(1446672549.941731) can0 008#8000800031DC80FE
(1446672549.943652) can0 072#2080000027FF00F0
(1446672549.943920) can0 360#01A00003D3000000
(1446672549.948159) can0 0F5#00825F7F80008000
(1446672549.948401) can0 120#8954004F80008000
(1446672549.948644) can0 130#11FF8300001C99BC
(1446672549.948861) can0 150#C083C7FF70000000
(1446672549.949135) can0 010#F831B02F00000000
(1446672549.949427) can0 1D0#6100000000000000
(1446672549.949696) can0 390#4F552A020000FF80
(1446672549.949963) can0 055#809C00B22801F801
(1446672549.950235) can0 065#01EB8E00F7FAE000
(1446672549.950531) can0 070#000EF208F8046000
(1446672549.950531) can0 075#1854000000000000
(1446672549.950800) can0 080#802608E200805005
(1446672549.951017) can0 0B0#A352C209A2778352
(1446672549.951242) can0 145#211040FC8050F2FD
(1446672549.951480) can0 28C#00BE3600000050A0
(1446672549.951695) can0 2B5#0022AD935200004B
(1446672549.951944) can0 008#8000800021EC80FE
(1446672549.958160) can0 1B0#EC00B00000008000
(1446672549.958452) can0 1B5#2FFFC000000000F9
(1446672549.958695) can0 1D8#6380000000000000
(1446672549.958937) can0 010#F931B02F00000000
(1446672549.959161) can0 072#2080000027FF00F0
(1446672549.959395) can0 1E0#E016BD80C1AB1400
(1446672549.959643) can0 210#4E3E09A82000DFAD
(1446672549.959882) can0 3D0#C28006E8006100A8
(1446672549.961729) can0 008#8000800011FC80FE
(1446672549.968134) can0 0F5#0072637F80008000
(1446672549.968370) can0 120#8954004F80008000
(1446672549.968635) can0 130#11FF7300001C99C4
(1446672549.968862) can0 010#F831B02F00000000
(1446672549.969184) can0 150#C073C7FF80000000
(1446672549.969398) can0 1D0#610A000000000000
(1446672549.969726) can0 055#809C00B22801F801
(1446672549.970010) can0 065#01EB8E00F7FAE000
(1446672549.970231) can0 070#000EF208F8046000
(1446672549.970474) can0 075#1854000000000000
(1446672549.970692) can0 080#802608E200805005
(1446672549.970907) can0 0B0#A352C209A2778352
(1446672549.971152) can0 145#211040FC8050F2FD
(1446672549.971408) can0 2C0#E5A0000001000000
(1446672549.971675) can0 2C5#0000E00000008700
(1446672549.971946) can0 008#80008000010C80FE
(1446672549.973555) can0 072#2080000027FF00F0
(1446672549.978237) can0 1B0#EC00B00000008000
(1446672549.978471) can0 1B5#2FFFC000000000F9
(1446672549.978702) can0 1D8#6380000000000000
(1446672549.978964) can0 010#F831B02F00000000
(1446672549.979226) can0 1E0#E016BD8081AB1400
(1446672549.979504) can0 2A9#840000C0CA0006AC
(1446672549.979722) can0 2C3#505400FFFF012E53
(1446672549.981756) can0 008#80008000F11C80FE
(1446672549.983548) can0 210#463E09A82000DFAD
(1446672549.988214) can0 0F5#0062677F80008000
(1446672549.988389) can0 120#8954004F80008000
(1446672549.988694) can0 130#11FF6300001C99CC
(1446672549.988910) can0 010#F831B02F00000000
(1446672549.989188) can0 072#2080000027FF00F0
(1446672549.989478) can0 150#C063C7FF90000000
(1446672549.989733) can0 1D0#6100000000000000
(1446672549.990075) can0 055#809C00B22801F801
(1446672549.990081) can0 065#01EB8E00F7FAE000
(1446672549.990354) can0 070#000EF208F8046000
(1446672549.990654) can0 075#1854000000000000
(1446672549.990986) can0 080#802608E200805005
(1446672549.991223) can0 0B0#A352C209A2778352
(1446672549.991224) can0 145#A10040FC8050F2FD
(1446672549.991495) can0 28C#00BE3600000050A0
(1446672549.991710) can0 2B5#0022AD935200004B
(1446672549.991953) can0 008#80008000E12C80FE
(1446672549.998196) can0 1B0#EC00B00000008000
(1446672549.998478) can0 1B5#2FFFC000000000F9
(1446672549.998729) can0 1D8#6380000000000000
(1446672549.998979) can0 010#F831B02F00000000
(1446672549.999239) can0 1E0#E016BD80C19B1800
(1446672550.001754) can0 008#80008000D13C80FE
(1446672550.003418) can0 072#2080000027FF00F0
(1446672550.008210) can0 0F5#00526B7F80008000
(1446672550.008394) can0 120#8954004F80008000
(1446672550.008658) can0 130#11FF5300001C99D4
(1446672550.008956) can0 010#F831B02F00000000
(1446672550.009235) can0 150#C053C7FFA0000000
(1446672550.009537) can0 1D0#6100000000000000
(1446672550.009855) can0 210#463E09A82000DFAD
(1446672550.009856) can0 055#809C00B22801F801
(1446672550.010182) can0 065#01EB8E00F7FAE000
(1446672550.010412) can0 070#000EF208F8046000
(1446672550.010685) can0 075#1854000000000000
(1446672550.010979) can0 080#802608E200805005
(1446672550.010981) can0 0B0#A352C209A2778352
(1446672550.011250) can0 145#211040FC8050F2FD
(1446672550.011698) can0 008#80008000C14C80FE
(1446672550.018217) can0 1B0#EC00B00000008000
(1446672550.018447) can0 1B5#2FFFC000000000F9
(1446672550.018732) can0 1D8#6380000000000000
(1446672550.018983) can0 010#F831B02F00000000
(1446672550.019243) can0 072#2080000027FF00F0
(1446672550.019520) can0 1E0#E016BD80C18B1C00
(1446672550.019809) can0 2A9#840000C0C20006AC
(1446672550.020054) can0 2C3#505400FFFF012E53
(1446672550.021672) can0 008#80008000B15C80FE
(1446672550.028126) can0 0F5#00426F7F80008000
(1446672550.028367) can0 120#8954004F80008000
(1446672550.028642) can0 130#11FF4300001C99DC
(1446672550.028869) can0 010#F831B02F00000000
(1446672550.029182) can0 150#C043C7FFB0000000
(1446672550.029426) can0 1D0#6100000000000000
(1446672550.029811) can0 055#809C00B22801F801
(1446672550.030081) can0 065#01EB8E00F7FAE000
(1446672550.030384) can0 070#000EF208F8046000
(1446672550.030622) can0 075#1854000000000000
(1446672550.030976) can0 080#802608E200805005
(1446672550.030977) can0 0B0#A352C209A2778352
(1446672550.031269) can0 145#211040FC8050F2FD
(1446672550.031484) can0 28C#00BE3600000050A0
(1446672550.031731) can0 2B5#0022AD935200004B
(1446672550.031981) can0 008#80008000A16C80FE
(1446672550.032284) can0 2C0#E5A0000001000000
(1446672550.032563) can0 2C5#0000E00000008700
(1446672550.032865) can0 370#00D3435F00900004
(1446672550.032866) can0 3AF#2000000000000000
(1446672550.033162) can0 3E0#0080984D18000000
(1446672550.033921) can0 072#2080000027FF00F0
(1446672550.034215) can0 210#463E09A82000DFAD
(1446672550.034484) can0 3B0#00C4000028D2D800
(1446672550.038203) can0 1B0#EC00B00000008000
(1446672550.038472) can0 1B5#2FFFC000000000F9
(1446672550.038730) can0 010#F831B02F00000000
(1446672550.038982) can0 1D8#6380000000000000
(1446672550.039233) can0 1E0#E016BD80818B1C00
(1446672550.041714) can0 008#80008000917C80FE
(1446672550.043633) can0 360#01A00003D3000000
(1446672550.048182) can0 0F5#0032737F80008000
(1446672550.048418) can0 120#8954004F80008000
(1446672550.048660) can0 130#11FF3300001C99E4
(1446672550.048879) can0 010#F831B02F00000000
(1446672550.049173) can0 072#2080000027FF00F0
(1446672550.049415) can0 150#C033C7FFC0000000
(1446672550.049684) can0 1D0#6100000000000000
(1446672550.049973) can0 055#809C00B22801F801
(1446672550.050240) can0 065#01EB8E00F7FAE000
(1446672550.050518) can0 070#000EF208F8046000
(1446672550.050834) can0 075#1854000000000000
(1446672550.050835) can0 080#802608E200805005
(1446672550.051192) can0 0B0#A352C209A2778352
(1446672550.051488) can0 145#A10040FC8050F2FD
(1446672550.051489) can0 390#4F5626020000FF80
(1446672550.051721) can0 3CA#C000005100000000
(1446672550.051961) can0 008#80008000818C80FE
(1446672550.058190) can0 1B0#EC00B00000008000
(1446672550.058484) can0 1B5#2FFFC000000000F9
(1446672550.058731) can0 1D8#6380000000000000
(1446672550.058981) can0 010#F831B02F00000000
(1446672550.059291) can0 1E0#E016BD80C17B2000
(1446672550.059555) can0 210#463E09A82000DFAD
(1446672550.059784) can0 2A9#840000C0C20006AC
(1446672550.060092) can0 2C3#505400FFFF012E53
(1446672550.061756) can0 008#80008000719C80FE
(1446672550.063495) can0 072#2080000027FF00F0
(1446672550.068221) can0 0F5#0022777F80008000
(1446672550.068399) can0 120#8954004F80008000
(1446672550.068688) can0 130#11FF2300001C99EC
(1446672550.068988) can0 010#F831B02F00000000
(1446672550.069295) can0 150#C023C7FFD0000000
(1446672550.069514) can0 1D0#6100000000000000
(1446672550.069789) can0 055#809C00B22801F801
(1446672550.070056) can0 065#01EB8E00F7FAE000
(1446672550.070390) can0 070#000EF208F8046000
(1446672550.070663) can0 075#1854000000000000
(1446672550.070917) can0 080#802608E200805005
(1446672550.070918) can0 0B0#A352C209A2778352
(1446672550.071165) can0 145#211040FC8050F2FD
(1446672550.071445) can0 28C#00BE3600000050A0
(1446672550.071674) can0 2B5#0022AD935200004B
(1446672550.071885) can0 008#8000800061AC80FE
(1446672550.078129) can0 1B0#EC00B00000008000
(1446672550.078451) can0 1B5#2FFFC000000000F9
(1446672550.078725) can0 1D8#6380000000000000
(1446672550.078976) can0 010#F831B02F00000000
(1446672550.079268) can0 072#2080000027FF00F0
(1446672550.079485) can0 1E0#E016BD80C16B2400
(1446672550.081689) can0 008#8000800051BC80FE
(1446672550.083546) can0 210#463E09A82000DFAD
(1446672550.088212) can0 0F5#00127B7F80008000
(1446672550.088438) can0 120#8954004F80008000
(1446672550.088726) can0 130#11FF1300001C99F4
(1446672550.089026) can0 010#F831B02F00000000
(1446672550.089352) can0 150#C013C7FFE0000000
(1446672550.089353) can0 1D0#6100000000000000
(1446672550.089730) can0 055#809C00B22801F801
(1446672550.090026) can0 065#01EB8E00F7FAE000
(1446672550.090338) can0 070#000EF208F8046000
(1446672550.090576) can0 075#1854000000000000
(1446672550.090871) can0 080#802608E200805005
(1446672550.090872) can0 0B0#A352C209A2778352
(1446672550.091151) can0 145#211040FC8050F2FD
(1446672550.091455) can0 2C0#E5A0000001000000
(1446672550.091697) can0 2C5#0000E00000008700
(1446672550.091935) can0 008#8000800041CC80FE
(1446672550.093804) can0 072#2080000027FF00F0
(1446672550.098238) can0 1B0#EC00B00000008000
(1446672550.098440) can0 1B5#2FFFC000000000F9
(1446672550.098723) can0 010#F831B02F00000000
(1446672550.099014) can0 1D8#6280000000000000
(1446672550.099317) can0 1E0#E016BD80816B2400
(1446672550.099608) can0 2A9#840000C0C20006AC
(1446672550.099609) can0 2C3#505400FFFF012E53
(1446672550.101730) can0 008#8000800031DC80FE
(1446672550.108190) can0 0F5#00027F7F80008000
(1446672550.108477) can0 120#8954004F80008000
(1446672550.108717) can0 130#11FF0300001C99FC
(1446672550.108985) can0 150#C003C7FFF0000000
(1446672550.109339) can0 010#F831B02F00000000
(1446672550.109340) can0 072#2080000027FF00F0
(1446672550.109605) can0 1D0#6100000000000000
(1446672550.109848) can0 055#809C00B22801F801
(1446672550.110182) can0 065#01EB8E00F7FAE000
(1446672550.110436) can0 070#000EF208F8046000
(1446672550.110696) can0 075#1854000000000000
(1446672550.110991) can0 080#802608E200805005
(1446672550.110992) can0 0B0#A352C209A2778352
(1446672550.111248) can0 145#A10040FC8050F2FD
(1446672550.111476) can0 210#463E09A82000DFAD
(1446672550.111772) can0 008#8000800021EC80FE
(1446672550.112015) can0 28C#00BE3600000050A0
(1446672550.112263) can0 2B5#0022AD935200004B
(1446672550.118211) can0 1B0#EC00B00000008000
(1446672550.118436) can0 1B5#2FFFC000000000F9
(1446672550.118697) can0 1D8#6380000000000000
(1446672550.118917) can0 010#F831B02F00000000
(1446672550.119184) can0 1E0#E016BD80C15B2800
(1446672550.121686) can0 008#8000800011FC80FE
(1446672550.123484) can0 072#2080000027FF00F0
(1446672550.128210) can0 0F5#00F2437F80008000
(1446672550.128351) can0 120#8954004F80008000
(1446672550.128636) can0 130#11FFF300001C9984
(1446672550.128844) can0 150#C0F3C7FF00000000
(1446672550.129186) can0 010#F831B02F00000000
(1446672550.129474) can0 1D0#6100000000000000
(1446672550.129772) can0 400#2402010701010101
(1446672550.130097) can0 055#809C00B22801F801
(1446672550.130098) can0 065#01EB8E00F7FAE000
(1446672550.130427) can0 070#000EF208F8046000
(1446672550.130738) can0 075#1854000000000000
(1446672550.130961) can0 080#802608E200805005
(1446672550.130962) can0 0B0#A352C209A2778352
(1446672550.131229) can0 145#211040FC8050F2FD
(1446672550.131471) can0 370#00D3435F00900004
(1446672550.131689) can0 581#8100FFFFFFFFFFFF
(1446672550.131957) can0 008#80008000010C80FE
(1446672550.133493) can0 210#463E09A82000DFAD
(1446672550.138157) can0 1B0#EC00B00000008000
(1446672550.138423) can0 1B5#2FFFC000000000F9
(1446672550.138691) can0 010#F831B02F00000000
(1446672550.138909) can0 072#2080000027FF00F0
(1446672550.139159) can0 1D8#6280000000000000
(1446672550.139377) can0 1E0#E016BD80C14B2C00
(1446672550.139627) can0 2A9#840000C0C20006AC
(1446672550.139863) can0 2C3#505400FFFF012E53
(1446672550.141645) can0 008#80008000F11C80FE
(1446672550.143621) can0 360#01A00003D3000000
(1446672550.148155) can0 0F5#00E2477F80008000
(1446672550.148370) can0 120#8954004F80008000
(1446672550.148613) can0 130#11FFE300001C998C
(1446672550.148830) can0 010#F831B02F00000000
(1446672550.149074) can0 150#C0E3C7FF10000000
(1446672550.149344) can0 1D0#6100000000000000
(1446672550.149556) can0 390#4F5722020000FF80
(1446672550.149830) can0 055#809C00B22801F801
(1446672550.150073) can0 065#01EB8E00F7FAE000
(1446672550.150340) can0 070#000EF208F8046000
(1446672550.150617) can0 075#1854000000000000
(1446672550.150884) can0 080#802608E200805005
(1446672550.151180) can0 0B0#A352C209A2778352
(1446672550.151181) can0 145#211040FC8050F2FD
(1446672550.151448) can0 28C#00BE3600000050A0
(1446672550.151691) can0 2B5#0022AD935200004B
(1446672550.151928) can0 008#80008000E12C80FE
(1446672550.152173) can0 2C0#E5A0000001000000
(1446672550.152423) can0 2C5#0000E00000008700
(1446672550.152665) can0 3AF#2000000000000000
(1446672550.152908) can0 405#0243350030012E53
(1446672550.153566) can0 072#2080000027FF00F0
(1446672550.153813) can0 3B0#0044000028D2D800
(1446672550.158154) can0 1B0#EC00B00000008000
(1446672550.158423) can0 1B5#2FFFC000000000F9
(1446672550.158672) can0 1D8#6380000000000000
(1446672550.158903) can0 010#F831B02F00000000
(1446672550.159121) can0 1E0#E016BD80814B2C00
(1446672550.159363) can0 210#463E09A82000DFAD
(1446672550.159606) can0 3D0#428006E8006100A8
(1446672550.161647) can0 008#80008000D13C80FE
(1446672550.163544) can0 430#8636000000280828
(1446672550.168153) can0 0F5#00D24B7F80008000
(1446672550.168396) can0 120#8954004F80008000
(1446672550.168639) can0 130#11FFD300001C9994
(1446672550.168859) can0 010#F831B02F00000000
(1446672550.169127) can0 072#2080000027FF00F0
(1446672550.169396) can0 150#C0D3C7FF20000000
(1446672550.169660) can0 1D0#6100000000000000
(1446672550.169959) can0 055#809C00B22801F801
(1446672550.170231) can0 065#01EB8E00F7FAE000
(1446672550.170502) can0 070#000EF208F8046000
(1446672550.170503) can0 075#1854000000000000
(1446672550.170767) can0 080#802608E200805005
(1446672550.170982) can0 0B0#A352C209A2778352
(1446672550.171233) can0 145#A10040FC8050F2FD
(1446672550.171480) can0 3CA#C000005200000000
(1446672550.171722) can0 008#80008000C14C80FE
(1446672550.178128) can0 1B0#EC00B00000008000
(1446672550.178397) can0 1B5#2FFFC000000000F9
(1446672550.178633) can0 1D8#6380000000000000
(1446672550.178906) can0 010#F831B02F00000000
(1446672550.179152) can0 1E0#E016BD80C13B3000
(1446672550.179395) can0 2A9#840000C0C20006AC
(1446672550.179638) can0 2C3#505400FFFF012E53
(1446672550.181646) can0 008#80008000B15C80FE
(1446672550.183360) can0 072#2080000027FF00F0
(1446672550.183629) can0 210#463E09A82000DFAD
(1446672550.188123) can0 0F5#00C24F7F80008000
(1446672550.188395) can0 120#8954004F80008000
(1446672550.188613) can0 130#11FFC300001C999C
(1446672550.188855) can0 010#F831B02F00000000
(1446672550.189152) can0 150#C0C3C7FF30000000
(1446672550.189395) can0 1D0#6100000000000000
(1446672550.189716) can0 055#809C00B22801F801
(1446672550.189984) can0 065#01EB8E00F7FAE000
(1446672550.190230) can0 070#000EF208F8046000
(1446672550.190473) can0 075#1854000000000000
(1446672550.190685) can0 080#802608E200805005
(1446672550.190927) can0 0B0#A352C209A2778352
(1446672550.191212) can0 145#211040FC8050F2FD
(1446672550.191474) can0 28C#00BE3600000050A0
(1446672550.191742) can0 2B5#0022AD935200004B
(1446672550.191992) can0 008#80008000A16C80FE
(1446672550.198128) can0 1B0#EC00B00000008000
(1446672550.198421) can0 1B5#2FFFC000000000F9
(1446672550.198656) can0 1D8#6380000000000000
(1446672550.198906) can0 010#F831B02F00000000
(1446672550.199152) can0 072#2080000027FF00F0
(1446672550.199394) can0 1E0#E016BD80C12B3400
(1446672550.201640) can0 008#80008000917C80FE
(1446672550.208153) can0 0F5#00B2537F80008000
(1446672550.208421) can0 120#8954004F80008000
(1446672550.208690) can0 130#11FFB300001C99A4
(1446672550.208959) can0 010#F831B02F00000000
(1446672550.209236) can0 150#C0B3C7FF40000000
(1446672550.209530) can0 1D0#6100000000000000
(1446672550.209531) can0 210#463E09A82000DFAD
(1446672550.209800) can0 055#809C00B22801F801
(1446672550.210012) can0 065#01EB8E00F7FAE000
(1446672550.210366) can0 070#000EF208F8046000
(1446672550.210634) can0 075#1854000000000000
(1446672550.210930) can0 080#802608E200805005
(1446672550.210931) can0 0B0#A352C209A2778352
(1446672550.211205) can0 145#211040FC8050F2FD
(1446672550.211446) can0 2C0#E5A0000002000000
(1446672550.211721) can0 008#80008000818C80FE
(1446672550.211942) can0 2C5#0000E00000008700
(1446672550.213611) can0 072#2080000027FF00F0
(1446672550.218149) can0 1B0#EC00B00000008000
(1446672550.218413) can0 1B5#2FFFC000000000F9
(1446672550.218656) can0 1D8#6380000000000000
(1446672550.218898) can0 010#F831B02F00000000
(1446672550.219141) can0 1E0#E016BD80812B3400
(1446672550.219385) can0 2A9#840000C0C20006AC
(1446672550.219628) can0 2C3#505400FFFF012E53
(1446672550.221611) can0 008#80008000719C80FE
(1446672550.228143) can0 0F5#00A2577F80008000
(1446672550.228410) can0 120#8954004F80008000
(1446672550.228680) can0 130#11FFA300001C99AC
(1446672550.228949) can0 010#F831B02F00000000
(1446672550.229226) can0 072#2080000027FF00F0
(1446672550.229494) can0 150#C0A3C7FF50000000
(1446672550.229790) can0 1D0#6100000000000000
(1446672550.229790) can0 055#809C00B22801F801
(1446672550.230033) can0 065#01EB8E00F7FAE000
(1446672550.230359) can0 070#000EF208F8046000
(1446672550.230629) can0 075#1854000000000000
(1446672550.230898) can0 080#802608E200805005
(1446672550.231199) can0 0B0#A352C209A2778352
(1446672550.231200) can0 145#A10040FC8050F2FD
(1446672550.231468) can0 28C#00BE3600000050A0
(1446672550.231711) can0 008#8000800061AC80FE
(1446672550.231947) can0 2B5#0022AD935200004B
(1446672550.232185) can0 370#00D3435F00900004
(1446672550.233629) can0 210#463E09A82000DFAD
(1446672550.238117) can0 1B0#EC00B00000008000
(1446672550.238409) can0 1B5#2FFFC000000000F9
(1446672550.238679) can0 1D8#6380000000000000
(1446672550.238922) can0 010#F831B02F00000000
(1446672550.239141) can0 1E0#E016BD80C11B3800
(1446672550.241636) can0 008#8000800051BC80FE
(1446672550.243491) can0 072#2080000027FF00F0
(1446672550.243722) can0 360#01A00003D3000000
(1446672550.248136) can0 0F5#00925B7F80008000
(1446672550.248397) can0 120#8954004F80008000
(1446672550.248667) can0 130#11FF9300001C99B4
(1446672550.248944) can0 150#C093C7FF60000000
(1446672550.249213) can0 010#F831B02F00000000
(1446672550.249496) can0 1D0#6100000000000000
(1446672550.249496) can0 390#4F581E020000FF80
(1446672550.249783) can0 055#809C00B22801F801
(1446672550.250027) can0 065#01EB8E00F7FAE000
(1446672550.250353) can0 070#000EF208F8046000
(1446672550.250622) can0 075#1854000000000000
(1446672550.250891) can0 080#802608E200805005
(1446672550.251194) can0 0B0#A352C209A2778352
(1446672550.251195) can0 145#211040FC8050F2FD
(1446672550.251676) can0 008#8000800041CC80FE
(1446672550.258159) can0 1B0#EC00B00000008000
(1446672550.258431) can0 1B5#2FFFC000000000F9
(1446672550.258675) can0 1D8#6380000000000000
(1446672550.258917) can0 010#F831B02F00000000
(1446672550.259168) can0 072#2080000027FF00F0
(1446672550.259410) can0 1E0#E016BD80C10B3C00
(1446672550.259653) can0 210#463E09A82000DFAD
(1446672550.259876) can0 2A9#840000C0C20006AC
(1446672550.260117) can0 2C3#505400FFFF012E53
(1446672550.261636) can0 008#8000800031DC80FE
(1446672550.268142) can0 0F5#00825F7F80008000
(1446672550.268384) can0 120#8954004F80008000
(1446672550.268628) can0 130#11FF8300001C99BC
(1446672550.268844) can0 010#F831B02F00000000
(1446672550.269142) can0 150#C083C7FF70000000
(1446672550.269386) can0 1D0#6100000000000000
(1446672550.269706) can0 055#809C00B22801F801
(1446672550.269969) can0 065#01EB8E00F7FAE000
(1446672550.270194) can0 070#000EF208F8046000
(1446672550.270443) can0 075#1854000000000000
(1446672550.270710) can0 080#802608E200805005
(1446672550.270954) can0 0B0#A352C209A2778352
(1446672550.271245) can0 145#211040FC8050F2FD
(1446672550.271509) can0 28C#00BE3600000050A0
(1446672550.271778) can0 2B5#0022AD935200004B
(1446672550.272047) can0 008#8000800021EC80FE
(1446672550.272379) can0 2C0#E5A0000001000000
(1446672550.272379) can0 2C5#0000E00000008700
(1446672550.272622) can0 3AF#2000000000000000
(1446672550.273844) can0 072#2080000027FF00F0
(1446672550.274135) can0 3B0#0044000028D2D800
(1446672550.278136) can0 1B0#EC00B00000008000
(1446672550.278405) can0 1B5#2FFFC000000000F9
(1446672550.278674) can0 010#F831B02F00000000
(1446672550.278917) can0 1D8#6380000000000000
(1446672550.279135) can0 1E0#E016BD80810B3C00
(1446672550.281610) can0 008#8000800011FC80FE
(1446672550.283321) can0 210#463E09A82000DFAD
(1446672550.288138) can0 0F5#0072637F80008000
(1446672550.288354) can0 120#8954004F80008000
(1446672550.288623) can0 130#11FF7300001C99C4
(1446672550.288918) can0 150#C073C7FF80000000
(1446672550.289195) can0 010#F831B02F00000000
(1446672550.289464) can0 072#2080000027FF00F0
(1446672550.289759) can0 1D0#6100000000000000
(1446672550.289759) can0 055#809C00B22801F801
(1446672550.290028) can0 065#01EB8E00F7FAE000
(1446672550.290328) can0 070#000EF208F8046000
(1446672550.290571) can0 075#1854000000000000
(1446672550.290840) can0 080#802608E200805005
(1446672550.291137) can0 0B0#A352C209A2778352
(1446672550.291432) can0 145#A10040FC8050F2FD
(1446672550.291432) can0 3CA#C000005300000000
(1446672550.291692) can0 008#80008000010C80FE
(1446672550.298128) can0 1B0#EC00B00000008000
(1446672550.298406) can0 1B5#2FFFC000000000F9
(1446672550.298628) can0 1D8#6380000000000000
(1446672550.298891) can0 010#F831B02F00000000
(1446672550.299136) can0 1E0#E016BD80C1FB0000
(1446672550.299379) can0 2A9#840000C0C20006AC
(1446672550.299596) can0 2C3#505400FFFF012E53
(1446672550.301605) can0 008#80008000F11C80FE
(1446672550.303448) can0 072#2080000027FF00F0
(1446672550.308137) can0 0F5#0062677F80008000
(1446672550.308405) can0 120#8954004F80008000
(1446672550.308674) can0 130#11FF6300001C99CC
(1446672550.308943) can0 150#C063C7FF90000000
(1446672550.309221) can0 010#F831B02F00000000
(1446672550.309490) can0 1D0#6100000000000000
(1446672550.309784) can0 210#463E09A82000DFAD
(1446672550.309785) can0 055#809C00B22801F801
(1446672550.310007) can0 065#01EB8E00F7FAE000
(1446672550.310378) can0 070#000EF208F8046000
(1446672550.310647) can0 075#1854000000000000
(1446672550.310942) can0 080#802608E200805005
(1446672550.310943) can0 0B0#A352C209A2778352
(1446672550.311214) can0 145#211040FC8050F2FD
(1446672550.311457) can0 28C#00BE3600000050A0
(1446672550.311691) can0 2B5#0022AD935200004B
(1446672550.311935) can0 008#80008000E12C80FE
(1446672550.318118) can0 1B0#EC00B00000008000
(1446672550.318410) can0 1B5#2FFFC000000000F9
(1446672550.318656) can0 010#F831B02F00000000
(1446672550.318922) can0 072#2080000027FF00F0
(1446672550.319150) can0 1D8#6380000000000000
(1446672550.319391) can0 1E0#E016BD80C1EB0400
(1446672550.321595) can0 008#80008000D13C80FE
(1446672550.328060) can0 0F5#00526B7F80008000
(1446672550.328365) can0 120#8954004F80008000
(1446672550.328577) can0 130#11FF5300001C99D4
(1446672550.328793) can0 010#F831B02F00000000
(1446672550.329068) can0 150#C053C7FFA0000000
(1446672550.329340) can0 1D0#6100000000000000
(1446672550.329713) can0 055#809C00B22801F801
(1446672550.329982) can0 065#01EB8E00F7FAE000
(1446672550.330227) can0 070#000EF208F8046000
(1446672550.330469) can0 075#1854000000000000
(1446672550.330712) can0 080#802608E200805005
(1446672550.330955) can0 0B0#A352C209A2778352
(1446672550.331151) can0 145#211040FC8050F2FD
(1446672550.331391) can0 2C0#E5A0000001000000
(1446672550.331639) can0 008#80008000C14C80FE
(1446672550.331883) can0 2C5#0000E00000008700
(1446672550.332123) can0 370#00D3435F00900004
(1446672550.332365) can0 3E0#0080984D18000000
(1446672550.333572) can0 072#2080000027FF00F0
(1446672550.333834) can0 210#463E09A82000DFAD
(1446672550.338150) can0 1B0#EC00B00000008000
(1446672550.338410) can0 1B5#2FFFC000000000F9
(1446672550.338630) can0 1D8#6380000000000000
(1446672550.338897) can0 010#F831B02F00000000
(1446672550.339167) can0 1E0#E016BD8081EB0400
(1446672550.339384) can0 2A9#840000C0C20006AC
(1446672550.339627) can0 2C3#505400FFFF012E53
(1446672550.341591) can0 008#80008000B15C80FE
(1446672550.343511) can0 360#01A00003D3000000
(1446672550.348148) can0 0F5#00426F7F80008000
(1446672550.348418) can0 120#8954004F80008000
(1446672550.348687) can0 130#11FF4300001C99DC
(1446672550.348956) can0 010#F831B02F00000000
(1446672550.349233) can0 072#2080000027FF00F0
(1446672550.349500) can0 150#C043C7FFB0000000
(1446672550.349795) can0 1D0#6100000000000000
(1446672550.349796) can0 055#809C00B22801F801
(1446672550.350033) can0 065#01EB8E00F7FAE000
(1446672550.350347) can0 070#000EF208F8046000
(1446672550.350616) can0 075#1854000000000000
(1446672550.350885) can0 080#802608E200805005
(1446672550.351175) can0 0B0#A352C209A2778352
(1446672550.351175) can0 145#A10040FC8050F2FD
(1446672550.351443) can0 28C#00BE3600000050A0
(1446672550.351686) can0 008#80008000A16C80FE
(1446672550.351947) can0 2B5#0022AD935200004B
(1446672550.352193) can0 390#4F591A020000FF80
(1446672550.358150) can0 1B0#EC00B00000008000
(1446672550.358418) can0 1B5#2FFFC000000000F9
(1446672550.358660) can0 1D8#6380000000000000
(1446672550.358903) can0 010#F831B02F00000000
(1446672550.359147) can0 1E0#E016BD80C1DB0800
(1446672550.359361) can0 210#463E09A82000DFAD
(1446672550.359576) can0 3D0#428006E8006100A8
(1446672550.361622) can0 008#80008000917C80FE
(1446672550.363353) can0 072#2080000027FF00F0
(1446672550.368162) can0 0F5#0032737F80008000
(1446672550.368430) can0 120#8954004F80008000
(1446672550.368686) can0 130#11FF3300001C99E4
(1446672550.368969) can0 010#F831B02F00000000
(1446672550.369219) can0 150#C033C7FFC0000000
(1446672550.369462) can0 1D0#6100000000000000
(1446672550.369725) can0 055#809C00B22801F801
(1446672550.369956) can0 065#01EB8E00F7FAE000
(1446672550.370200) can0 070#000EF208F8046000
(1446672550.370442) can0 075#1854000000000000
(1446672550.370698) can0 080#802608E200805005
(1446672550.370914) can0 0B0#A352C209A2778352
(1446672550.371156) can0 145#211040FC8050F2FD
(1446672550.371626) can0 008#80008000818C80FE
(1446672550.378161) can0 1B0#EC00B00000008000
(1446672550.378430) can0 1B5#2FFFC000000000F9
(1446672550.378659) can0 1D8#6380000000000000
(1446672550.378903) can0 010#F831B02F00000000
(1446672550.379161) can0 072#2080000027FF00F0
(1446672550.379404) can0 1E0#E016BD80C1CB0C00
(1446672550.379616) can0 2A9#840000C0C20006AC
(1446672550.379820) can0 2C3#505400FFFF012E53
(1446672550.380115) can0 400#0161020101780201
(1446672550.381558) can0 008#80008000719C80FE
(1446672550.383472) can0 210#463E09A82000DFAD
(1446672550.388162) can0 0F5#0022777F80008000
(1446672550.388428) can0 120#8954004F80008000
(1446672550.388698) can0 130#11FF2300001C99EC
(1446672550.388968) can0 010#F831B02F00000000
(1446672550.389244) can0 150#C023C7FFD0000000
(1446672550.389488) can0 1D0#6100000000000000
(1446672550.389756) can0 055#809C00B22801F801
(1446672550.389956) can0 065#01EB8E00F7FAE000
(1446672550.390173) can0 070#000EF208F8046000
(1446672550.390441) can0 075#1854000000000000
(1446672550.390657) can0 080#802608E200805005
(1446672550.390944) can0 0B0#A352C209A2778352
(1446672550.391149) can0 145#211040FC8050F2FD
(1446672550.391398) can0 28C#00BE3600000050A0
(1446672550.391634) can0 2B5#0022AD935200004B
(1446672550.391851) can0 008#8000800061AC80FE
(1446672550.392116) can0 2C0#E5A0000001000000
(1446672550.392358) can0 2C5#0000E00000008700
(1446672550.392600) can0 3AF#2000000000000000
(1446672550.393653) can0 072#2080000027FF00F0
(1446672550.393916) can0 3B0#0044000028D2D800
(1446672550.398154) can0 1B0#EC00B00000008000
(1446672550.398430) can0 1B5#2FFFC000000000F9
(1446672550.398659) can0 1D8#6380000000000000
(1446672550.398915) can0 010#F831B02F00000000
(1446672550.399160) can0 1E0#E016BD8081CB0C00
(1446672550.399359) can0 405#2000000000000000
(1446672550.401557) can0 008#8000800051BC80FE
(1446672550.408117) can0 0F5#00127B7F80008000
(1446672550.408400) can0 120#8954004F80008000
(1446672550.408662) can0 130#11FF1300001C99F4
(1446672550.408972) can0 010#F831B02F00000000
(1446672550.409226) can0 072#2080000027FF00F0
(1446672550.409515) can0 150#C013C7FFE0000000
(1446672550.409515) can0 1D0#6100000000000000
(1446672550.409801) can0 055#809C00B22801F801
(1446672550.410044) can0 065#01EB8E00F7FAE000
(1446672550.410338) can0 070#000EF208F8046000
(1446672550.410647) can0 075#1854000000000000
(1446672550.410901) can0 080#802608E200805005
(1446672550.411218) can0 0B0#A352C209A2778352
(1446672550.411219) can0 145#A10040FC8050F2FD
(1446672550.411462) can0 210#463E09A82000DFAD
(1446672550.411730) can0 008#8000800041CC80FE
(1446672550.411948) can0 3CA#C000005400000000
(1446672550.418162) can0 1B0#EC00B00000008000
(1446672550.418429) can0 1B5#2FFFC000000000F9
(1446672550.418671) can0 1D8#6380000000000000
(1446672550.418915) can0 010#F831B02F00000000
(1446672550.419147) can0 1E0#E016BD80C1BB1000
(1446672550.419364) can0 2A9#840000C0C20006AC
(1446672550.419607) can0 2C3#505400FFFF012E53
(1446672550.421561) can0 008#8000800031DC80FE
(1446672550.423429) can0 072#2080000027FF00F0
(1446672550.428116) can0 0F5#00027F7F80008000
(1446672550.428429) can0 120#8954004F80008000
(1446672550.428698) can0 130#11FF0300001C99FC
(1446672550.428967) can0 150#C003C7FFF0000000
(1446672550.429243) can0 010#F831B02F00000000
(1446672550.429487) can0 1D0#6100000000000000
(1446672550.429743) can0 055#809C00B22801F801
(1446672550.429998) can0 065#01EB8E00F7FAE000
(1446672550.430199) can0 070#000EF208F8046000
(1446672550.430442) can0 075#1854000000000000
(1446672550.430658) can0 080#802608E200805005
(1446672550.430946) can0 0B0#A352C209A2778352
(1446672550.431174) can0 145#211040FC8050F2FD
(1446672550.431393) can0 28C#00BE3600000050A0
(1446672550.431658) can0 2B5#0022AD935200004B
(1446672550.431876) can0 008#8000800021EC80FE
(1446672550.432122) can0 370#00D3435F00900004
(1446672550.433902) can0 210#463E09A82000DFAD
(1446672550.438161) can0 1B0#EC00B00000008000
(1446672550.438415) can0 1B5#2FFFC000000000F9
(1446672550.438671) can0 1D8#6380000000000000
(1446672550.438901) can0 010#F831B02F00000000
(1446672550.439115) can0 072#2080000027FF00F0
(1446672550.439389) can0 1E0#E016BD80C1AB1400
(1446672550.441562) can0 008#8000800011FC80FE
(1446672550.443472) can0 360#01A00003D3000000
(1446672550.448118) can0 0F5#00F2437F80008000
(1446672550.448398) can0 120#8954004F80008000
(1446672550.448718) can0 130#11FFF300001C9984
(1446672550.449067) can0 010#F831B02F00000000
(1446672550.449068) can0 150#C0F3C7FF00000000
(1446672550.449282) can0 1D0#6100000000000000
(1446672550.449604) can0 390#4F5A16020000FF80
(1446672550.449742) can0 055#809C00B22801F801
(1446672550.450037) can0 065#01EB8E00F7FAE000
(1446672550.450378) can0 070#000EF208F8046000
(1446672550.450688) can0 075#1854000000000000
(1446672550.450961) can0 080#802608E200805005
(1446672550.450962) can0 0B0#A352C209A2778352
(1446672550.451253) can0 145#211040FC8050F2FD
(1446672550.451445) can0 2C0#E5A0000001000000
(1446672550.451663) can0 008#80008000010C80FE
(1446672550.451903) can0 2C5#0000E00000008700
(1446672550.453826) can0 072#2080000027FF00F0
(1446672550.458212) can0 1B0#EC00B00000008000
(1446672550.458427) can0 1B5#2FFFC000000000F9
(1446672550.458691) can0 1D8#6380000000000000
(1446672550.458964) can0 010#F831B02F00000000
(1446672550.459224) can0 1E0#E016BD8081AB1400
(1446672550.459525) can0 210#463E09A82000DFAD
(1446672550.459844) can0 2A9#840000C0C20006AC
(1446672550.459845) can0 2C3#505400FFFF012E53
(1446672550.461652) can0 008#80008000F11C80FE
(1446672550.468120) can0 0F5#00E2477F80008000
(1446672550.468395) can0 120#8954004F80008000
(1446672550.468673) can0 130#11FFE300001C998C
(1446672550.468956) can0 150#C0E3C7FF10000000
(1446672550.469303) can0 010#F831B02F00000000
(1446672550.469304) can0 072#2080000027FF00F0
(1446672550.469592) can0 1D0#6100000000000000
(1446672550.469914) can0 055#809C00B22801F801
(1446672550.470202) can0 065#01EB8E00F7FAE000
(1446672550.470504) can0 070#000EF208F8046000
(1446672550.470504) can0 075#1854000000000000
(1446672550.470736) can0 080#802608E200805005
(1446672550.470979) can0 0B0#A352C209A2778352
(1446672550.471221) can0 145#A10040FC8050F2FD
(1446672550.471439) can0 28C#00BE3600000050A0
(1446672550.471680) can0 008#80008000E12C80FE
(1446672550.471897) can0 2B5#0022AD935200004B
(1446672550.478133) can0 1B0#EC00B00000008000
(1446672550.478384) can0 1B5#2FFFC000000000F9
(1446672550.478639) can0 1D8#6380000000000000
(1446672550.478908) can0 010#F831B02F00000000
(1446672550.479185) can0 1E0#E016BD80C19B1800
(1446672550.481570) can0 008#80008000D13C80FE
(1446672550.483569) can0 072#2080000027FF00F0
(1446672550.483758) can0 210#463E09A82000DFAD
(1446672550.488119) can0 0F5#00D24B7F80008000
(1446672550.488349) can0 120#8954004F80008000
(1446672550.488633) can0 130#11FFD300001C9994
(1446672550.488781) can0 150#C0D3C7FF20000000
(1446672550.489072) can0 010#F831B02F00000000
(1446672550.489352) can0 1D0#6100000000000000
(1446672550.489727) can0 055#809C00B22801F801
(1446672550.489978) can0 065#01EB8E00F7FAE000
(1446672550.490234) can0 070#000EF208F8046000
(1446672550.490477) can0 075#1854000000000000
(1446672550.490654) can0 080#802608E200805005
(1446672550.490961) can0 0B0#A352C209A2778352
(1446672550.491224) can0 145#211040FC8050F2FD
(1446672550.491584) can0 008#80008000C14C80FE
(1446672550.498211) can0 1B0#EC00B00000008000
(1446672550.498425) can0 1B5#2FFFC000000000F9
(1446672550.498661) can0 010#F831B02F00000000
(1446672550.498861) can0 072#2080000027FF00F0
(1446672550.499175) can0 1D8#6380000000000000
(1446672550.499468) can0 1E0#E016BD80C18B1C00
(1446672550.499765) can0 2A9#840000C0C20006AC
(1446672550.500034) can0 2C3#505400FFFF012E53
(1446672550.501623) can0 008#80008000B15C80FE
(1446672550.508205) can0 0F5#00C24F7F80008000
(1446672550.508431) can0 120#8954004F80008000
(1446672550.508738) can0 130#11FFC300001C999C
(1446672550.508984) can0 010#F831B02F00000000
(1446672550.509233) can0 150#C0C3C7FF30000000
(1446672550.509569) can0 1D0#6100000000000000
(1446672550.509570) can0 210#463E09A82000DFAD
(1446672550.509822) can0 055#809C00B22801F801
(1446672550.510090) can0 065#01EB8E00F7FAE000
(1446672550.510363) can0 070#000EF208F8046000
(1446672550.510622) can0 075#1854000000000000
(1446672550.510891) can0 080#802608E200805005
(1446672550.511221) can0 0B0#A352C209A2778352
(1446672550.511221) can0 145#211040FC8050F2FD
(1446672550.511466) can0 28C#00BE3600000050A0
(1446672550.511720) can0 008#80008000A16C80FE
(1446672550.511942) can0 2B5#0022AD935200004B
(1446672550.512191) can0 2C0#E5A0000001000000
(1446672550.512449) can0 2C5#0000E00000008700
(1446672550.512694) can0 3AF#2000000000000000
(1446672550.513572) can0 072#2080000027FF00F0
(1446672550.513815) can0 3B0#0044000028D2D800
(1446672550.518153) can0 1B0#EC00B00000008000
(1446672550.518449) can0 1B5#2FFFC000000000F9
(1446672550.518651) can0 1D8#6380000000000000
(1446672550.518894) can0 010#F831B02F00000000
(1446672550.519144) can0 1E0#E016BD80818B1C00
(1446672550.521562) can0 008#80008000917C80FE
(1446672550.528204) can0 0F5#00B2537F80008000
(1446672550.528440) can0 120#8954004F80008000
(1446672550.528714) can0 130#11FFB300001C99A4
(1446672550.529040) can0 150#C0B3C7FF40000000
(1446672550.529377) can0 010#F831B02F00000000
(1446672550.529377) can0 072#2080000027FF00F0
(1446672550.529615) can0 1D0#6100000000000000
(1446672550.529899) can0 055#809C00B22801F801
(1446672550.530175) can0 065#01EB8E00F7FAE000
(1446672550.530477) can0 070#000EF208F8046000
(1446672550.530815) can0 075#1854000000000000
(1446672550.530816) can0 080#802608E200805005
(1446672550.531019) can0 0B0#A352C209A2778352
(1446672550.531284) can0 145#A10040FC8050F2FD
(1446672550.531473) can0 370#00D3435F00900004
(1446672550.531688) can0 008#80008000818C80FE
(1446672550.531931) can0 3CA#C000005500000000
(1446672550.533784) can0 210#463E09A82000DFAD
(1446672550.538204) can0 1B0#EC00B00000008000
(1446672550.538442) can0 1B5#2FFFC000000000F9
(1446672550.538713) can0 1D8#6380000000000000
(1446672550.539003) can0 010#F831B02F00000000
(1446672550.539279) can0 1E0#E016BD80C17B2000
(1446672550.539597) can0 2A9#840000C0C20006AC
(1446672550.539598) can0 2C3#505400FFFF012E53
(1446672550.541624) can0 008#80008000719C80FE
(1446672550.543522) can0 072#2080000027FF00F0
(1446672550.543697) can0 360#01A00003D3000000
(1446672550.548198) can0 0F5#00A2577F80008000
(1446672550.548436) can0 120#8954004F80008000
(1446672550.548737) can0 130#11FFA300001C99AC
(1446672550.548966) can0 010#F831B02F00000000
(1446672550.549276) can0 150#C0A3C7FF50000000
(1446672550.549525) can0 1D0#6100000000000000
(1446672550.549822) can0 390#4F5B12020000FF80
(1446672550.549823) can0 055#809C00B22801F801
(1446672550.550093) can0 065#01EB8E00F7FAE000
(1446672550.550382) can0 070#000EF208F8046000
(1446672550.550671) can0 075#1854000000000000
(1446672550.551011) can0 080#802608E200805005
(1446672550.551012) can0 0B0#A352C209A2778352
(1446672550.551240) can0 145#211040FC8050F2FD
(1446672550.551483) can0 28C#00BE3600000050A0
(1446672550.551696) can0 008#8000800061AC80FE
(1446672550.551942) can0 2B5#0022AD935200004B
(1446672550.558132) can0 1B0#EC00B00000008000
(1446672550.558454) can0 1B5#2FFFC000000000F9
(1446672550.558716) can0 1D8#6380000000000000
(1446672550.559000) can0 010#F831B02F00000000
(1446672550.559278) can0 072#2080000027FF00F0
(1446672550.559517) can0 1E0#E016BD80C16B2400
(1446672550.559812) can0 210#463E09A82000DFAD
(1446672550.559813) can0 3D0#428006E8006100A8
(1446672550.561563) can0 008#8000800051BC80FE
(1446672550.568194) can0 0F5#00925B7F80008000
(1446672550.568369) can0 120#8954004F80008000
(1446672550.568643) can0 130#11FF9300001C99B4
(1446672550.568908) can0 010#F831B02F00000000
(1446672550.569181) can0 150#C093C7FF60000000
(1446672550.569428) can0 1D0#6100000000000000
(1446672550.569685) can0 055#809C00B22801F801
(1446672550.569996) can0 065#01EB8E00F7FAE000
(1446672550.570218) can0 070#000EF208F8046000
(1446672550.570462) can0 075#1854000000000000
(1446672550.570707) can0 080#802608E200805005
(1446672550.570945) can0 0B0#A352C209A2778352
(1446672550.571196) can0 145#211040FC8050F2FD
(1446672550.571470) can0 2C0#E5A0000002000000
(1446672550.571739) can0 008#8000800041CC80FE
(1446672550.571952) can0 2C5#0000E00000008700
(1446672550.573553) can0 072#2080000027FF00F0
(1446672550.578184) can0 1B0#EC00B00000008000
(1446672550.578446) can0 1B5#2FFFC000000000F9
(1446672550.578750) can0 1D8#6380000000000000
(1446672550.579034) can0 010#F831B02F00000000
(1446672550.579414) can0 1E0#E016BD80816B2400
(1446672550.579415) can0 2A9#840000C0C20006AC
(1446672550.579664) can0 2C3#505400FFFF012E53
(1446672550.581613) can0 008#8000800031DC80FE
(1446672550.583693) can0 210#463E09A82000DFAD
(1446672550.588151) can0 0F5#00825F7F80008000
(1446672550.588447) can0 120#8954004F80008000
(1446672550.588719) can0 130#11FF8300001C99BC
(1446672550.589005) can0 150#C083C7FF70000000
(1446672550.589331) can0 010#F831B02F00000000
(1446672550.589332) can0 072#2080000027FF00F0
(1446672550.589614) can0 1D0#6100000000000000
(1446672550.589828) can0 055#809C00B22801F801
(1446672550.590083) can0 065#01EB8E00F7FAE000
(1446672550.590369) can0 070#000EF208F8046000
(1446672550.590656) can0 075#1854000000000000
(1446672550.590966) can0 080#802608E200805005
(1446672550.591231) can0 0B0#A352C209A2778352
(1446672550.591231) can0 145#A10040FC8050F2FD
(1446672550.591474) can0 28C#00BE3600000050A0
(1446672550.591719) can0 008#8000800021EC80FE
(1446672550.591900) can0 2B5#0022AD935200004B
(1446672550.598118) can0 1B0#EC00B00000008000
(1446672550.598371) can0 1B5#2FFFC000000000F9
(1446672550.598630) can0 1D8#6380000000000000
(1446672550.598849) can0 010#F831B02F00000000
(1446672550.599114) can0 1E0#E016BD80C15B2800
(1446672550.601584) can0 008#8000800011FC80FE
(1446672550.603535) can0 072#2080000027FF00F0
(1446672550.608111) can0 0F5#0072637F80008000
(1446672550.608366) can0 120#8954004F80008000
(1446672550.608652) can0 130#11FF7300001C99C4
(1446672550.608930) can0 150#C073C7FF80000000
(1446672550.609223) can0 010#F831B02F00000000
(1446672550.609548) can0 1D0#6100000000000000
(1446672550.609549) can0 210#463E09A82000DFAD
(1446672550.609820) can0 055#809C00B22801F801
(1446672550.610172) can0 065#01EB8E00F7FAE000
(1446672550.610480) can0 070#000EF208F8046000
(1446672550.610481) can0 075#1854000000000000
(1446672550.610715) can0 080#802608E200805005
(1446672550.610955) can0 0B0#A352C209A2778352
(1446672550.611201) can0 145#211040FC8050F2FD
(1446672550.611598) can0 008#80008000010C80FE
(1446672550.618200) can0 1B0#EC00B00000008000
(1446672550.618396) can0 1B5#2FFFC000000000F9
(1446672550.618624) can0 1D8#6380000000000000
(1446672550.618898) can0 010#F831B02F00000000
(1446672550.619169) can0 072#2080000027FF00F0
(1446672550.619463) can0 1E0#E016BD80C14B2C00
(1446672550.619790) can0 2A9#840000C0C20006AC
(1446672550.620059) can0 2C3#505400FFFF012E53
(1446672550.621521) can0 008#80008000F11C80FE
(1446672550.628110) can0 0F5#0062677F80008000
(1446672550.628357) can0 120#8954004F80008000
(1446672550.628585) can0 130#11FF6300001C99CC
(1446672550.628806) can0 010#F831B02F00000000
(1446672550.629056) can0 150#C063C7FF90000000
(1446672550.629339) can0 1D0#6100000000000000
(1446672550.629616) can0 400#0201440113010102
(1446672550.629906) can0 055#809C00B22801F801
(1446672550.630205) can0 065#01EB8E00F7FAE000
(1446672550.630507) can0 070#000EF208F8046000
(1446672550.630507) can0 075#1854000000000000
(1446672550.630774) can0 080#802608E200805005
(1446672550.631044) can0 0B0#A352C209A2778352
(1446672550.631389) can0 145#211040FC8050F2FD
(1446672550.631683) can0 28C#00BE3600000050A0
(1446672550.631684) can0 008#80008000E12C80FE
(1446672550.631897) can0 2B5#0022AD935200004B
(1446672550.632163) can0 2C0#E5A0000002000000
(1446672550.632387) can0 2C5#0000E00000008700
(1446672550.632670) can0 370#00D3435F00900004
(1446672550.632976) can0 3AF#2000000000000000
(1446672550.633199) can0 3E0#0080984D18000000
(1446672550.633916) can0 072#2080000027FF00F0
(1446672550.634190) can0 210#463E09A82000DFAD
(1446672550.634441) can0 3B0#0044000028D2D800
(1446672550.638153) can0 1B0#EC00B00000008000
(1446672550.638420) can0 1B5#2FFFC000000000F9
(1446672550.638690) can0 1D8#6380000000000000
(1446672550.638973) can0 010#F831B02F00000000
(1446672550.639207) can0 1E0#E016BD80814B2C00
(1446672550.641518) can0 008#80008000D13C80FE
(1446672550.643367) can0 360#01A00003D3000000
(1446672550.648108) can0 0F5#00526B7F80008000
(1446672550.648320) can0 120#8954004F80008000
(1446672550.648579) can0 130#11FF5300001C99D4
(1446672550.648839) can0 150#C053C7FFA0000000
(1446672550.649153) can0 010#F831B02F00000000
(1446672550.649433) can0 072#2080000027FF00F0
(1446672550.649697) can0 1D0#6100000000000000
(1446672550.650000) can0 055#809C00B22801F801
(1446672550.650001) can0 065#01EB8E00F7FAE000
(1446672550.650277) can0 070#000EF208F8046000
(1446672550.650549) can0 075#1854000000000000
(1446672550.650841) can0 080#802608E200805005
(1446672550.651171) can0 0B0#A352C209A2778352
(1446672550.651436) can0 145#A10040FC8050F2FD
(1446672550.651436) can0 390#4F5C0E020000FF80
(1446672550.651680) can0 008#80008000C14C80FE
(1446672550.651922) can0 3CA#C000005600000000
(1446672550.652140) can0 405#2100000000000000
(1446672550.658186) can0 1B0#EC00B00000008000
(1446672550.658450) can0 1B5#2FFFC000000000F9
(1446672550.658755) can0 1D8#6380000000000000
(1446672550.659044) can0 010#F831B02F00000000
(1446672550.659357) can0 1E0#E016BD80C13B3000
(1446672550.659358) can0 210#463E09A82000DFAD
(1446672550.659616) can0 2A9#840000C0C20006AC
(1446672550.659850) can0 2C3#505400FFFF012E53
(1446672550.661591) can0 008#80008000B15C80FE
(1446672550.663429) can0 072#2080000027FF00F0
(1446672550.668119) can0 0F5#00426F7F80008000
(1446672550.668348) can0 120#8954004F80008000
(1446672550.668594) can0 130#11FF4300001C99DC
(1446672550.668921) can0 150#C043C7FFB0000000
(1446672550.669221) can0 010#F831B02F00000000
(1446672550.669471) can0 1D0#6100000000000000
(1446672550.669780) can0 055#809C00B22801F801
(1446672550.670021) can0 065#01EB8E00F7FAE000
(1446672550.670216) can0 070#000EF208F8046000
(1446672550.670459) can0 075#1854000000000000
(1446672550.670773) can0 080#802608E200805005
(1446672550.671013) can0 0B0#A352C209A2778352
(1446672550.671370) can0 145#211040FC8050F2FD
(1446672550.671692) can0 28C#00BE3600000050A0
(1446672550.671692) can0 008#80008000A16C80FE
(1446672550.671940) can0 2B5#0022AD935200004B
(1446672550.678153) can0 1B0#EC00B00000008000
(1446672550.678450) can0 1B5#2FFFC000000000F9
(1446672550.678727) can0 1D8#6380000000000000
(1446672550.679015) can0 010#F831B02F00000000
(1446672550.679348) can0 072#2080000027FF00F0
(1446672550.679348) can0 1E0#E016BD80C12B3400
(1446672550.681548) can0 008#80008000917C80FE
(1446672550.683773) can0 210#463E09A82000DFAD
(1446672550.688119) can0 0F5#0032737F80008000
(1446672550.688355) can0 120#8954004F80008000
(1446672550.688593) can0 130#11FF3300001C99E4
(1446672550.688835) can0 010#F831B02F00000000
(1446672550.689098) can0 150#C033C7FFC0000000
(1446672550.689350) can0 1D0#6100000000000000
(1446672550.689724) can0 055#809C00B22801F801
(1446672550.689966) can0 065#01EB8E00F7FAE000
(1446672550.690235) can0 070#000EF208F8046000
(1446672550.690448) can0 075#1854000000000000
(1446672550.690719) can0 080#802608E200805005
(1446672550.690970) can0 0B0#A352C209A2778352
(1446672550.691238) can0 145#211040FC8050F2FD
(1446672550.691528) can0 2C0#E5A0000001000000
(1446672550.691757) can0 008#80008000818C80FE
(1446672550.691999) can0 2C5#0000E00000008700
(1446672550.693567) can0 072#2080000027FF00F0
(1446672550.698195) can0 1B0#EC00B00000008000
(1446672550.698403) can0 1B5#2FFFC000000000F9
(1446672550.698646) can0 1D8#6380000000000000
(1446672550.698911) can0 010#F831B02F00000000
(1446672550.699164) can0 1E0#E016BD80812B3400
(1446672550.699377) can0 2A9#840000C0C20006AC
(1446672550.699620) can0 2C3#505400FFFF012E53
(1446672550.701564) can0 008#80008000719C80FE
(1446672550.708119) can0 0F5#0022777F80008000
(1446672550.708347) can0 120#8954004F80008000
(1446672550.708545) can0 130#11FF2300001C99EC
(1446672550.708847) can0 150#C023C7FFD0000000
(1446672550.709178) can0 010#F831B02F00000000
(1446672550.709473) can0 072#2080000027FF00F0
(1446672550.709826) can0 1D0#6100000000000000
(1446672550.709827) can0 055#809C00B22801F801
(1446672550.710089) can0 065#01EB8E00F7FAE000
(1446672550.710344) can0 070#000EF208F8046000
(1446672550.710609) can0 075#1854000000000000
(1446672550.710875) can0 080#802608E200805005
(1446672550.711210) can0 0B0#A352C209A2778352
(1446672550.711211) can0 145#A10040FC8050F2FD
(1446672550.711446) can0 210#463E09A82000DFAD
(1446672550.711688) can0 008#8000800061AC80FE
(1446672550.711957) can0 28C#00BE3600000050A0
(1446672550.712218) can0 2B5#0022AD935200004B
(1446672550.718177) can0 1B0#EC00B00000008000
(1446672550.718447) can0 1B5#2FFFC000000000F9
(1446672550.718688) can0 1D8#6380000000000000
(1446672550.718974) can0 010#F831B02F00000000
(1446672550.719200) can0 1E0#E016BD80C11B3800
(1446672550.721480) can0 008#8000800051BC80FE
(1446672550.723451) can0 072#2080000027FF00F0
(1446672550.728109) can0 0F5#00127B7F80008000
(1446672550.728353) can0 120#8954004F80008000
(1446672550.728560) can0 130#11FF1300001C99F4
(1446672550.728822) can0 010#F831B02F00000000
(1446672550.729086) can0 150#C013C7FFE0000000
(1446672550.729321) can0 1D0#6100000000000000
(1446672550.729691) can0 055#809C00B22801F801
(1446672550.729962) can0 065#01EB8E00F7FAE000
(1446672550.730179) can0 070#000EF208F8046000
(1446672550.730406) can0 075#1854000000000000
(1446672550.730663) can0 080#802608E200805005
(1446672550.730894) can0 0B0#A352C209A2778352
(1446672550.731126) can0 145#211040FC8050F2FD
(1446672550.731398) can0 370#00D3435F00900004
(1446672550.731660) can0 008#8000800041CC80FE
(1446672550.733774) can0 210#463E09A82000DFAD
(1446672550.738145) can0 1B0#EC00B00000008000
(1446672550.738386) can0 1B5#2FFFC000000000F9
(1446672550.738670) can0 1D8#6380000000000000
(1446672550.738879) can0 010#F831B02F00000000
(1446672550.739170) can0 072#2080000027FF00F0
(1446672550.739440) can0 1E0#E016BD80C10B3C00
(1446672550.739729) can0 2A9#840000C0C20006AC
(1446672550.740000) can0 2C3#505400FFFF012E53
(1446672550.741551) can0 008#8000800031DC80FE
(1446672550.743459) can0 360#01A00003D3000000
(1446672550.748037) can0 0F5#00027F7F80008000
(1446672550.748300) can0 120#8954004F80008000
(1446672550.748582) can0 130#11FF0300001C99FC
(1446672550.748832) can0 150#C003C7FFF0000000
(1446672550.749147) can0 010#F831B02F00000000
(1446672550.749440) can0 1D0#6100000000000000
(1446672550.749770) can0 390#4F5D0A020000FF80
(1446672550.749770) can0 055#809C00B22801F801
(1446672550.750000) can0 065#01EB8E00F7FAE000
(1446672550.750368) can0 070#000EF208F8046000
(1446672550.750613) can0 075#1854000000000000
(1446672550.750863) can0 080#802608E200805005
(1446672550.751192) can0 0B0#A352C209A2778352
(1446672550.751193) can0 145#211040FC8050F2FD
(1446672550.751438) can0 28C#00BE3600000050A0
(1446672550.751682) can0 008#8000800021EC80FE
(1446672550.751938) can0 2B5#0022AD935200004B
(1446672550.752212) can0 2C0#E5A0000001000000
(1446672550.752480) can0 2C5#0000E00000008700
(1446672550.752695) can0 3AF#2000000000000000
(1446672550.753570) can0 072#2080000027FF00F0
(1446672550.753866) can0 3B0#0044000028D2D800
(1446672550.758165) can0 1B0#EC00B00000008000
(1446672550.758431) can0 1B5#2FFFC000000000F9
(1446672550.758704) can0 1D8#6380000000000000
(1446672550.758971) can0 010#F831B02F00000000
(1446672550.759250) can0 1E0#E016BD80810B3C00
(1446672550.759563) can0 210#463E09A82000DFAD
(1446672550.759564) can0 3D0#428006E8006100A8
(1446672550.761473) can0 008#8000800011FC80FE
(1446672550.763762) can0 430#0636000000280828
(1446672550.768071) can0 0F5#00F2437F80008000
(1446672550.768337) can0 120#8954004F80008000
(1446672550.768585) can0 130#11FFF300001C9984
(1446672550.768913) can0 010#F831B02F00000000
(1446672550.769210) can0 072#2080000027FF00F0
(1446672550.769520) can0 150#C0F3C7FF00000000
(1446672550.769521) can0 1D0#6100000000000000
(1446672550.769790) can0 055#809C00B22801F801
(1446672550.770149) can0 065#01EB8E00F7FAE000
(1446672550.770461) can0 070#000EF208F8046000
(1446672550.770462) can0 075#1854000000000000
(1446672550.770725) can0 080#802608E200805005
(1446672550.770918) can0 0B0#A352C209A2778352
(1446672550.771175) can0 145#A10040FC8050F2FD
(1446672550.771454) can0 3CA#C000004000000000
(1446672550.771698) can0 008#80008000010C80FE
(1446672550.778173) can0 1B0#EC00B00000008000
(1446672550.778439) can0 1B5#2FFFC000000000F9
(1446672550.778710) can0 1D8#6380000000000000
(1446672550.778994) can0 010#F831B02F00000000
(1446672550.779274) can0 1E0#E016BD80C1FB0000
(1446672550.779553) can0 2A9#840000C0C20006AC
(1446672550.779553) can0 2C3#505400FFFF012E53
(1446672550.781487) can0 008#80008000F11C80FE
(1446672550.783535) can0 072#2080000027FF00F0
(1446672550.783828) can0 210#463E09A82000DFAD
(1446672550.788023) can0 0F5#00E2477F80008000
(1446672550.788335) can0 120#8954004F80008000
(1446672550.788658) can0 130#11FFE300001C998C
(1446672550.788996) can0 150#C0E3C7FF10000000
(1446672550.789258) can0 010#F831B02F00000000
(1446672550.789259) can0 1D0#6100000000000000
(1446672550.789710) can0 055#809C00B22801F801
(1446672550.789938) can0 065#01EB8E00F7FAE000
(1446672550.790190) can0 070#000EF208F8046000
(1446672550.790434) can0 075#1854000000000000
(1446672550.790718) can0 080#802608E200805005
(1446672550.791047) can0 0B0#A352C209A2778352
(1446672550.791417) can0 145#211040FC8050F2FD
(1446672550.791418) can0 28C#00BE3600000050A0
(1446672550.791693) can0 008#80008000E12C80FE
(1446672550.791960) can0 2B5#0022AD935200004B
(1446672550.798146) can0 1B0#EC00B00000008000
(1446672550.798437) can0 1B5#2FFFC000000000F9
(1446672550.798708) can0 1D8#6380000000000000
(1446672550.798998) can0 010#F831B02F00000000
(1446672550.799273) can0 072#2080000027FF00F0
(1446672550.799546) can0 1E0#E016BD80C1EB0400
(1446672550.801476) can0 008#80008000D13C80FE
(1446672550.807999) can0 0F5#00D24B7F80008000
(1446672550.808317) can0 120#8954004F80008000
(1446672550.808529) can0 130#11FFD300001C9994
(1446672550.808770) can0 010#F831B02F00000000
(1446672550.809029) can0 150#C0D3C7FF20000000
(1446672550.809370) can0 1D0#6100000000000000
(1446672550.809660) can0 210#463E09A82000DFAD
(1446672550.809975) can0 055#809C00B22801F801
(1446672550.809976) can0 065#01EB8E00F7FAE000
(1446672550.810220) can0 070#000EF208F8046000
(1446672550.810463) can0 075#1854000000000000
(1446672550.810704) can0 080#802608E200805005
(1446672550.810920) can0 0B0#A352C209A2778352
(1446672550.811166) can0 145#211040FC8050F2FD
(1446672550.811414) can0 2C0#E5A0000002000000
(1446672550.811682) can0 008#80008000C14C80FE
(1446672550.811921) can0 2C5#0000E00000008700
(1446672550.813786) can0 072#2080000027FF00F0
(1446672550.818157) can0 1B0#EC00B00000008000
(1446672550.818402) can0 1B5#2FFFC000000000F9
(1446672550.818680) can0 1D8#6380000000000000
(1446672550.818956) can0 010#F831B02F00000000
(1446672550.819249) can0 1E0#E016BD8081EB0400
(1446672550.819520) can0 2A9#840000C0C20006AC
(1446672550.819787) can0 2C3#505400FFFF012E53
(1446672550.821451) can0 008#80008000B15C80FE
(1446672550.828108) can0 0F5#00C24F7F80008000
(1446672550.828354) can0 120#8954004F80008000
(1446672550.828583) can0 130#11FFC300001C999C
(1446672550.828822) can0 150#C0C3C7FF30000000
(1446672550.829080) can0 010#F831B02F00000000
(1446672550.829392) can0 072#2080000027FF00F0
(1446672550.829687) can0 1D0#6100000000000000
(1446672550.830034) can0 055#809C00B22801F801
(1446672550.830034) can0 065#01EB8E00F7FAE000
(1446672550.830394) can0 070#000EF208F8046000
(1446672550.830689) can0 075#1854000000000000
(1446672550.830689) can0 080#802608E200805005
(1446672550.830920) can0 0B0#A352C209A2778352
(1446672550.831163) can0 145#A10040FC8050F2FD
(1446672550.831443) can0 28C#00BE3600000050A0
(1446672550.831684) can0 008#80008000A16C80FE
(1446672550.831938) can0 2B5#0022AD935200004B
(1446672550.832200) can0 370#00D3435F00900004
(1446672550.833796) can0 210#463E09A82000DFAD
(1446672550.838144) can0 1B0#EC00B00000008000
(1446672550.838452) can0 1B5#2FFFC000000000F9
(1446672550.838655) can0 1D8#6380000000000000
(1446672550.838937) can0 010#F831B02F00000000
(1446672550.839144) can0 1E0#E016BD80C1DB0800
(1446672550.841530) can0 008#80008000917C80FE
(1446672550.843629) can0 072#2080000027FF00F0
(1446672550.843862) can0 360#01A00003D3000000
(1446672550.848079) can0 0F5#00B2537F80008000
(1446672550.848425) can0 120#8954004F80008000
(1446672550.848660) can0 130#11FFB300001C99A4
(1446672550.848966) can0 150#C0B3C7FF40000000
(1446672550.849209) can0 010#F831B02F00000000
(1446672550.849527) can0 1D0#6100000000000000
(1446672550.849528) can0 390#4F5E06020000FF80
(1446672550.849767) can0 055#809C00B22801F801
(1446672550.850004) can0 065#01EB8E00F7FAE000
(1446672550.850332) can0 070#000EF208F8046000
(1446672550.850598) can0 075#1854000000000000
(1446672550.850894) can0 080#802608E200805005
(1446672550.850896) can0 0B0#A352C209A2778352
(1446672550.851163) can0 145#211040FC8050F2FD
(1446672550.851480) can0 008#80008000818C80FE
(1446672550.858188) can0 1B0#EC00B00000008000
(1446672550.858389) can0 1B5#2FFFC000000000F9
(1446672550.858651) can0 1D8#6380000000000000
(1446672550.858924) can0 010#F831B02F00000000
(1446672550.859209) can0 072#2080000027FF00F0
(1446672550.859533) can0 1E0#E016BD80C1CB0C00
(1446672550.859849) can0 210#463E09A82000DFAD
(1446672550.859850) can0 2A9#840000C0C20006AC
(1446672550.860146) can0 2C3#505400FFFF012E53
(1446672550.861458) can0 008#80008000719C80FE
(1446672550.868095) can0 0F5#00A2577F80008000
(1446672550.868332) can0 120#8954004F80008000
(1446672550.868548) can0 130#11FFA300001C99AC
(1446672550.868790) can0 150#C0A3C7FF50000000
(1446672550.869062) can0 010#F831B02F00000000
(1446672550.869335) can0 1D0#6100000000000000
(1446672550.869709) can0 055#809C00B22801F801
(1446672550.869961) can0 065#01EB8E00F7FAE000
(1446672550.870214) can0 070#000EF208F8046000
(1446672550.870436) can0 075#1854000000000000
(1446672550.870671) can0 080#802608E200805005
(1446672550.870887) can0 0B0#A352C209A2778352
(1446672550.871138) can0 145#211040FC8050F2FD
(1446672550.871379) can0 28C#00BE3600000050A0
(1446672550.871619) can0 008#8000800061AC80FE
(1446672550.871837) can0 2B5#0022AD935200004B
(1446672550.872166) can0 2C0#E5A0000002000000
(1446672550.872438) can0 2C5#0000E00000008700
(1446672550.872685) can0 3AF#2000000000000000
(1446672550.873585) can0 072#2080000027FF00F0
(1446672550.873869) can0 3B0#0044000028D2D800
(1446672550.878194) can0 1B0#EC00B00000008000
(1446672550.878383) can0 1B5#2FFFC000000000F9
(1446672550.878657) can0 1D8#6380000000000000
(1446672550.878930) can0 010#F831B02F00000000
(1446672550.879233) can0 1E0#E016BD8081CB0C00
(1446672550.879434) can0 400#0303050101010101
(1446672550.881448) can0 008#8000800051BC80FE
(1446672550.883574) can0 210#463E09A82000DFAD
(1446672550.888104) can0 0F5#00925B7F80008000
(1446672550.888351) can0 120#8954004F80008000
(1446672550.888592) can0 130#11FF9300001C99B4
(1446672550.888819) can0 010#F831B02F00000000
(1446672550.889084) can0 072#2080000027FF00F0
(1446672550.889370) can0 150#C093C7FF60000000
(1446672550.889655) can0 1D0#6100000000000000
(1446672550.889950) can0 055#809C00B22801F801
(1446672550.890298) can0 065#01EB8E00F7FAE000
(1446672550.890299) can0 070#000EF208F8046000
(1446672550.890636) can0 075#1854000000000000
(1446672550.890876) can0 080#802608E200805005
(1446672550.891188) can0 0B0#A352C209A2778352
(1446672550.891189) can0 145#A10040FC8050F2FD
(1446672550.891437) can0 3CA#C000005100000000
(1446672550.891669) can0 008#8000800041CC80FE
(1446672550.898172) can0 1B0#EC00B00000008000
(1446672550.898460) can0 1B5#2FFFC000000000F9
(1446672550.898759) can0 1D8#6380000000000000
(1446672550.899083) can0 010#F831B02F00000000
(1446672550.899083) can0 1E0#E016BD80C1BB1000
(1446672550.899387) can0 2A9#840000C0C20006AC
(1446672550.899707) can0 2C3#505400FFFF012E53
(1446672550.899958) can0 405#016439861B6C07D5
(1446672550.901499) can0 008#8000800031DC80FE
(1446672550.903307) can0 072#2080000027FF00F0
(1446672550.908103) can0 0F5#00825F7F80008000
(1446672550.908339) can0 120#8954004F80008000
(1446672550.908616) can0 130#11FF8300001C99BC
(1446672550.908817) can0 150#C083C7FF70000000
(1446672550.909042) can0 010#F831B02F00000000
(1446672550.909369) can0 1D0#6100000000000000
(1446672550.909651) can0 210#463E09A82000DFAD
(1446672550.909942) can0 055#809C00B22801F801
(1446672550.910222) can0 065#01EB8E00F7FAE000
(1446672550.910223) can0 070#000EF208F8046000
(1446672550.910459) can0 075#1854000000000000
(1446672550.910701) can0 080#802608E200805005
(1446672550.910943) can0 0B0#A352C209A2778352
(1446672550.911192) can0 145#211040FC8050F2FD
(1446672550.911432) can0 28C#00BE3600000050A0
(1446672550.911673) can0 008#8000800021EC80FE
(1446672550.911925) can0 2B5#0022AD935200004B
(1446672550.918172) can0 1B0#EC00B00000008000
(1446672550.918435) can0 1B5#2FFFC000000000F9
(1446672550.918710) can0 1D8#6380000000000000
(1446672550.918979) can0 010#F831B02F00000000
(1446672550.919243) can0 072#2080000027FF00F0
(1446672550.919458) can0 1E0#E016BD80C1AB1400
(1446672550.921430) can0 008#8000800011FC80FE
(1446672550.928002) can0 0F5#0072637F80008000
(1446672550.928409) can0 120#8954004F80008000
(1446672550.928701) can0 130#11FF7300001C99C4
(1446672550.929051) can0 150#C073C7FF80000000
(1446672550.929052) can0 010#F831B02F00000000
(1446672550.929329) can0 1D0#6100000000000000
(1446672550.929739) can0 055#809C00B22801F801
(1446672550.929988) can0 065#01EB8E00F7FAE000
(1446672550.930210) can0 070#000EF208F8046000
(1446672550.930436) can0 075#1854000000000000
(1446672550.930685) can0 080#802608E200805005
(1446672550.930954) can0 0B0#A352C209A2778352
(1446672550.931247) can0 145#211040FC8050F2FD
(1446672550.931470) can0 2C0#E5A0000001000000
(1446672550.931795) can0 008#80008000010C80FE
(1446672550.932142) can0 2C5#0000E00000008700
(1446672550.932434) can0 370#00D3435F00900004
(1446672550.932435) can0 3E0#0080984D18000000
(1446672550.933557) can0 072#2080000027FF00F0
(1446672550.933774) can0 210#463E09A82000DFAD
(1446672550.938193) can0 1B0#EC00B00000008000
(1446672550.938384) can0 1B5#2FFFC000000000F9
(1446672550.938655) can0 1D8#6380000000000000
(1446672550.938909) can0 010#F831B02F00000000
(1446672550.939188) can0 1E0#E016BD8081AB1400
(1446672550.939494) can0 2A9#840000C0C20006AC
(1446672550.939702) can0 2C3#505400FFFF012E53
(1446672550.941497) can0 008#80008000F11C80FE
(1446672550.943699) can0 360#01A00003D3000000
(1446672550.948077) can0 0F5#0062677F80008000
(1446672550.948411) can0 120#8954004F80008000
(1446672550.948705) can0 130#11FF6300001C99CC
(1446672550.949033) can0 010#F831B02F00000000
(1446672550.949034) can0 072#2080000027FF00F0
(1446672550.949366) can0 150#C063C7FF90000000
(1446672550.949651) can0 1D0#6100000000000000
(1446672550.949945) can0 055#809C00B22801F801
(1446672550.950215) can0 065#01EB8E00F7FAE000
(1446672550.950216) can0 070#000EF208F8046000
(1446672550.950452) can0 075#1854000000000000
(1446672550.950669) can0 080#802608E200805005
(1446672550.950911) can0 0B0#A352C209A2778352
(1446672550.951170) can0 145#A10040FC8050F2FD
(1446672550.951441) can0 28C#00BE3600000050A0
(1446672550.951716) can0 008#80008000E12C80FE
(1446672550.952002) can0 2B5#0022AD935200004B
(1446672550.952294) can0 390#4F5F02020000FF80
(1446672550.958111) can0 1B0#EC00B00000008000
(1446672550.958413) can0 1B5#2FFFC000000000F9
(1446672550.958706) can0 1D8#6380000000000000
(1446672550.958991) can0 010#F831B02F00000000
(1446672550.959273) can0 1E0#E016BD80C19B1800
(1446672550.959579) can0 210#463E09A82000DFAD
(1446672550.959580) can0 3D0#428006E8006100A8
(1446672550.961452) can0 008#80008000D13C80FE
(1446672550.963506) can0 072#2080000027FF00F0
(1446672550.968076) can0 0F5#00526B7F80008000
(1446672550.968413) can0 120#8954004F80008000
(1446672550.968747) can0 130#11FF5300001C99D4
(1446672550.969010) can0 010#F831B02F00000000
(1446672550.969011) can0 150#C053C7FFA0000000
(1446672550.969251) can0 1D0#6100000000000000
(1446672550.969736) can0 055#809C00B22801F801
(1446672550.969976) can0 065#01EB8E00F7FAE000
(1446672550.970247) can0 070#000EF208F8046000
(1446672550.970577) can0 075#1854000000000000
(1446672550.970884) can0 080#802608E200805005
(1446672550.971166) can0 0B0#A352C209A2778352
(1446672550.971167) can0 145#211040FC8050F2FD
(1446672550.971549) can0 008#80008000C14C80FE
(1446672550.978187) can0 1B0#EC00B00000008000
(1446672550.978356) can0 1B5#2FFFC000000000F9
(1446672550.978624) can0 1D8#6380000000000000
(1446672550.978888) can0 010#F831B02F00000000
(1446672550.979166) can0 072#2080000027FF00F0
(1446672550.979504) can0 1E0#E016BD80C18B1C00
(1446672550.979735) can0 2A9#840000C0C20006AC
(1446672550.980003) can0 2C3#505400FFFF012E53
(1446672550.981496) can0 008#80008000B15C80FE
(1446672550.983367) can0 210#463E09A82000DFAD
(1446672550.988075) can0 0F5#00426F7F80008000
(1446672550.988410) can0 120#8954004F80008000
(1446672550.988706) can0 130#11FF4300001C99DC
(1446672550.989057) can0 150#C043C7FFB0000000
(1446672550.989058) can0 010#F831B02F00000000
(1446672550.989334) can0 1D0#6100000000000000
(1446672550.989705) can0 055#809C00B22801F801
(1446672550.989992) can0 065#01EB8E00F7FAE000
(1446672550.990190) can0 070#000EF208F8046000
(1446672550.990454) can0 075#1854000000000000
(1446672550.990706) can0 080#802608E200805005
(1446672550.990960) can0 0B0#A352C209A2778352
(1446672550.991245) can0 145#211040FC8050F2FD
(1446672550.991517) can0 28C#00BE3600000050A0
(1446672550.991844) can0 008#80008000A16C80FE
(1446672550.991845) can0 2B5#0022AD935200004B
(1446672550.992144) can0 2C0#E5A0000002000000
(1446672550.992438) can0 2C5#0000E00000008700
(1446672550.992682) can0 3AF#2000000000000000
(1446672550.993601) can0 072#2080000027FF00F0
(1446672550.993924) can0 3B0#0044000028D2D800
(1446672550.998147) can0 1B0#EC00B00000008000
(1446672550.998500) can0 1B5#2FFFC000000000F9
(1446672550.998744) can0 1D8#6380000000000000
(1446672550.999036) can0 010#F831B02F00000000
(1446672550.999221) can0 1E0#E016BD80818B1C00
(1446672551.001491) can0 008#80008000917C80FE
(1446672551.008072) can0 0F5#0032737F80008000
(1446672551.008348) can0 120#8954004F80008000
(1446672551.008573) can0 130#11FF3300001C99E4
(1446672551.008803) can0 150#C033C7FFC0000000
(1446672551.009045) can0 010#F831B02F00000000
(1446672551.009366) can0 072#2080000027FF00F0
(1446672551.009667) can0 1D0#6100000000000000
(1446672551.009913) can0 055#809C00B22801F801
(1446672551.010192) can0 065#01EB8E00F7FAE000
(1446672551.010507) can0 070#000EF208F8046000
(1446672551.010508) can0 075#1854000000000000
(1446672551.010764) can0 080#802608E200805005
(1446672551.011032) can0 0B0#A352C209A2778352
(1446672551.011369) can0 145#A10040FC8050F2FD
(1446672551.011369) can0 210#463E09A82000DFAD
(1446672551.011630) can0 008#80008000818C80FE
(1446672551.011920) can0 3CA#C000005200000000
(1446672551.018138) can0 1B0#EC00B00000008000
(1446672551.018349) can0 1B5#2FFFC000000000F9
(1446672551.018590) can0 1D8#6380000000000000
(1446672551.018833) can0 010#F831B02F00000000
(1446672551.019103) can0 1E0#E016BD80C17B2000
(1446672551.019428) can0 2A9#840000C0C20006AC
(1446672551.019680) can0 2C3#505400FFFF012E53
(1446672551.021394) can0 008#80008000719C80FE
(1446672551.023608) can0 072#2080000027FF00F0
(1446672551.028076) can0 0F5#0022777F80008000
(1446672551.028348) can0 120#8954004F80008000
(1446672551.028580) can0 130#11FF2300001C99EC
(1446672551.028871) can0 150#C023C7FFD0000000
(1446672551.029168) can0 010#F831B02F00000000
(1446672551.029411) can0 1D0#6100000000000000
(1446672551.029659) can0 055#809C00B22801F801
(1446672551.029953) can0 065#01EB8E00F7FAE000
(1446672551.030185) can0 070#000EF208F8046000
(1446672551.030432) can0 075#1854000000000000
(1446672551.030684) can0 080#802608E200805005
(1446672551.031008) can0 0B0#A352C209A2778352
(1446672551.031430) can0 145#211040FC8050F2FD
(1446672551.031431) can0 28C#00BE3600000050A0
(1446672551.031688) can0 008#8000800061AC80FE
(1446672551.031940) can0 2B5#0022AD935200004B
(1446672551.032173) can0 370#00D3435F00900004
(1446672551.033631) can0 210#463E09A82000DFAD
(1446672551.038199) can0 1B0#EC00B00000008000
(1446672551.038392) can0 1B5#2FFFC000000000F9
(1446672551.038636) can0 1D8#6380000000000000
(1446672551.038898) can0 010#F831B02F00000000
(1446672551.039173) can0 072#2080000027FF00F0
(1446672551.039445) can0 1E0#E016BD80C16B2400
(1446672551.041482) can0 008#8000800051BC80FE
(1446672551.043559) can0 360#01A00003D3000000
(1446672551.048105) can0 0F5#00127B7F80008000
(1446672551.048353) can0 120#8954004F80008000
(1446672551.048586) can0 130#11FF1300001C99F4
(1446672551.048814) can0 150#C013C7FFE0000000
(1446672551.049046) can0 010#F831B02F00000000
(1446672551.049419) can0 1D0#6100000000000000
(1446672551.049718) can0 390#4F503E020000FF80
(1446672551.050067) can0 055#809C00B22801F801
(1446672551.050068) can0 065#01EB8E00F7FAE000
(1446672551.050376) can0 070#000EF208F8046000
(1446672551.050636) can0 075#1854000000000000
(1446672551.050932) can0 080#802608E200805005
(1446672551.050934) can0 0B0#A352C209A2778352
(1446672551.051187) can0 145#211040FC8050F2FD
(1446672551.051418) can0 2C0#E5A0000001000000
(1446672551.051684) can0 008#8000800041CC80FE
(1446672551.051933) can0 2C5#0000E00000008700
(1446672551.053569) can0 072#2080000027FF00F0
(1446672551.058173) can0 1B0#EC00B00000008000
(1446672551.058439) can0 1B5#2FFFC000000000F9
(1446672551.058715) can0 1D8#6380000000000000
(1446672551.059000) can0 010#F831B02F00000010
(1446672551.059273) can0 1E0#E016BD80816B2400
(1446672551.059590) can0 210#463E09A82000DFAD
(1446672551.059591) can0 2A9#840000C0C20006AC
(1446672551.059815) can0 2C3#505400FFFF012E53
(1446672551.061455) can0 008#8000800031DC80FE
(1446672551.068092) can0 0F5#00027F7F80008000
(1446672551.068392) can0 120#8954004F80008000
(1446672551.068713) can0 130#11FF0300001C99FC
(1446672551.069038) can0 010#F831B02F00000010
(1446672551.069039) can0 072#2080000027EF00F0
(1446672551.069338) can0 150#C003C7FFF0000000
(1446672551.069569) can0 1D0#6100000000000000
(1446672551.069783) can0 055#809C00B22801F801
(1446672551.070013) can0 065#01EB8E00F7FAE000
(1446672551.070344) can0 070#000EF208F8046000
(1446672551.070639) can0 075#1854000000000000
(1446672551.070900) can0 080#802608E200805005
(1446672551.071188) can0 0B0#A352C209A2778352
(1446672551.071188) can0 145#A10040FC8050F2FD
(1446672551.071480) can0 28C#00BE3600000050A0
(1446672551.071723) can0 008#8000800021EC80FE
(1446672551.071967) can0 2B5#0022AD935200004B
(1446672551.078176) can0 1B0#EC00B00000008000
(1446672551.078443) can0 1B5#2FFFC000000000F9
(1446672551.078715) can0 1D8#6380000000000000
(1446672551.079001) can0 010#F831B02F00000010
(1446672551.079228) can0 1E0#E016BD80C15B2800
(1446672551.081481) can0 008#8000800011FC80FE
(1446672551.083365) can0 072#2080000027EF00F0
(1446672551.083570) can0 210#463E09A82000DFAD
(1446672551.088095) can0 0F5#00F2437F80008000
(1446672551.088335) can0 120#8954004F80008000
(1446672551.088613) can0 130#11FFF300001C9984
(1446672551.088768) can0 150#C0F3C7FF00000000
(1446672551.089060) can0 010#F831B02F00000010
(1446672551.089328) can0 1D0#6100000000000000
(1446672551.089701) can0 055#809C00B22801F801
(1446672551.089948) can0 065#01EB8E00F7FAE000
(1446672551.090202) can0 070#000EF208F8046000
(1446672551.090449) can0 075#1854000000000000
(1446672551.090636) can0 080#802608E200805005
(1446672551.090876) can0 0B0#A352C209A2778352
(1446672551.091128) can0 145#211040FC8050F2FD
(1446672551.091455) can0 008#80008000010C80FE
(1446672551.098184) can0 1B0#EC00B00000008000
(1446672551.098385) can0 1B5#2FFFC000000000F9
(1446672551.098647) can0 1D8#6380000000000000
(1446672551.098945) can0 010#F831B02F00000010
(1446672551.099211) can0 072#2080000027EF00F0
(1446672551.099488) can0 1E0#E016BD80C14B2C00
(1446672551.099807) can0 2A9#840000C0C20006AC
(1446672551.099808) can0 2C3#505400FFFF012E53
(1446672551.101389) can0 008#80008000F11C80FE
(1446672551.107997) can0 0F5#00E2477F80008000
(1446672551.108361) can0 120#8954004F80008000
(1446672551.108623) can0 130#11FFE300001C998C
(1446672551.108914) can0 150#C0E3C7FF10000000
(1446672551.109240) can0 010#F831B02F00000010
(1446672551.109241) can0 1D0#6100000000000000
(1446672551.109505) can0 210#463E09A82000DFAD
(1446672551.109785) can0 055#809C00B22801F801
(1446672551.110081) can0 065#01EB8E00F7FAE000
(1446672551.110346) can0 070#000EF208F8046000
(1446672551.110638) can0 075#1854000000000000
(1446672551.110639) can0 080#802608E200805005
(1446672551.110884) can0 0B0#A352C209A2778352
(1446672551.111134) can0 145#211040FC8050F2FD
(1446672551.111349) can0 28C#00BE3600000050A0
(1446672551.111616) can0 008#80008000E12C80FE
(1446672551.111860) can0 2B5#0022AD935200004B
(1446672551.112099) can0 2C0#E5A0000001000000
(1446672551.112400) can0 2C5#0000E00000008700
(1446672551.112654) can0 3AF#2000000000000000
(1446672551.113505) can0 072#2080000027EF00F0
(1446672551.113818) can0 3B0#0044000028D2D800
(1446672551.118138) can0 1B0#EC00B00000008000
(1446672551.118429) can0 1B5#2FFFC000000000F9
(1446672551.118715) can0 1D8#6380000000000000
(1446672551.118990) can0 1E0#E016BD80814B2C00
(1446672551.119244) can0 010#F831B02F00000010
(1446672551.121362) can0 008#80008000D13C80FE
(1446672551.128048) can0 0F5#00D24B7F80008000
(1446672551.128292) can0 120#8954004F80008000
(1446672551.128551) can0 130#11FFD300001C9994
(1446672551.128844) can0 150#C0D3C7FF20000000
(1446672551.129174) can0 010#F831B02F00000010
(1446672551.129462) can0 072#2080000027EF00F0
(1446672551.129463) can0 1D0#6100000000000000
(1446672551.129768) can0 055#809C00B22801F801
(1446672551.130088) can0 065#01EB8E00F7FAE000
(1446672551.130374) can0 070#000EF208F8046000
(1446672551.130657) can0 075#1854000000000000
(1446672551.130963) can0 080#802608E200805005
(1446672551.130964) can0 0B0#A352C209A2778352
(1446672551.131257) can0 145#A10040FC8050F2FD
(1446672551.131542) can0 370#00D3435F00900004
(1446672551.131875) can0 008#80008000C14C80FE
(1446672551.131876) can0 3CA#C000005300000000
(1446672551.132173) can0 400#0401020101040201
(1446672551.132413) can0 581#8100FFFFFFFFFFFF
(1446672551.133554) can0 210#463E09A82000DFAD
(1446672551.138193) can0 1B0#EC00B00000008000
(1446672551.138394) can0 1B5#2FFFC000000000F9
(1446672551.138613) can0 1D8#6380000000000000
(1446672551.138852) can0 010#F831B02F00000010
(1446672551.139170) can0 1E0#E016BD80C13B3000
(1446672551.139464) can0 2A9#840000C0C20006AC
(1446672551.139710) can0 2C3#505400FFFF012E53
(1446672551.141453) can0 008#80008000B15C80FE
(1446672551.143548) can0 072#2080000027EF00F0
(1446672551.143787) can0 360#01A00003D3000000
(1446672551.148060) can0 0F5#00C24F7F80008000
(1446672551.148381) can0 120#8954004F80008000
(1446672551.148676) can0 130#11FFC300001C999C
(1446672551.149027) can0 010#F831B02F00000010
(1446672551.149028) can0 150#C0C3C7FF30000000
(1446672551.149406) can0 1D0#6100000000000000
(1446672551.149702) can0 390#4F513A020000FF80
(1446672551.149703) can0 055#809C00B22801F801
(1446672551.149997) can0 065#01EB8E00F7FAE000
(1446672551.150265) can0 070#000EF208F8046000
(1446672551.150560) can0 075#1854000000000000
(1446672551.150830) can0 080#802608E200805005
(1446672551.151160) can0 0B0#A352C209A2778352
(1446672551.151161) can0 145#211040FC8050F2FD
(1446672551.151414) can0 28C#00BE3600000050A0
(1446672551.151642) can0 008#80008000A16C80FE
(1446672551.151860) can0 2B5#0022AD935200004B
(1446672551.152101) can0 405#0243350030012E53
(1446672551.158142) can0 1B0#EC00B00000008000
(1446672551.158435) can0 1B5#2FFFC000000000F9
(1446672551.158711) can0 1D8#6380000000000000
(1446672551.159002) can0 010#F831B02F00000010
(1446672551.159328) can0 072#2080000027EF00F0
(1446672551.159329) can0 1E0#E016BD80C12B3400
(1446672551.159578) can0 210#463E09A82000DFAD
(1446672551.159820) can0 3D0#428006E8006100A8
(1446672551.161442) can0 008#80008000917C80FE
(1446672551.168036) can0 0F5#00B2537F80008000
(1446672551.168372) can0 120#8954004F80008000
(1446672551.168640) can0 130#11FFB300001C99A4
(1446672551.168952) can0 010#F831B02F00000010
(1446672551.169269) can0 150#C0B3C7FF40000000
(1446672551.169270) can0 1D0#6100000000000000
(1446672551.169707) can0 055#809C00B22801F801
(1446672551.169960) can0 065#01EB8E00F7FAE000
(1446672551.170209) can0 070#000EF208F8046000
(1446672551.170464) can0 075#1854000000000000
(1446672551.170787) can0 080#802608E200805005
(1446672551.171099) can0 0B0#A352C209A2778352
(1446672551.171351) can0 145#211040FC8050F2FD
(1446672551.171352) can0 2C0#E5A0000002000000
(1446672551.171648) can0 008#80008000818C80FE
(1446672551.171876) can0 2C5#0000E00000008700
(1446672551.173858) can0 072#2080000027EF00F0
(1446672551.178179) can0 1B0#EC00B00000008000
(1446672551.178465) can0 1B5#2FFFC000000000F9
(1446672551.178762) can0 1D8#6380000000000000
(1446672551.179086) can0 010#F831B02F00000010
(1446672551.179087) can0 1E0#E016BD80812B3400
(1446672551.179339) can0 2A9#840000C0C20006AC
(1446672551.179582) can0 2C3#505400FFFF012E53
(1446672551.181453) can0 008#80008000719C80FE
(1446672551.183505) can0 210#463E09A82000DFAD
(1446672551.188066) can0 0F5#00A2577F80008000
(1446672551.188390) can0 120#8954004F80008000
(1446672551.188677) can0 130#11FFA300001C99AC
(1446672551.188994) can0 150#C0A3C7FF50000000
(1446672551.188994) can0 010#F831B02F00000010
(1446672551.189275) can0 072#2080000027EF00F0
(1446672551.189549) can0 1D0#6100000000000000
(1446672551.189833) can0 055#809C00B22801F801
(1446672551.190102) can0 065#01EB8E00F7FAE000
(1446672551.190369) can0 070#000EF208F8046000
(1446672551.190663) can0 075#1854000000000000
(1446672551.190664) can0 080#802608E200805005
(1446672551.190952) can0 0B0#A352C209A2778352
(1446672551.191242) can0 145#A10040FC8050F2FD
(1446672551.191535) can0 28C#00BE3600000050A0
(1446672551.191803) can0 008#8000800061AC80FE
(1446672551.191805) can0 2B5#0022AD935200004B
(1446672551.198146) can0 1B0#EC00B00000008000
(1446672551.198434) can0 1B5#2FFFC000000000F9
(1446672551.198716) can0 1D8#6380000000000000
(1446672551.198961) can0 010#F831B02F00000010
(1446672551.199203) can0 1E0#E016BD80C11B3800
(1446672551.201335) can0 008#8000800051BC80FE
(1446672551.203570) can0 072#2080000027EF00F0
(1446672551.208051) can0 0F5#00925B7F80008000
(1446672551.208280) can0 120#8954004F80008000
(1446672551.208510) can0 130#11FF9300001C99B4
(1446672551.208758) can0 150#C093C7FF60000000
(1446672551.209029) can0 010#F831B02F00000010
(1446672551.209403) can0 1D0#6100000000000000
(1446672551.209701) can0 210#463E09A82000DFAD
(1446672551.209702) can0 055#809C00B22801F801
(1446672551.209986) can0 065#01EB8E00F7FAE000
(1446672551.210186) can0 070#000EF208F8046000
(1446672551.210428) can0 075#1854000000000000
(1446672551.210666) can0 080#802608E200805005
(1446672551.210910) can0 0B0#A352C209A2778352
(1446672551.211161) can0 145#211040FC8050F2FD
(1446672551.211403) can0 008#8000800041CC80FE
(1446672551.218195) can0 1B0#EC00B00000008000
(1446672551.218375) can0 1B5#2FFFC000000000F9
(1446672551.218644) can0 1D8#6380000000000000
(1446672551.218957) can0 1E0#E016BD80C10B3C00
(1446672551.219229) can0 010#F831B02F00000010
(1446672551.219521) can0 072#2080000027EF00F0
(1446672551.219522) can0 2A9#840000C0C20006AC
(1446672551.219791) can0 2C3#505400FFFF012E53
(1446672551.221344) can0 008#8000800031DC80FE
(1446672551.228079) can0 0F5#00825F7F80008000
(1446672551.228368) can0 120#8954004F80008000
(1446672551.228630) can0 130#11FF8300001C99BC
(1446672551.228901) can0 150#C083C7FF70000000
(1446672551.229163) can0 010#F831B02F00000010
(1446672551.229434) can0 1D0#6100000000000000
(1446672551.229781) can0 055#809C00B22801F801
(1446672551.230015) can0 065#01EB8E00F7FAE000
(1446672551.230263) can0 070#000EF208F8046000
(1446672551.230475) can0 075#1854000000000000
(1446672551.230804) can0 080#802608E200805005
(1446672551.231159) can0 0B0#A352C209A2778352
(1446672551.231451) can0 145#211040FC8050F2FD
(1446672551.231452) can0 28C#00BE3600000050A0
(1446672551.231752) can0 008#8000800021EC80FE
(1446672551.232015) can0 2B5#0022AD935200004B
(1446672551.232406) can0 2C0#E5A0000001000000
(1446672551.232417) can0 2C5#0000E00000008700
(1446672551.232652) can0 370#00D3435F00900004
(1446672551.232867) can0 3AF#2000000000000000
(1446672551.233161) can0 3E0#0080984D18000000
(1446672551.233953) can0 072#2080000027EF00F0
(1446672551.234174) can0 210#463E09A82000DFAD
(1446672551.234406) can0 3B0#0044000028D2D800
(1446672551.238141) can0 1B0#EC00B00000008000
(1446672551.238454) can0 1B5#2FFFC000000000F9
(1446672551.238751) can0 1D8#6380000000000000
(1446672551.239048) can0 010#F831B02F00000010
(1446672551.239059) can0 1E0#E016BD80810B3C00
(1446672551.241422) can0 008#8000800011FC80FE
(1446672551.243527) can0 360#01A00003D3000000
(1446672551.248079) can0 0F5#0072637F80008000
(1446672551.248389) can0 120#8954004F80008000
(1446672551.248699) can0 130#11FF7300001C99C4
(1446672551.249005) can0 010#F831B02F00000010
(1446672551.249006) can0 072#2080000027EF00F0
(1446672551.249249) can0 150#C073C7FF80000000
(1446672551.249518) can0 1D0#6100000000000000
(1446672551.249775) can0 390#4F5236020000FF80
(1446672551.250068) can0 055#809C00B22801F801
(1446672551.250342) can0 065#01EB8E00F7FAE000
(1446672551.250635) can0 070#000EF208F8046000
(1446672551.250636) can0 075#1854000000000000
(1446672551.250949) can0 080#802608E200805005
(1446672551.251241) can0 0B0#A352C209A2778352
(1446672551.251505) can0 008#80008000010C80FE
(1446672551.251775) can0 145#A10040FC8050F2FD
(1446672551.251997) can0 3CA#C000005400000000
(1446672551.258145) can0 1B0#EC00B00000008000
(1446672551.258450) can0 1B5#2FFFC000000000F9
(1446672551.258750) can0 1D8#6380000000000000
(1446672551.259158) can0 010#F831B02F00000010
(1446672551.259159) can0 1E0#E016BD80C1FB0000
(1446672551.259432) can0 210#463E09A82000DFAD
(1446672551.259701) can0 2A9#840000C0C20006AC
(1446672551.259949) can0 2C3#505400FFFF012E53
(1446672551.261411) can0 008#80008000F11C80FE
(1446672551.263512) can0 072#2080000027EF00F0
(1446672551.268044) can0 0F5#0062677F80008000
(1446672551.268286) can0 120#8954004F80008000
(1446672551.268536) can0 130#11FF6300001C99CC
(1446672551.268809) can0 150#C063C7FF90000000
(1446672551.269158) can0 010#F831B02F00000010
