(1445275283.309242) vcan0 010#A800000000000000
(1445275283.313946) vcan0 072#00A0000007FF00F0
(1445275283.318941) vcan0 581#8100FFFFFFFFFFFF
(1445275283.319237) vcan0 010#E800000000000000
(1445275283.319487) vcan0 1D0#6108000000000000
(1445275283.323831) vcan0 210#428609A8A000DFC6
(1445275283.329397) vcan0 010#E800000000000000
(1445275283.329608) vcan0 072#0080000007FF00F0
(1445275283.329865) vcan0 2A9#840000C0CA0006AE
(1445275283.334059) vcan0 360#01A00003D2000000
(1445275283.339345) vcan0 010#E800000000000000
(1445275283.339583) vcan0 1D0#6108000000000000
(1445275283.339855) vcan0 390#675B12020000FF80
(1445275283.343971) vcan0 072#0080000007FF00F0
(1445275283.344206) vcan0 3B0#02C600002CB9FC00
(1445275283.349336) vcan0 010#E800000000000000
(1445275283.349581) vcan0 210#428609A82000DFC6
(1445275283.349851) vcan0 3D0#C28003120061009C
(1445275283.353972) vcan0 430#8630000000280828
(1445275283.359165) vcan0 010#E800000000000000
(1445275283.359425) vcan0 072#0080000007FF00F0
(1445275283.359713) vcan0 1D0#6100000000000000
(1445275283.359959) vcan0 405#2200000000000000
(1445275283.369217) vcan0 010#E800000000000000
(1445275283.369430) vcan0 2A9#840000C0C20006AC
(1445275283.373833) vcan0 072#0080000007FF00F0
(1445275283.374046) vcan0 210#428609A82000DFC6
(1445275283.379423) vcan0 010#E800000000000000
(1445275283.379677) vcan0 1D0#6100000000000000
(1445275283.389317) vcan0 010#E800000000000000
(1445275283.389577) vcan0 072#0080000007FF00F0
(1445275283.399393) vcan0 010#E800000000000000
(1445275283.399629) vcan0 055#8004000007FFD7FF
(1445275283.399862) vcan0 065#0200020027FF2000
(1445275283.400152) vcan0 070#0000020017FF0000
(1445275283.400364) vcan0 075#0000000000000000
(1445275283.400613) vcan0 080#0006000200000FFF
(1445275283.400857) vcan0 0B0#2000020002000000
(1445275283.401107) vcan0 145#000000FC0020F1C0
(1445275283.401389) vcan0 1D0#6100000000000000
(1445275283.401608) vcan0 210#4286080020005FC6
(1445275283.401862) vcan0 28C#0006300000000000
(1445275283.402115) vcan0 2B5#0000000000000005
(1445275283.402361) vcan0 2C0#4000000000000000
(1445275283.402580) vcan0 2C5#0000000000000000
(1445275283.402819) vcan0 370#00D1017B00000000
(1445275283.403052) vcan0 3AF#0000000000000000
(1445275283.403297) vcan0 3E0#0000182800000000
(1445275283.404076) vcan0 072#0080000007FF00F2
(1445275283.409147) vcan0 010#E800000000000000
(1445275283.409419) vcan0 2A9#840000C0CA0006AC
(1445275283.419424) vcan0 010#E800000000000000
(1445275283.419674) vcan0 055#809C00B227FFF804
(1445275283.420050) vcan0 065#02008E00D7FFE000
(1445275283.420304) vcan0 070#000EF20057FF6000
(1445275283.420613) vcan0 072#0080000007FF00F0
(1445275283.420615) vcan0 075#0854000000000000
(1445275283.420862) vcan0 080#802200E200805009
(1445275283.421187) vcan0 0B0#8352C215A2008352
(1445275283.421487) vcan0 145#A11060FC8050F2F8
(1445275283.421738) vcan0 1D0#6108000000000000
(1445275283.424053) vcan0 210#4286080020005FC6
(1445275283.429345) vcan0 010#E800000000000000
(1445275283.434058) vcan0 072#00A0000007FF00F0
(1445275283.434294) vcan0 360#01A00003D2000000
(1445275283.439244) vcan0 010#E800000000000000
(1445275283.439478) vcan0 1D0#6100000000000000
(1445275283.439736) vcan0 055#809C00B227FFF7FE
(1445275283.440021) vcan0 065#01EB8E00D7FBE000
(1445275283.440232) vcan0 070#000EF20058046000
(1445275283.440489) vcan0 075#1854000000000000
(1445275283.440775) vcan0 080#802600E200805009
(1445275283.441060) vcan0 0B0#8352C200A2768352
(1445275283.441398) vcan0 145#211060FC8050F2F8
(1445275283.441399) vcan0 28C#00BE300000000000
(1445275283.441649) vcan0 2B5#0000AD935200004B
(1445275283.441879) vcan0 390#475D0A020000FF80
(1445275283.449204) vcan0 010#E800000000000000
(1445275283.449504) vcan0 072#0080000007FF00F0
(1445275283.449682) vcan0 210#4286080020005FC6
(1445275283.449953) vcan0 2A9#840000C0C20006AC
(1445275283.459350) vcan0 010#E800000000000000
(1445275283.459609) vcan0 055#809C00B227FFF7FE
(1445275283.459850) vcan0 065#01EB8E00D7FAE000
(1445275283.460078) vcan0 070#000EF20058046000
(1445275283.460346) vcan0 075#1854000000000000
(1445275283.460592) vcan0 080#802600E200804FFF
(1445275283.460830) vcan0 0B0#A352C200A2768352
(1445275283.461067) vcan0 145#210040FC8050F2FD
(1445275283.461309) vcan0 1D0#6100000000000000
(1445275283.461560) vcan0 2C0#F5E0000000000000
(1445275283.461820) vcan0 2C5#0000E00000008700
(1445275283.464078) vcan0 072#00A0000007FF00F0
(1445275283.464394) vcan0 3B0#00C4000028B9D800
(1445275283.469373) vcan0 010#E800000000000000
(1445275283.474056) vcan0 210#4286080020005FC6
(1445275283.479396) vcan0 010#E800000000000000
(1445275283.479624) vcan0 055#809C00B227FFF7FE
(1445275283.479862) vcan0 065#01EB8E00D7FAE000
(1445275283.480109) vcan0 070#000EF20058046000
(1445275283.480364) vcan0 072#0080000007FF00F0
(1445275283.480612) vcan0 075#1854000000000000
(1445275283.480954) vcan0 080#802600E200804FFF
(1445275283.481272) vcan0 0B0#A352C200A2768352
(1445275283.481274) vcan0 145#A11040FC8050F2FD
(1445275283.481551) vcan0 1D0#6100000000000000
(1445275283.481778) vcan0 28C#00BE300000005000
(1445275283.482056) vcan0 2B5#0022ADB35200004B
(1445275283.489173) vcan0 010#E800000000000000
(1445275283.489432) vcan0 2A9#840000C0CA0006AC
(1445275283.494165) vcan0 072#00A0000007FF00F0
(1445275283.494962) vcan0 0F5#00821C7500000000
(1445275283.495203) vcan0 120#0800AF0500000000
(1445275283.495470) vcan0 130#01FF8300000C9938
(1445275283.495784) vcan0 150#0083C7FF75560000
(1445275283.496057) vcan0 1B0#0000100000004000
(1445275283.496357) vcan0 1B5#0FFF000000000011
(1445275283.496707) vcan0 1D8#234F000000000000
(1445275283.496708) vcan0 1E0#2000348001BB1000
(1445275283.497004) vcan0 2C3#0000007FFF012975
(1445275283.497252) vcan0 3CA#0000004000000000
(1445275283.499242) vcan0 010#E800000000000000
(1445275283.499506) vcan0 055#809C00B227FFF7FE
(1445275283.499749) vcan0 065#01EB8E00D7FAE000
(1445275283.499975) vcan0 070#000EF20058046000
(1445275283.500219) vcan0 075#1854000000000000
(1445275283.500465) vcan0 080#802600E200804FFF
(1445275283.500681) vcan0 0B0#A352C200A2768352
(1445275283.500974) vcan0 145#211040FC8050F2FD
(1445275283.501244) vcan0 1D0#6108000000000000
(1445275283.501516) vcan0 210#4286080020005FC6
(1445275283.501760) vcan0 370#00D3437B00900004
(1445275283.504860) vcan0 0F5#00821C7580008000
(1445275283.505190) vcan0 120#89548D4580008000
(1445275283.505461) vcan0 130#11FF8300000C993C
(1445275283.505706) vcan0 150#4083C7FF75120000
(1445275283.509339) vcan0 010#E800000000000000
(1445275283.509590) vcan0 072#0080000007FF00F0
(1445275283.514875) vcan0 1B0#EC00B00000004000
(1445275283.515202) vcan0 1B5#2FFFC000000000F9
(1445275283.515441) vcan0 1D8#63CF000000000000
(1445275283.515693) vcan0 1E0#E016BD8041AB1400
(1445275283.519324) vcan0 010#A800000000000000
(1445275283.519607) vcan0 055#809C00B227FFF7FE
(1445275283.519859) vcan0 065#01EB8E00F7F9E000
(1445275283.520185) vcan0 070#000EF200F8046000
(1445275283.520462) vcan0 075#1854000000000000
(1445275283.520782) vcan0 080#802600E200804FFF
(1445275283.520783) vcan0 0B0#A352C200A2768352
(1445275283.521025) vcan0 145#210040FC8050F2FD
(1445275283.521269) vcan0 1D0#6100000000000000
(1445275283.521539) vcan0 28C#00BE300000005000
(1445275283.521809) vcan0 2B5#0022ADB35200004B
(1445275283.522076) vcan0 2C0#E5A0000000000000
(1445275283.522346) vcan0 2C5#0000E00000008700
(1445275283.522591) vcan0 3AF#2000000000000000
(1445275283.523998) vcan0 072#00A0000007FF00F0
(1445275283.524242) vcan0 210#4286080020005FC6
(1445275283.524876) vcan0 0F5#0072637580008000
(1445275283.525215) vcan0 120#89544B4580008000
(1445275283.525484) vcan0 130#11FF7300001C99C4
(1445275283.525729) vcan0 150#C073C7FF848A0000
(1445275283.529336) vcan0 010#A800000000000000
(1445275283.529606) vcan0 2A9#840000C0C20006AC
(1445275283.533974) vcan0 360#01A00003D2000000
(1445275283.534883) vcan0 1B0#EC00B00000008000
(1445275283.535212) vcan0 1B5#2FFFC000000000F9
(1445275283.535537) vcan0 1D8#63CF000000000000
(1445275283.535836) vcan0 1E0#E016BD8001AB1400
(1445275283.535836) vcan0 2C3#505400FFFF012975
(1445275283.539130) vcan0 010#A800000000000000
(1445275283.539458) vcan0 072#0080000007FF00F0
(1445275283.539709) vcan0 055#809C00B227FFF7FE
(1445275283.540000) vcan0 065#01EB8E00F7F9E000
(1445275283.540247) vcan0 070#000EF200F8046000
(1445275283.540517) vcan0 075#1854000000000000
(1445275283.540812) vcan0 080#802600E200804FFF
(1445275283.540813) vcan0 0B0#A352C200A2768352
(1445275283.541076) vcan0 145#A11040FC8050F2FD
(1445275283.541321) vcan0 1D0#6100000000000000
(1445275283.541565) vcan0 390#475E06020000FF80
(1445275283.542883) vcan0 008#00000000FD0D8000
(1445275283.544882) vcan0 0F5#0062677580008000
(1445275283.545161) vcan0 120#8954084580008000
(1445275283.545405) vcan0 130#11FF6300001C99CC
(1445275283.545649) vcan0 150#C063C7FF94020000
(1445275283.549390) vcan0 010#E800000000000000
(1445275283.549659) vcan0 210#4286080020005FC6
(1445275283.549971) vcan0 3D0#C28003120061009A
(1445275283.553802) vcan0 008#80008000571C8197
(1445275283.554086) vcan0 072#00A0000007FF00F0
(1445275283.554874) vcan0 1B0#EC00B00000008000
(1445275283.555171) vcan0 1B5#2FFFC000000000F9
(1445275283.555457) vcan0 1D8#63CF000000000000
(1445275283.555700) vcan0 1E0#E016BD80419B1800
(1445275283.559284) vcan0 010#E800000000000000
(1445275283.559568) vcan0 055#809C00B227FFF7FE
(1445275283.559836) vcan0 065#01EB8E00F7F9E000
(1445275283.560103) vcan0 070#000EF200F8046000
(1445275283.560371) vcan0 075#1854000000000000
(1445275283.560641) vcan0 080#802600E200804FFF
(1445275283.560971) vcan0 0B0#A352C200A2768352
(1445275283.560972) vcan0 145#211040FC8050F2FD
(1445275283.561215) vcan0 1D0#6100000000000000
(1445275283.561459) vcan0 28C#00BE300000005000
(1445275283.561703) vcan0 2B5#0022ADB35200004B
(1445275283.563801) vcan0 008#80008000472C8197
(1445275283.565029) vcan0 0F5#00526B7580008000
(1445275283.565279) vcan0 120#8954004580008000
(1445275283.565518) vcan0 130#11FF5300001C99D4
(1445275283.565735) vcan0 150#C053C7FFA3790000
(1445275283.569234) vcan0 010#E800000000000000
(1445275283.569541) vcan0 072#0080000007FF00F0
(1445275283.569773) vcan0 2A9#840000C0CA0006AC
(1445275283.570023) vcan0 400#0161020101780201
(1445275283.573801) vcan0 008#80008000373C8197
(1445275283.574084) vcan0 210#4286080020005FC6
(1445275283.574893) vcan0 1B0#EC00B00000008000
(1445275283.575162) vcan0 1B5#2FFFC000000000F9
(1445275283.575406) vcan0 1D8#63CF000000000000
(1445275283.575649) vcan0 1E0#E016BD80418B1C00
(1445275283.575867) vcan0 2C3#505400FFFF012975
(1445275283.579284) vcan0 010#E800000000000000
(1445275283.579551) vcan0 055#809C00B227FFF7FE
(1445275283.579795) vcan0 065#01EB8E00F7F9E000
(1445275283.580048) vcan0 070#000EF200F8046000
(1445275283.580292) vcan0 075#1854000000000000
(1445275283.580511) vcan0 080#802600E200804FFF
(1445275283.580754) vcan0 0B0#A352C200A2768352
(1445275283.580971) vcan0 145#210040FC8050F2FD
(1445275283.581241) vcan0 1D0#6108000000000000
(1445275283.581488) vcan0 2C0#E5A0000000000000
(1445275283.581705) vcan0 2C5#0000E00000008700
(1445275283.583802) vcan0 008#80008000274C8197
(1445275283.584076) vcan0 072#00A0000007FF00F0
(1445275283.584319) vcan0 3B0#00C4000028B9D800
(1445275283.584971) vcan0 0F5#00426F7580008000
(1445275283.585215) vcan0 120#8954004580008000
(1445275283.585459) vcan0 130#11FF4300001C99DC
(1445275283.585704) vcan0 150#C043C7FFB2F10000
(1445275283.589387) vcan0 010#E800000000000000
(1445275283.593858) vcan0 008#80008000175C8197
(1445275283.594883) vcan0 1B0#EC00B00000008000
(1445275283.595251) vcan0 1B5#2FFFC000000000F9
(1445275283.595517) vcan0 1D8#63CF000000000000
(1445275283.595734) vcan0 1E0#E016BD80018B1C00
(1445275283.599337) vcan0 010#E800000000000000
(1445275283.599625) vcan0 055#809C00B227FFF7FE
(1445275283.599836) vcan0 065#01EB8E00F7F9E000
(1445275283.600083) vcan0 070#000EF200F8046000
(1445275283.600326) vcan0 072#2080000027FF00F0
(1445275283.600570) vcan0 075#1854000000000000
(1445275283.600814) vcan0 080#802600E200804FFF
(1445275283.601048) vcan0 0B0#A352C200A2768352
(1445275283.601293) vcan0 145#A11040FC8050F2FD
(1445275283.601511) vcan0 1D0#6100000000000000
(1445275283.601755) vcan0 210#4286080020005FC6
(1445275283.601997) vcan0 28C#00BE300000005000
(1445275283.602242) vcan0 2B5#0022ADB35200004B
(1445275283.602486) vcan0 370#00D3437B00900004
(1445275283.603830) vcan0 008#80008000076C8197
(1445275283.604887) vcan0 0F5#0032737580008000
(1445275283.605187) vcan0 120#8954004580008000
(1445275283.605405) vcan0 130#11FF3300001C99E4
(1445275283.605649) vcan0 150#C033C7FFC2690000
(1445275283.605867) vcan0 3CA#C000005100000000
(1445275283.609284) vcan0 010#E800000000000000
(1445275283.609550) vcan0 2A9#840000C0C20006BC
(1445275283.609796) vcan0 405#2300000000000000
(1445275283.613801) vcan0 008#80008000F77C8197
(1445275283.614084) vcan0 072#20A0000027FF00F0
(1445275283.614932) vcan0 1B0#EC00B00000008000
(1445275283.615179) vcan0 1B5#2FFFC000000000F9
(1445275283.615412) vcan0 1D8#63CF000000000000
(1445275283.615655) vcan0 1E0#E016BD80417B2000
(1445275283.615873) vcan0 2C3#505400FFFF012975
(1445275283.619178) vcan0 010#E800000000000000
(1445275283.619448) vcan0 1D0#6100000000000000
(1445275283.619691) vcan0 055#809C00B227FFF7FE
(1445275283.619971) vcan0 065#01EB8E00F7F9E000
(1445275283.620215) vcan0 070#000EF200F8046000
(1445275283.620485) vcan0 075#1854000000000000
(1445275283.620755) vcan0 080#802600E200804FFF
(1445275283.621023) vcan0 0B0#A352C200A2768352
(1445275283.621267) vcan0 145#211040FC8050F2FD
(1445275283.623778) vcan0 008#80008000E78C8197
(1445275283.624185) vcan0 210#4286080020005FC6
(1445275283.624871) vcan0 0F5#0022777580008000
(1445275283.625213) vcan0 120#8954004580008000
(1445275283.625483) vcan0 130#11FF2300001C99EC
(1445275283.625727) vcan0 150#C023C7FFD1E10000
(1445275283.629229) vcan0 010#E800000000000000
(1445275283.629498) vcan0 072#2080000027FF00F0
(1445275283.633802) vcan0 360#01A00003D2000000
(1445275283.634085) vcan0 008#80008000D79C8197
(1445275283.634931) vcan0 1B0#EC00B00000008000
(1445275283.635212) vcan0 1B5#2FFFC000000000F9
(1445275283.635495) vcan0 1D8#63CF000000000000
(1445275283.635738) vcan0 1E0#E016BD80416B2400
(1445275283.639362) vcan0 010#E800000000000000
(1445275283.639671) vcan0 055#809C00B227FFF7FE
(1445275283.639972) vcan0 065#01EB8E00F7F9E000
(1445275283.640242) vcan0 070#000EF200F8046000
(1445275283.640512) vcan0 075#1854000000000000
(1445275283.640805) vcan0 080#802600E200804FFF
(1445275283.640806) vcan0 0B0#A352C200A2768352
(1445275283.641075) vcan0 145#210040FC8050F2FD
(1445275283.641319) vcan0 1D0#6100000000000000
(1445275283.641563) vcan0 28C#00BE300000005000
(1445275283.641781) vcan0 2B5#0022ADB35200004B
(1445275283.642023) vcan0 2C0#E5A0000000000000
(1445275283.642267) vcan0 2C5#0000E00000008700
(1445275283.642511) vcan0 390#475F02020000FF80
(1445275283.642755) vcan0 3AF#2000000000000000
(1445275283.643829) vcan0 008#80008000C7AC8197
(1445275283.644107) vcan0 072#20A0000027FF00F0
(1445275283.644971) vcan0 0F5#00127B7580008000
(1445275283.645241) vcan0 120#8954004580008000
(1445275283.645511) vcan0 130#11FF1300001C99F4
(1445275283.645729) vcan0 150#C013C7FFE1580000
(1445275283.649285) vcan0 010#E800000000000000
(1445275283.649552) vcan0 210#4286080020005FC6
(1445275283.649769) vcan0 2A9#840000C0CA0006BC
(1445275283.653800) vcan0 008#80008000B7BC8197
(1445275283.654921) vcan0 1B0#EC00B00000008000
(1445275283.655199) vcan0 1B5#2FFFC000000000F9
(1445275283.655505) vcan0 1D8#63CF000000000000
(1445275283.655756) vcan0 1E0#E016BD80016B2400
(1445275283.655997) vcan0 2C3#505400FFFF012975
(1445275283.659388) vcan0 010#E800000000000000
(1445275283.659670) vcan0 055#809C00B227FFF7FE
(1445275283.659972) vcan0 065#01EB8E00F7F9E000
(1445275283.660241) vcan0 070#000EF200F8046000
(1445275283.660511) vcan0 072#2080000027FF00F0
(1445275283.660780) vcan0 075#1854000000000000
(1445275283.661080) vcan0 080#802600E200804FFF
(1445275283.661081) vcan0 0B0#A352C200A2768352
(1445275283.661325) vcan0 145#A11040FC8050F2FD
(1445275283.661569) vcan0 1D0#6108000000000000
(1445275283.663777) vcan0 008#80008000A7CC8197
(1445275283.664888) vcan0 0F5#00027F7580008000
(1445275283.665187) vcan0 120#8954004580008000
(1445275283.665429) vcan0 130#11FF0300001C99FC
(1445275283.665673) vcan0 150#C003C7FFF0D00000
(1445275283.669414) vcan0 010#E800000000000000
(1445275283.673808) vcan0 008#8000800097DC8197
(1445275283.674107) vcan0 072#20A0000027FF00F0
(1445275283.674353) vcan0 210#4286080020005FC6
(1445275283.674918) vcan0 1B0#EC00B00000008000
(1445275283.675200) vcan0 1B5#2FFFC000000000F9
(1445275283.675467) vcan0 1D8#63CF000000000000
(1445275283.675702) vcan0 1E0#E016BD80415B2800
(1445275283.679335) vcan0 010#E800000000000000
(1445275283.679627) vcan0 055#809C00B227FFF7FE
(1445275283.679874) vcan0 065#01EB8E00F7F9E000
(1445275283.680214) vcan0 070#000EF200F8046000
(1445275283.680483) vcan0 075#1854000000000000
(1445275283.680781) vcan0 080#802600E200804FFF
(1445275283.680782) vcan0 0B0#A352C200A2768352
(1445275283.681048) vcan0 145#211040FC8050F2FD
(1445275283.681292) vcan0 1D0#6100000000000000
(1445275283.681535) vcan0 28C#00BE300000005000
(1445275283.681753) vcan0 2B5#0022ADB35200004B
(1445275283.683779) vcan0 008#8000800087EC8197
(1445275283.684881) vcan0 0F5#00F2437580008000
(1445275283.685160) vcan0 120#8954004580008000
(1445275283.685404) vcan0 130#11FFF300001C9984
(1445275283.685649) vcan0 150#C0F3C7FF00480000
(1445275283.689413) vcan0 010#E800000000000000
(1445275283.689683) vcan0 072#2080000027FF00F0
(1445275283.689970) vcan0 2A9#840000C0C20006BC
(1445275283.693777) vcan0 008#8000800077FC8197
(1445275283.694924) vcan0 1B0#EC00B00000008000
(1445275283.695200) vcan0 1B5#2FFFC000000000F9
(1445275283.695462) vcan0 1D8#63CF000000000000
(1445275283.695722) vcan0 1E0#E016BD80414B2C00
(1445275283.695971) vcan0 2C3#505400FFFF012975
(1445275283.699179) vcan0 010#E800000000000000
(1445275283.699448) vcan0 055#809C00B227FFF7FE
(1445275283.699691) vcan0 065#01EB8E00F7F9E000
(1445275283.699970) vcan0 070#000EF200F8046000
(1445275283.700240) vcan0 075#1854000000000000
(1445275283.700510) vcan0 080#802600E200804FFF
(1445275283.700780) vcan0 0B0#A352C200A2768352
(1445275283.701048) vcan0 145#210040FC8050F2FD
(1445275283.701343) vcan0 1D0#6100000000000000
(1445275283.701344) vcan0 210#4286080020005FE2
(1445275283.701587) vcan0 2C0#E5A0000000000000
(1445275283.701831) vcan0 2C5#0000E00000008700
(1445275283.702074) vcan0 370#00D3437B00900004
(1445275283.702318) vcan0 3E0#0080985118000000
(1445275283.703776) vcan0 008#80008000670C8197
(1445275283.704182) vcan0 072#20A0000027FF00F0
(1445275283.704452) vcan0 3B0#00C4000028B9D800
(1445275283.704878) vcan0 0F5#00E2477580008000
(1445275283.705160) vcan0 120#8954004580008000
(1445275283.705404) vcan0 130#11FFE300001C998C
(1445275283.705649) vcan0 150#C0E3C7FF10000000
(1445275283.709283) vcan0 010#E800000000000000
(1445275283.713777) vcan0 008#80008000571C8197
(1445275283.714876) vcan0 1B0#EC00B00000008000
(1445275283.715202) vcan0 1B5#2FFFC000000000F9
(1445275283.715498) vcan0 1D8#63CF000000000000
(1445275283.715707) vcan0 1E0#E016BD80014B2C00
(1445275283.719309) vcan0 010#E800000000000000
(1445275283.719584) vcan0 055#809C00B227FFF7FE
(1445275283.719845) vcan0 065#01EB8E00F7F9E000
(1445275283.720128) vcan0 070#000EF200F8046000
(1445275283.720397) vcan0 072#2080000027FF00F0
(1445275283.720667) vcan0 075#1854000000000000
(1445275283.720970) vcan0 080#802600E200804FFF
(1445275283.720971) vcan0 0B0#A352C200A2768352
(1445275283.721240) vcan0 145#A11040FC8050F2FD
(1445275283.721484) vcan0 1D0#6100000000000000
(1445275283.721728) vcan0 28C#00BE300000005000
(1445275283.721970) vcan0 2B5#0022ADB35200004B
(1445275283.723783) vcan0 008#80008000472C8197
(1445275283.724106) vcan0 210#4286080020005FE2
(1445275283.724970) vcan0 0F5#00D24B7580008000
(1445275283.725240) vcan0 120#8954004580008000
(1445275283.725510) vcan0 130#11FFD300001C9994
(1445275283.725780) vcan0 150#C0D3C7FF20000000
(1445275283.726022) vcan0 3CA#C000005200000000
(1445275283.729360) vcan0 010#E800000000000000
(1445275283.729630) vcan0 2A9#840000C0CA0006BC
(1445275283.733778) vcan0 008#80008000373C8197
(1445275283.734066) vcan0 072#20A0000027FF00F0
(1445275283.734337) vcan0 360#01A00003D2000000
(1445275283.734859) vcan0 1B0#EC00B00000008000
(1445275283.735160) vcan0 1B5#2FFFC000000000F9
(1445275283.735404) vcan0 1D8#63CF000000000000
(1445275283.735672) vcan0 1E0#E016BD80413B3000
(1445275283.735970) vcan0 2C3#505400FFFF012975
(1445275283.739283) vcan0 010#E800000000000000
(1445275283.739550) vcan0 055#809C00B227FFF7FE
(1445275283.739794) vcan0 065#01EB8E00F7F9E000
(1445275283.740022) vcan0 070#000EF200F8046000
(1445275283.740292) vcan0 075#1854000000000000
(1445275283.740536) vcan0 080#802600E200804FFF
(1445275283.740780) vcan0 0B0#A352C200A2768352
(1445275283.741022) vcan0 145#211040FC8050F2FD
(1445275283.741240) vcan0 1D0#6108000000000000
(1445275283.741484) vcan0 390#47503E020000FF80
(1445275283.743751) vcan0 008#80008000274C8197
(1445275283.744938) vcan0 0F5#00C24F7580008000
(1445275283.745262) vcan0 120#8954004580008000
(1445275283.745499) vcan0 130#11FFC300001C999C
(1445275283.745735) vcan0 150#C0C3C7FF30000000
(1445275283.749465) vcan0 010#E800000000000000
(1445275283.749703) vcan0 072#2080000027FF00F0
(1445275283.750020) vcan0 210#4286080020005FE2
(1445275283.750280) vcan0 3D0#C28003120061009A
(1445275283.753859) vcan0 008#80008000175C8197
(1445275283.754962) vcan0 1B0#EC00B00000008000
(1445275283.755223) vcan0 1B5#2FFFC000000000F9
(1445275283.755490) vcan0 1D8#63CF000000000000
(1445275283.755733) vcan0 1E0#E016BD80412B3400
(1445275283.759420) vcan0 010#E800000000000000
(1445275283.759674) vcan0 055#809C00B227FFF7FE
(1445275283.760020) vcan0 065#01EB8E00F7F9E000
(1445275283.760302) vcan0 070#000EF200F8046000
(1445275283.760608) vcan0 075#1854000000000000
(1445275283.760609) vcan0 080#802600E200804FFF
(1445275283.760933) vcan0 0B0#A352C200A2768352
(1445275283.761239) vcan0 145#210040FC8050F2FD
(1445275283.761560) vcan0 1D0#6100000000000000
(1445275283.761562) vcan0 28C#00BE300000005000
(1445275283.761838) vcan0 2B5#0022ADB35200004B
(1445275283.762148) vcan0 2C0#E5A0000000000000
(1445275283.762350) vcan0 2C5#0000E00000008700
(1445275283.762647) vcan0 3AF#2000000000000000
(1445275283.763883) vcan0 008#80008000076C8197
(1445275283.764156) vcan0 072#20A0000027FF00F0
(1445275283.764909) vcan0 0F5#00B2537580008000
(1445275283.765222) vcan0 120#8954004580008000
(1445275283.765489) vcan0 130#11FFB300001C99A4
(1445275283.765713) vcan0 150#C0B3C7FF40000000
(1445275283.769408) vcan0 010#E800000000000000
(1445275283.769693) vcan0 2A9#840000C0C20006BC
(1445275283.773839) vcan0 008#80008000F77C8197
(1445275283.774107) vcan0 210#4286080020005FE2
(1445275283.774918) vcan0 1B0#EC00B00000008000
(1445275283.775143) vcan0 1B5#2FFFC000000000F9
(1445275283.775372) vcan0 1D8#63CF000000000000
(1445275283.775623) vcan0 1E0#E016BD80012B3400
(1445275283.775871) vcan0 2C3#505400FFFF012975
(1445275283.779182) vcan0 010#E800000000000000
(1445275283.779483) vcan0 072#2080000027FF00F0
(1445275283.779748) vcan0 055#809C00B227FFF7FE
(1445275283.780006) vcan0 065#01EB8E00F7F9E000
(1445275283.780218) vcan0 070#000EF200F8046000
(1445275283.780463) vcan0 075#1854000000000000
(1445275283.780734) vcan0 080#802600E200804FFF
(1445275283.780999) vcan0 0B0#A352C200A2768352
(1445275283.781270) vcan0 145#A11040FC8050F2FD
(1445275283.781519) vcan0 1D0#6100000000000000
(1445275283.783758) vcan0 008#80008000E78C8197
(1445275283.784885) vcan0 0F5#00A2577580008000
(1445275283.785164) vcan0 120#8954004580008000
(1445275283.785384) vcan0 130#11FFA300001C99AC
(1445275283.785628) vcan0 150#C0A3C7FF50000000
(1445275283.789241) vcan0 010#E800000000000000
(1445275283.793795) vcan0 008#80008000D79C8197
(1445275283.794080) vcan0 072#20A0000027FF00F0
(1445275283.794875) vcan0 1B0#EC00B00000008000
(1445275283.795142) vcan0 1B5#2FFFC000000000F9
(1445275283.795416) vcan0 1D8#63CF000000000000
(1445275283.795683) vcan0 1E0#E016BD80411B3800
(1445275283.799371) vcan0 010#E800000000000000
(1445275283.799612) vcan0 055#809C00B227FFF7FE
(1445275283.799834) vcan0 065#01EB8E00F7F9E000
(1445275283.800075) vcan0 070#000EF200F8046000
(1445275283.800318) vcan0 075#1854000000000000
(1445275283.800562) vcan0 080#802600E200804FFF
(1445275283.800804) vcan0 0B0#A352C200A2768352
(1445275283.801022) vcan0 145#211040FC8050F2FD
(1445275283.801266) vcan0 1D0#6100000000000000
(1445275283.801510) vcan0 210#4286080020005FE2
(1445275283.801753) vcan0 28C#00BE300000005000
(1445275283.801996) vcan0 2B5#0022ADB35200004B
(1445275283.802239) vcan0 370#00D3437B00900004
(1445275283.803752) vcan0 008#80008000C7AC8197
(1445275283.804880) vcan0 0F5#00925B7580008000
(1445275283.805161) vcan0 120#8954004580008000
(1445275283.805379) vcan0 130#11FF9300001C99B4
(1445275283.805623) vcan0 150#C093C7FF60000000
(1445275283.809334) vcan0 010#E800000000000000
(1445275283.809604) vcan0 072#2080000027FF00F0
(1445275283.809848) vcan0 2A9#840000C0CA0006BC
(1445275283.813750) vcan0 008#80008000B7BC8197
(1445275283.814856) vcan0 1B0#EC00B00000008000
(1445275283.815160) vcan0 1B5#2FFFC000000000F9
(1445275283.815405) vcan0 1D8#63CF000000000000
(1445275283.815672) vcan0 1E0#E016BD80410B3C00
(1445275283.815970) vcan0 2C3#505400FFFF012975
(1445275283.819388) vcan0 010#E800000000000000
(1445275283.819658) vcan0 055#809C00B227FFF7FE
(1445275283.819970) vcan0 065#01EB8E00F7F9E000
(1445275283.820239) vcan0 070#000EF200F8046000
(1445275283.820510) vcan0 075#1854000000000000
(1445275283.820779) vcan0 080#802600E200804FFF
(1445275283.821073) vcan0 0B0#A352C200A2768352
(1445275283.821074) vcan0 145#210040FC8050F2FD
(1445275283.821318) vcan0 1D0#6108000000000000
(1445275283.821588) vcan0 2C0#E5A0000000000000
(1445275283.821832) vcan0 2C5#0000E00000008700
(1445275283.822047) vcan0 400#0201440113010102
(1445275283.823751) vcan0 008#80008000A7CC8197
(1445275283.824080) vcan0 072#20A0000027FF00F0
(1445275283.824350) vcan0 210#4286080020005FE2
(1445275283.824594) vcan0 3B0#00C4000028B9D800
(1445275283.824890) vcan0 0F5#00825F7580008000
(1445275283.825160) vcan0 120#8954004580008000
(1445275283.825404) vcan0 130#11FF8300001C99BC
(1445275283.825647) vcan0 150#C083C7FF70000000
(1445275283.829152) vcan0 010#E800000000000000
(1445275283.833751) vcan0 008#8000800097DC8197
(1445275283.834187) vcan0 360#01A00003D2000000
(1445275283.834970) vcan0 1B0#EC00B00000008000
(1445275283.835202) vcan0 1B5#2FFFC000000000F9
(1445275283.835442) vcan0 1D8#63CF000000000000
(1445275283.835728) vcan0 1E0#E016BD80010B3C00
(1445275283.839245) vcan0 010#E800000000000000
(1445275283.839509) vcan0 055#809C00B227FFF7FE
(1445275283.839746) vcan0 065#01EB8E00F7F9E000
(1445275283.839998) vcan0 070#000EF200F8046000
(1445275283.840211) vcan0 072#2080000027FF00F0
(1445275283.840455) vcan0 075#1854000000000000
(1445275283.840696) vcan0 080#802600E200804FFF
(1445275283.840970) vcan0 0B0#A352C200A2768352
(1445275283.841238) vcan0 145#A11040FC8050F2FD
(1445275283.841507) vcan0 1D0#6100000000000000
(1445275283.841775) vcan0 28C#00BE300000005000
(1445275283.842080) vcan0 2B5#0022ADB35200004B
(1445275283.842080) vcan0 390#47513A020000FF80
(1445275283.843835) vcan0 008#8000800087EC8197
(1445275283.844962) vcan0 0F5#0072637580008000
(1445275283.845230) vcan0 120#8954004580008000
(1445275283.845486) vcan0 130#11FF7300001C99C4
(1445275283.845771) vcan0 150#C073C7FF80000000
(1445275283.846031) vcan0 3CA#C000005300000000
(1445275283.849387) vcan0 010#E800000000000000
(1445275283.849624) vcan0 210#4286080020005FE2
(1445275283.849843) vcan0 2A9#840000C0C20006BC
(1445275283.853754) vcan0 008#8000800077FC8197
(1445275283.854026) vcan0 072#20A0000027FF00F0
(1445275283.854947) vcan0 1B0#EC00B00000008000
(1445275283.855201) vcan0 1B5#2FFFC000000000F9
(1445275283.855465) vcan0 1D8#63CF000000000000
(1445275283.855734) vcan0 1E0#E016BD8041FB0000
(1445275283.856019) vcan0 2C3#505400FFFF012975
(1445275283.859313) vcan0 010#E800000000000000
(1445275283.859608) vcan0 055#809C00B227FFF7FE
(1445275283.859825) vcan0 065#01EB8E00F7F9E000
(1445275283.860111) vcan0 070#000EF200F8046000
(1445275283.860334) vcan0 075#1854000000000000
(1445275283.860584) vcan0 080#802600E200804FFF
(1445275283.860872) vcan0 0B0#A352C200A2768352
(1445275283.861214) vcan0 145#211040FC8050F2FD
(1445275283.861216) vcan0 1D0#6100000000000000
(1445275283.861487) vcan0 405#016438B0E6FEF82A
(1445275283.863754) vcan0 008#80008000670C8197
(1445275283.864857) vcan0 0F5#0062677F80008000
(1445275283.865166) vcan0 120#8954004F80008000
(1445275283.865388) vcan0 130#11FF6300001C99CC
(1445275283.865626) vcan0 150#C063C7FF90000000
(1445275283.869442) vcan0 010#E800000000000000
(1445275283.869717) vcan0 072#2080000027FF00F0
(1445275283.873753) vcan0 008#80008000571C8197
(1445275283.874075) vcan0 210#4286080020005FE2
(1445275283.874895) vcan0 1B0#EC00B00000008000
(1445275283.875204) vcan0 1B5#2FFFC000000000F9
(1445275283.875469) vcan0 1D8#63CF000000000000
(1445275283.875711) vcan0 1E0#E016BD8041EB0400
(1445275283.879159) vcan0 010#E800000000000000
(1445275283.879462) vcan0 1D0#6100000000000000
(1445275283.879709) vcan0 055#809C00B227FFF7FE
(1445275283.879973) vcan0 065#01EB8E00F7F9E000
(1445275283.880243) vcan0 070#000EF200F8046000
(1445275283.880515) vcan0 075#1854000000000000
(1445275283.880786) vcan0 080#802600E200804FFF
(1445275283.881077) vcan0 0B0#A352C200A2768352
(1445275283.881078) vcan0 145#210040FC8050F2FD
(1445275283.881351) vcan0 28C#00BE300000005000
(1445275283.881600) vcan0 2B5#0022ADB35200004B
(1445275283.881827) vcan0 2C0#E5A0000000000000
(1445275283.882109) vcan0 2C5#0000E00000008700
(1445275283.882354) vcan0 3AF#2000000000000000
(1445275283.883784) vcan0 008#80008000472C8197
(1445275283.884187) vcan0 072#20A0000027FF00F0
(1445275283.884899) vcan0 0F5#00526B7F80008000
(1445275283.885190) vcan0 120#8954004F80008000
(1445275283.885405) vcan0 130#11FF5300001C99D4
(1445275283.885647) vcan0 150#C053C7FFA0000000
(1445275283.889524) vcan0 010#E800000000000000
(1445275283.889729) vcan0 2A9#840000C0CA0006BC
(1445275283.893811) vcan0 008#80008000373C8197
(1445275283.894933) vcan0 1B0#EC00B00000008000
(1445275283.895288) vcan0 1B5#2FFFC000000000F9
(1445275283.895527) vcan0 1D8#63CF000000000000
(1445275283.895819) vcan0 1E0#E016BD8001EB0400
(1445275283.896082) vcan0 2C3#505400FFFF012975
(1445275283.899381) vcan0 010#E800000000000000
(1445275283.899594) vcan0 055#809C00B227FFF7FE
(1445275283.899861) vcan0 065#01EB8E00F7F9E000
(1445275283.900107) vcan0 070#000EF200F8046000
(1445275283.900334) vcan0 072#2080000027FF00F0
(1445275283.900545) vcan0 075#1854000000000000
(1445275283.900789) vcan0 080#802600E200804FFF
(1445275283.901024) vcan0 0B0#A352C200A2768352
(1445275283.901325) vcan0 145#A11040FC8050F2FD
(1445275283.901608) vcan0 1D0#6108000000000000
(1445275283.901872) vcan0 210#4286080020005FE2
(1445275283.902085) vcan0 370#00D3437B00900004
(1445275283.903752) vcan0 008#80008000274C8197
(1445275283.904920) vcan0 0F5#00426F7F80008000
(1445275283.905215) vcan0 120#8954004F80008000
(1445275283.905536) vcan0 130#11FF4300001C99DC
(1445275283.905830) vcan0 150#C043C7FFB0000000
(1445275283.909371) vcan0 010#E800000000000000
(1445275283.913809) vcan0 008#80008000175C8197
(1445275283.914085) vcan0 072#20A0000027FF00F0
(1445275283.914883) vcan0 1B0#EC00B00000008000
(1445275283.915218) vcan0 1B5#2FFFC000000000F9
(1445275283.915486) vcan0 1D8#63CF000000000000
(1445275283.915730) vcan0 1E0#E016BD8041DB0800
(1445275283.919342) vcan0 010#E800000000000000
(1445275283.919571) vcan0 055#809C00B227FFF7FE
(1445275283.919795) vcan0 065#01EB8E00F7F9E000
(1445275283.920084) vcan0 070#000EF200F8046000
(1445275283.920396) vcan0 075#1854000000000000
(1445275283.920708) vcan0 080#802600E200804FFF
(1445275283.921018) vcan0 0B0#A352C200A2768352
(1445275283.921020) vcan0 145#211040FC8050F2FD
(1445275283.921232) vcan0 1D0#6100000000000000
(1445275283.921482) vcan0 28C#00BE300000005000
(1445275283.921778) vcan0 2B5#0022ADB35200004B
(1445275283.923815) vcan0 008#80008000076C8197
(1445275283.924056) vcan0 210#4286080020005FE2
(1445275283.924954) vcan0 0F5#0032737F80008000
(1445275283.925220) vcan0 120#8954004F80008000
(1445275283.925525) vcan0 130#11FF3300001C99E4
(1445275283.925811) vcan0 150#C033C7FFC0000000
(1445275283.929482) vcan0 010#E800000000000000
(1445275283.929707) vcan0 072#2080000027FF00F0
(1445275283.929975) vcan0 2A9#840000C0C20006BC
(1445275283.933815) vcan0 008#80008000F77C8197
(1445275283.934083) vcan0 360#01A00003D2000000
(1445275283.934907) vcan0 1B0#EC00B00000008000
(1445275283.935221) vcan0 1B5#2FFFC000000000F9
(1445275283.935490) vcan0 1D8#63CF000000000000
(1445275283.935773) vcan0 1E0#E016BD8041CB0C00
(1445275283.936057) vcan0 2C3#505400FFFF012975
(1445275283.939346) vcan0 010#E800000000000000
(1445275283.939663) vcan0 055#809C00B227FFF7FE
(1445275283.939848) vcan0 065#01EB8E00F7F9E000
(1445275283.940108) vcan0 070#000EF200F8046000
(1445275283.940358) vcan0 075#1854000000000000
(1445275283.940676) vcan0 080#802600E200804FFF
(1445275283.941015) vcan0 0B0#A352C200A2768352
(1445275283.941346) vcan0 145#210040FC8050F2FD
(1445275283.941348) vcan0 1D0#6100000000000000
(1445275283.941593) vcan0 2C0#E5A0000000000000
(1445275283.941793) vcan0 2C5#0000E00000008700
(1445275283.942054) vcan0 390#675236020000FF80
(1445275283.943816) vcan0 008#80008000E78C8197
(1445275283.944081) vcan0 072#20A0000027FF00F0
(1445275283.944354) vcan0 3B0#00C400002CB9D800
(1445275283.944940) vcan0 0F5#0022777F80008000
(1445275283.945234) vcan0 120#8954004F80008000
(1445275283.945582) vcan0 130#11FF2300001C99EC
(1445275283.945815) vcan0 150#C023C7FFD0000000
(1445275283.949525) vcan0 010#E800000000000000
(1445275283.949694) vcan0 210#4286080020005FE2
(1445275283.950057) vcan0 3D0#C28003120061009A
(1445275283.953816) vcan0 008#80008000D79C8197
(1445275283.954050) vcan0 430#0400000000280828
(1445275283.954915) vcan0 1B0#EC00B00000008000
(1445275283.955160) vcan0 1B5#2FFFC000000000F9
(1445275283.955429) vcan0 1D8#63CF000000000000
(1445275283.955704) vcan0 1E0#E016BD8081CB0C00
(1445275283.959276) vcan0 010#F800000000000000
(1445275283.959541) vcan0 055#809C00B227FFF7FE
(1445275283.959840) vcan0 065#01EB8E00F7F9E000
(1445275283.960146) vcan0 070#000EF200F8046000
(1445275283.960461) vcan0 072#2080000027FF00F0
(1445275283.960463) vcan0 075#1854000000000000
(1445275283.960755) vcan0 080#802600E200804FFF
(1445275283.961006) vcan0 0B0#A352C200A2768352
(1445275283.961303) vcan0 145#A11040FC8050F2FD
(1445275283.961653) vcan0 1D0#6100000000000000
(1445275283.961654) vcan0 28C#00BE300000005080
(1445275283.961923) vcan0 2B5#0022ADB35200004B
(1445275283.963751) vcan0 008#80008000C7AC8197
(1445275283.964921) vcan0 0F5#00127B7F80008000
(1445275283.965178) vcan0 120#8954004F80008000
(1445275283.965465) vcan0 130#11FD1300001C99F4
(1445275283.965738) vcan0 150#C013C7FFE0000000
(1445275283.966019) vcan0 3CA#C000005400000000
(1445275283.969525) vcan0 010#F800000000000000
(1445275283.969728) vcan0 2A9#840000C0CA0006BC
(1445275283.973815) vcan0 008#80008000B7BC8197
(1445275283.974021) vcan0 072#20A0000027FF00F0
(1445275283.974302) vcan0 210#4286080020005FC7
(1445275283.974974) vcan0 1B0#EC00B00000008000
(1445275283.975200) vcan0 1B5#2FFFC000000000F9
(1445275283.975466) vcan0 1D8#63CF000000000000
(1445275283.975674) vcan0 1E0#E016BD80C1BB1000
(1445275283.975965) vcan0 2C3#505400FFFF012975
(1445275283.979453) vcan0 010#F800000000000000
(1445275283.979708) vcan0 055#809C00B227FFF7FE
(1445275283.980019) vcan0 065#01EB8E00F7F9E000
(1445275283.980333) vcan0 070#000EF200F8046000
(1445275283.980607) vcan0 075#1854000000000000
(1445275283.980609) vcan0 080#802600E200804FFF
(1445275283.980900) vcan0 0B0#A352C200A2768352
(1445275283.981088) vcan0 145#211040FC8050F2FD
(1445275283.981337) vcan0 1D0#6108000000000000
(1445275283.983814) vcan0 008#80008000A7CC8197
(1445275283.984965) vcan0 0F5#00027F7F80008000
(1445275283.985175) vcan0 120#8954004F80008000
(1445275283.985465) vcan0 130#11F70300001C99FC
(1445275283.985698) vcan0 150#C003C7FFF0000000
(1445275283.989378) vcan0 010#F800000000000000
(1445275283.989549) vcan0 072#2080000027FF00F0
(1445275283.993818) vcan0 008#8000800097DC8197
(1445275283.994970) vcan0 1B0#EC00B00000008000
(1445275283.995201) vcan0 1B5#2FFFC000000000F9
(1445275283.995492) vcan0 1D8#63CF000000000000
(1445275283.995704) vcan0 1E0#E016BD80C1AB1400
(1445275283.999448) vcan0 010#F800000000000000
(1445275283.999706) vcan0 055#809C00B227FFF7FE
(1445275284.000019) vcan0 065#01EB8E00F7F9E000
(1445275284.000331) vcan0 070#000EF200F8046000
(1445275284.000605) vcan0 075#1854000000000000
(1445275284.000607) vcan0 080#802600E200804FFF
(1445275284.000939) vcan0 0B0#A352C200A2768352
(1445275284.001269) vcan0 145#210040FC8050F2FD
(1445275284.001501) vcan0 1D0#6100000000000000
(1445275284.001816) vcan0 210#4286080020005FC7
(1445275284.002107) vcan0 28C#00BE300000005080
(1445275284.002108) vcan0 2B5#0022ADB35200004B
(1445275284.002375) vcan0 2C0#E5A0000000000000
(1445275284.002664) vcan0 2C5#0000E00000008700
(1445275284.003000) vcan0 370#00D3437B00900004
(1445275284.003308) vcan0 3AF#2000000000000000
(1445275284.003309) vcan0 3E0#0080985118000000
(1445275284.003813) vcan0 008#8000800087EC8197
(1445275284.004133) vcan0 072#20A0000027FF00F0
(1445275284.004992) vcan0 0F5#00F2437F80008000
(1445275284.005280) vcan0 120#8954004F80008000
(1445275284.005582) vcan0 130#11FDF300001C9984
(1445275284.005867) vcan0 150#C0F3C7FF00000000
(1445275284.009372) vcan0 010#F800000000000000
(1445275284.009650) vcan0 2A9#840000C0C20006BC
(1445275284.013823) vcan0 008#8000800077FC8197
(1445275284.014905) vcan0 1B0#EC00B00000008000
(1445275284.015197) vcan0 1B5#2FFFC000000000F9
(1445275284.015445) vcan0 1D8#63CF000000000000
(1445275284.015689) vcan0 1E0#E016BD8081AB1400
(1445275284.016015) vcan0 2C3#505400FFFF012975
(1445275284.019323) vcan0 010#F800000000000000
(1445275284.019506) vcan0 055#809C00B227FFF7FE
(1445275284.019778) vcan0 065#01EB8E00F7F9E000
(1445275284.020056) vcan0 070#000EF200F8046000
(1445275284.020290) vcan0 072#2080000027FF00F0
(1445275284.020613) vcan0 075#1854000000000000
(1445275284.020897) vcan0 080#802600E200804FFF
(1445275284.021232) vcan0 0B0#A352C200A2768352
(1445275284.021234) vcan0 145#A11040FC8050F2FD
(1445275284.021482) vcan0 1D0#6100000000000000
(1445275284.023789) vcan0 008#80008000670C8197
(1445275284.024030) vcan0 210#4286080020005FC7
(1445275284.024982) vcan0 0F5#00E2477F80008000
(1445275284.025227) vcan0 120#8954004F80008000
(1445275284.025492) vcan0 130#11FFE300001C998C
(1445275284.025694) vcan0 150#C0E3C7FF10000000
(1445275284.029484) vcan0 010#F800000000000000
(1445275284.033745) vcan0 008#80008000571C8197
(1445275284.034016) vcan0 072#20A0000027FF00F0
(1445275284.034301) vcan0 360#01A00003D2000000
(1445275284.034927) vcan0 1B0#EC00B00000008000
(1445275284.035221) vcan0 1B5#2FFFC000000000F9
(1445275284.035526) vcan0 1D8#63CF000000000000
(1445275284.035792) vcan0 1E0#E016BD80C19B1800
(1445275284.039382) vcan0 010#F800000000000000
(1445275284.039601) vcan0 055#809C00B227FFF7FE
(1445275284.039891) vcan0 065#01EB8E00F7F9E000
(1445275284.040101) vcan0 070#000EF200F8046000
(1445275284.040373) vcan0 075#1854000000000000
(1445275284.040602) vcan0 080#802600E200804FFF
(1445275284.040895) vcan0 0B0#A352C200A2768352
(1445275284.041291) vcan0 145#211040FC8050F2FD
(1445275284.041293) vcan0 1D0#6100000000000000
(1445275284.041564) vcan0 28C#00BE300000005080
(1445275284.041798) vcan0 2B5#0022ADB35200004B
(1445275284.042030) vcan0 390#475332020000FF80
(1445275284.043705) vcan0 008#80008000472C8197
(1445275284.044974) vcan0 0F5#00D24B7F80008000
(1445275284.045204) vcan0 120#8954004F80008000
(1445275284.045443) vcan0 130#11FFD300001C9994
(1445275284.045712) vcan0 150#C0D3C7FF20000000
(1445275284.049301) vcan0 010#F800000000000000
(1445275284.049613) vcan0 072#2080000027FF00F0
(1445275284.049857) vcan0 210#4286080020005FC7
(1445275284.050158) vcan0 2A9#840000C0CA0006BC
(1445275284.053743) vcan0 008#80008000373C8197
(1445275284.054940) vcan0 1B0#EC00B00000008000
(1445275284.055221) vcan0 1B5#2FFFC000000000F9
(1445275284.055483) vcan0 1D8#63CF000000000000
(1445275284.055805) vcan0 1E0#E016BD80C18B1C00
(1445275284.056081) vcan0 2C3#505400FFFF012975
(1445275284.059454) vcan0 010#F800000000000000
(1445275284.059769) vcan0 055#809C00B227FFF7FE
(1445275284.060032) vcan0 065#01EB8E00F7F9E000
(1445275284.060337) vcan0 070#000EF200F8046000
(1445275284.060644) vcan0 075#1854000000000000
(1445275284.060645) vcan0 080#802600E200804FFF
(1445275284.060925) vcan0 0B0#A352C200A2768352
(1445275284.061210) vcan0 145#210040FC8050F2FD
(1445275284.061499) vcan0 1D0#6108000000000000
(1445275284.061780) vcan0 2C0#E5A0000000000000
(1445275284.062041) vcan0 2C5#0000E00000008700
(1445275284.063716) vcan0 008#80008000274C8197
(1445275284.064060) vcan0 072#20A0000027FF00F0
(1445275284.064336) vcan0 3B0#00C4000028B9FC00
(1445275284.064909) vcan0 0F5#00C24F7F80008000
(1445275284.065191) vcan0 120#8954004F80008000
(1445275284.065446) vcan0 130#11FFC300001C999C
(1445275284.065712) vcan0 150#C0C3C7FF30000000
(1445275284.069446) vcan0 010#F800000000000000
(1445275284.069768) vcan0 400#0303050101010101
(1445275284.073714) vcan0 008#80008000175C8197
(1445275284.074019) vcan0 210#4286080020005FC7
(1445275284.074957) vcan0 1B0#EC00B00000008000
(1445275284.075246) vcan0 1B5#2FFFC000000000F9
(1445275284.075517) vcan0 1D8#63CF000000000000
(1445275284.075803) vcan0 1E0#E016BD80818B1C00
(1445275284.079378) vcan0 010#F800000000000000
(1445275284.079591) vcan0 055#809C00B227FFF7FE
(1445275284.079846) vcan0 065#01EB8E00F7F9E000
(1445275284.080107) vcan0 070#000EF200F8046000
(1445275284.080358) vcan0 072#2080000027FF00F0
(1445275284.080708) vcan0 075#1854000000000000
(1445275284.081017) vcan0 080#802600E200804FFF
(1445275284.081254) vcan0 0B0#A352C200A2768352
(1445275284.081266) vcan0 145#A11040FC8050F2FD
(1445275284.081512) vcan0 1D0#6100000000000000
(1445275284.081764) vcan0 28C#00BE300000005080
(1445275284.082000) vcan0 2B5#0022ADB35200004B
(1445275284.083713) vcan0 008#80008000076C8197
(1445275284.085012) vcan0 0F5#00B2537F80008000
(1445275284.085329) vcan0 120#8954004F80008000
(1445275284.085608) vcan0 130#11FFB300001C99A4
(1445275284.086018) vcan0 150#C0B3C7FF40000000
(1445275284.086020) vcan0 3CA#C000005500000000
(1445275284.089297) vcan0 010#F800000000000000
(1445275284.089507) vcan0 2A9#840000C0C20006BC
(1445275284.093793) vcan0 008#80008000F77C8197
(1445275284.094142) vcan0 072#20A0000027FF00F0
(1445275284.094943) vcan0 1B0#EC00B00000008000
(1445275284.095200) vcan0 1B5#2FFFC000000000F9
(1445275284.095459) vcan0 1D8#63CF000000000000
(1445275284.095730) vcan0 1E0#E016BD80C17B2000
(1445275284.096015) vcan0 2C3#505400FFFF012975
(1445275284.099221) vcan0 010#F800000000000000
(1445275284.099489) vcan0 1D0#6100000000000000
(1445275284.099721) vcan0 055#809C00B227FFF7FE
(1445275284.099968) vcan0 065#01EB8E00F7F9E000
(1445275284.100198) vcan0 070#000EF200F8046000
(1445275284.100437) vcan0 075#1854000000000000
(1445275284.100672) vcan0 080#802600E200804FFF
(1445275284.100969) vcan0 0B0#A352C200A2768352
(1445275284.101238) vcan0 145#211040FC8050F2FD
(1445275284.101515) vcan0 210#4286080020005FC7
(1445275284.101818) vcan0 370#00D3437B00900004
(1445275284.103711) vcan0 008#80008000E78C8197
(1445275284.104961) vcan0 0F5#00A2577F80008000
(1445275284.105202) vcan0 120#8954004F80008000
(1445275284.105440) vcan0 130#11FFA300001C99AC
(1445275284.105711) vcan0 150#C0A3C7FF50000000
(1445275284.109548) vcan0 010#F800000000000000
(1445275284.109753) vcan0 072#2080000027FF00F0
(1445275284.110016) vcan0 405#023C340032012975
(1445275284.113782) vcan0 008#80008000D79C8197
(1445275284.114953) vcan0 1B0#EC00B00000008000
(1445275284.115173) vcan0 1B5#2FFFC000000000F9
(1445275284.115440) vcan0 1D8#63CF000000000000
(1445275284.115716) vcan0 1E0#E016BD80C16B2400
(1445275284.119391) vcan0 010#F800000000000000
(1445275284.119622) vcan0 055#809C00B227FFF7FE
(1445275284.119852) vcan0 065#01EB8E00F7F9E000
(1445275284.120102) vcan0 070#000EF200F8046000
(1445275284.120353) vcan0 075#1854000000000000
(1445275284.120658) vcan0 080#802600E200804FFF
(1445275284.120891) vcan0 0B0#A352C200A2768352
(1445275284.121238) vcan0 145#210040FC8050F2FD
(1445275284.121239) vcan0 1D0#6100000000000000
(1445275284.121557) vcan0 28C#00BE300000005080
(1445275284.121800) vcan0 2B5#0022ADB35200004B
(1445275284.122107) vcan0 2C0#E5A0000000000000
(1445275284.122392) vcan0 2C5#0000E00000008700
(1445275284.122589) vcan0 3AF#2000000000000000
(1445275284.123710) vcan0 008#80008000C7AC8197
(1445275284.124061) vcan0 072#20A0000027FF00F0
(1445275284.124353) vcan0 210#4286080020005FC7
(1445275284.124944) vcan0 0F5#00925B7F80008000
(1445275284.125233) vcan0 120#8954004F80008000
(1445275284.125493) vcan0 130#11FF9300001C99B4
(1445275284.125747) vcan0 150#C093C7FF60000000
(1445275284.129426) vcan0 010#F800000000000000
(1445275284.129718) vcan0 2A9#840000C0CA0006BC
(1445275284.133750) vcan0 008#80008000B7BC8197
(1445275284.134026) vcan0 360#01A00003D2000000
(1445275284.134936) vcan0 1B0#EC00B00000008000
(1445275284.135221) vcan0 1B5#2FFFC000000000F9
(1445275284.135531) vcan0 1D8#63CF000000000000
(1445275284.135795) vcan0 1E0#E016BD80816B2400
(1445275284.136069) vcan0 2C3#505400FFFF012975
(1445275284.139262) vcan0 010#F800000000000000
(1445275284.139496) vcan0 072#2080000027FF00F0
(1445275284.139734) vcan0 055#809C00B227FFF7FE
(1445275284.140044) vcan0 065#01EB8E00F7F9E000
(1445275284.140227) vcan0 070#000EF200F8046000
(1445275284.140482) vcan0 075#1854000000000000
(1445275284.140803) vcan0 080#802600E200804FFF
(1445275284.141107) vcan0 0B0#A352C200A2768352
(1445275284.141426) vcan0 145#A11040FC8050F2FD
(1445275284.141427) vcan0 1D0#6108000000000000
(1445275284.141700) vcan0 390#47542E020000FF80
(1445275284.143779) vcan0 008#80008000A7CC8197
(1445275284.145048) vcan0 0F5#00825F7F80008000
(1445275284.145227) vcan0 120#8954004F80008000
(1445275284.145473) vcan0 130#11FF8300001C99BC
(1445275284.145730) vcan0 150#C083C7FF70000000
(1445275284.149304) vcan0 010#F800000000000000
(1445275284.149598) vcan0 210#4286080020005FC7
(1445275284.149858) vcan0 3D0#C28003120061009A
(1445275284.153783) vcan0 008#8000800097DC8197
(1445275284.154025) vcan0 072#20A0000027FF00F0
(1445275284.154962) vcan0 1B0#EC00B00000008000
(1445275284.155200) vcan0 1B5#2FFFC000000000F9
(1445275284.155466) vcan0 1D8#63CF000000000000
(1445275284.155734) vcan0 1E0#E016BD80C15B2800
(1445275284.159470) vcan0 010#F800000000000000
(1445275284.159683) vcan0 055#809C00B227FFF7FE
(1445275284.159951) vcan0 065#01EB8E00F7F9E000
(1445275284.160267) vcan0 070#000EF200F8046000
(1445275284.160527) vcan0 075#1854000000000000
(1445275284.160819) vcan0 080#802600E200804FFF
(1445275284.161145) vcan0 0B0#A352C200A2768352
(1445275284.161146) vcan0 145#211040FC8050F2FD
(1445275284.161402) vcan0 1D0#6100000000000000
(1445275284.161708) vcan0 28C#00BE300000005080
(1445275284.162015) vcan0 2B5#0022ADB35200004B
(1445275284.163717) vcan0 008#8000800087EC8197
(1445275284.164903) vcan0 0F5#0072637F80008000
(1445275284.165207) vcan0 120#8954004F80008000
(1445275284.165460) vcan0 130#11FF7300001C99C4
(1445275284.165709) vcan0 150#C073C7FF80000000
(1445275284.169430) vcan0 010#F800000000000000
(1445275284.169714) vcan0 072#2080000027FF00F0
(1445275284.169987) vcan0 2A9#840000C0C20006BC
(1445275284.173763) vcan0 008#8000800077FC8197
(1445275284.174031) vcan0 210#4286080020005FC7
(1445275284.175009) vcan0 1B0#EC00B00000008000
(1445275284.175346) vcan0 1B5#2FFFC000000000F9
(1445275284.175606) vcan0 1D8#63CF000000000000
(1445275284.175927) vcan0 1E0#E016BD80C14B2C00
(1445275284.175929) vcan0 2C3#505400FFFF012975
(1445275284.179470) vcan0 010#F800000000000000
(1445275284.179685) vcan0 055#809C00B227FFF7FE
(1445275284.179949) vcan0 065#01EB8E00F7F9E000
(1445275284.180217) vcan0 070#000EF200F8046000
(1445275284.180523) vcan0 075#1854000000000000
(1445275284.180790) vcan0 080#802600E200804FFF
(1445275284.181104) vcan0 0B0#A352C200A2768352
(1445275284.181106) vcan0 145#210040FC8050F2FD
(1445275284.181344) vcan0 1D0#6100000000000000
(1445275284.181612) vcan0 2C0#E5A0000000000000
(1445275284.181860) vcan0 2C5#0000E00000008700
(1445275284.183712) vcan0 008#80008000670C8197
(1445275284.184059) vcan0 072#20A0000027FF00F0
(1445275284.184354) vcan0 3B0#00C4000028B9D800
(1445275284.184928) vcan0 0F5#0062677F80008000
(1445275284.185217) vcan0 120#8954004F80008000
(1445275284.185524) vcan0 130#11FF6300001C99CC
(1445275284.185805) vcan0 150#C063C7FF90000000
(1445275284.189471) vcan0 010#F800000000000000
(1445275284.193759) vcan0 008#80008000571C8197
(1445275284.194961) vcan0 1B0#EC00B00000008000
(1445275284.195233) vcan0 1B5#2FFFC000000000F9
(1445275284.195478) vcan0 1D8#63CF000000000000
(1445275284.195731) vcan0 1E0#E016BD80814B2C00
(1445275284.199434) vcan0 010#F800000000000000
(1445275284.199670) vcan0 055#809C00B227FFF7FE
(1445275284.199944) vcan0 065#01EB8E00F7F9E000
(1445275284.200259) vcan0 070#000EF200F8046000
(1445275284.200498) vcan0 072#2080000027FF00F0
(1445275284.200771) vcan0 075#1854000000000000
(1445275284.201080) vcan0 080#802600E200804FFF
(1445275284.201081) vcan0 0B0#A352C200A2768352
(1445275284.201355) vcan0 145#A11040FC8050F2FD
(1445275284.201607) vcan0 1D0#6100000000000000
(1445275284.201931) vcan0 210#4286080020005FC7
(1445275284.202243) vcan0 28C#00BE300000005080
(1445275284.202245) vcan0 2B5#0022ADB35200004B
(1445275284.202559) vcan0 370#00D3437B00900004
(1445275284.203747) vcan0 008#80008000472C8197
(1445275284.205009) vcan0 0F5#00526B7F80008000
(1445275284.205305) vcan0 120#8954004F80008000
(1445275284.205584) vcan0 130#11FF5300001C99D4
(1445275284.205931) vcan0 150#C053C7FFA0000000
(1445275284.205933) vcan0 3CA#C000005600000000
(1445275284.209429) vcan0 010#F800000000000000
(1445275284.209716) vcan0 2A9#840000C0CA0006BC
(1445275284.213758) vcan0 008#80008000373C8197
(1445275284.214032) vcan0 072#20A0000027FF00F0
(1445275284.214927) vcan0 1B0#EC00B00000008000
(1445275284.215235) vcan0 1B5#2FFFC000000000F9
(1445275284.215467) vcan0 1D8#63CF000000000000
(1445275284.215779) vcan0 1E0#E016BD80C13B3000
(1445275284.216029) vcan0 2C3#505400FFFF012975
(1445275284.219287) vcan0 010#F800000000000000
(1445275284.219540) vcan0 055#809C00B227FFF7FE
(1445275284.219879) vcan0 065#01EB8E00F7F9E000
(1445275284.220157) vcan0 070#000EF200F8046000
(1445275284.220481) vcan0 075#1854000000000000
(1445275284.220482) vcan0 080#802600E200804FFF
(1445275284.220733) vcan0 0B0#A352C200A2768352
(1445275284.221017) vcan0 145#211040FC8050F2FD
(1445275284.221232) vcan0 1D0#6108000000000000
(1445275284.223755) vcan0 008#80008000274C8197
(1445275284.224180) vcan0 210#4286080020005FC7
(1445275284.224937) vcan0 0F5#00426F7F80008000
(1445275284.225219) vcan0 120#8954004F80008000
(1445275284.225529) vcan0 130#11FF4300001C99DC
(1445275284.225745) vcan0 150#C043C7FFB0000000
(1445275284.229368) vcan0 010#F800000000000000
(1445275284.229581) vcan0 072#2080000027FF00F0
(1445275284.233753) vcan0 008#80008000175C8197
(1445275284.234032) vcan0 360#01A00003D2000000
(1445275284.234948) vcan0 1B0#EC00B00000008000
(1445275284.235271) vcan0 1B5#2FFFC000000000F9
(1445275284.235522) vcan0 1D8#63CF000000000000
(1445275284.235772) vcan0 1E0#E016BD80C12B3400
(1445275284.239470) vcan0 010#F800000000000000
(1445275284.239685) vcan0 055#809C00B227FFF7FE
(1445275284.239952) vcan0 065#01EB8E00F7F9E000
(1445275284.240266) vcan0 070#000EF200F8046000
(1445275284.240529) vcan0 075#1854000000000000
(1445275284.240817) vcan0 080#802600E200804FFF
(1445275284.241138) vcan0 0B0#A352C200A2768352
(1445275284.241139) vcan0 145#210040FC8050F2FD
(1445275284.241421) vcan0 1D0#6100000000000000
(1445275284.241690) vcan0 28C#00BE300000005080
(1445275284.242016) vcan0 2B5#0022ADB35200004B
(1445275284.242308) vcan0 2C0#E5A0000000000000
(1445275284.242310) vcan0 2C5#0000E00000008700
(1445275284.242583) vcan0 390#47552A020000FF80
(1445275284.242836) vcan0 3AF#2000000000000000
(1445275284.243709) vcan0 008#80008000076C8197
(1445275284.244059) vcan0 072#20A0000027FF00F0
(1445275284.244928) vcan0 0F5#0032737F80008000
(1445275284.245239) vcan0 120#8954004F80008000
(1445275284.245445) vcan0 130#11FF3300001C99E4
(1445275284.245710) vcan0 150#C033C7FFC0000000
(1445275284.249383) vcan0 010#F800000000000000
(1445275284.249646) vcan0 210#4286080020005FC7
(1445275284.249895) vcan0 2A9#840000C0C20006BC
(1445275284.253758) vcan0 008#80008000F77C8197
(1445275284.254930) vcan0 1B0#EC00B00000008000
(1445275284.255219) vcan0 1B5#2FFFC000000000F9
(1445275284.255487) vcan0 1D8#63CF000000000000
(1445275284.255799) vcan0 1E0#E016BD80812B3400
(1445275284.256027) vcan0 2C3#505400FFFF012975
(1445275284.259445) vcan0 010#F800000000000000
(1445275284.259706) vcan0 055#809C00B227FFF7FE
(1445275284.260017) vcan0 065#01EB8E00F7F9E000
(1445275284.260299) vcan0 070#000EF200F8046000
(1445275284.260604) vcan0 072#2080000027FF00F0
(1445275284.261020) vcan0 075#1854000000000000
(1445275284.261022) vcan0 080#802600E200804FFF
(1445275284.261298) vcan0 0B0#A352C200A2768352
(1445275284.261606) vcan0 145#A11040FC8050F2FD
(1445275284.261607) vcan0 1D0#6100000000000000
(1445275284.263685) vcan0 008#80008000E78C8197
(1445275284.264978) vcan0 0F5#0022777F80008000
(1445275284.265274) vcan0 120#8954004F80008000
(1445275284.265550) vcan0 130#11FF2300001C99EC
(1445275284.265844) vcan0 150#C023C7FFD0000000
(1445275284.269457) vcan0 010#F800000000000000
(1445275284.273732) vcan0 008#80008000D79C8197
(1445275284.274196) vcan0 072#20A0000027FF00F0
(1445275284.274428) vcan0 210#4286080020005FC5
(1445275284.274893) vcan0 1B0#EC00B00000008000
(1445275284.275268) vcan0 1B5#2FFFC000000000F9
(1445275284.275525) vcan0 1D8#63CF000000000000
(1445275284.275743) vcan0 1E0#E016BD80C11B3800
(1445275284.279258) vcan0 010#F800000000000000
(1445275284.279470) vcan0 055#809C00B227FFF7FE
(1445275284.279734) vcan0 065#01EB8E00F7F9E000
(1445275284.280043) vcan0 070#000EF200F8046000
(1445275284.280300) vcan0 075#1854000000000000
(1445275284.280599) vcan0 080#802600E200804FFF
(1445275284.280902) vcan0 0B0#A352C200A2768352
(1445275284.280904) vcan0 145#211040FC8050F2FD
(1445275284.281199) vcan0 1D0#6100000000000000
(1445275284.281485) vcan0 28C#00BE300000005080
(1445275284.281731) vcan0 2B5#0022ADB35200004B
(1445275284.283686) vcan0 008#80008000C7AC8197
(1445275284.284918) vcan0 0F5#00127B7F80008000
(1445275284.285198) vcan0 120#8954004F80008000
(1445275284.285505) vcan0 130#11FF1300001C99F4
(1445275284.285770) vcan0 150#C013C7FFE0000000
(1445275284.289498) vcan0 010#F800000000000000
(1445275284.289733) vcan0 072#2080000027FF00F0
(1445275284.290016) vcan0 2A9#840000C0CA0006BC
(1445275284.293730) vcan0 008#80008000B7BC8197
(1445275284.294931) vcan0 1B0#EC00B00000008000
(1445275284.295218) vcan0 1B5#2FFFC000000000F9
(1445275284.295487) vcan0 1D8#63CF000000000000
(1445275284.295769) vcan0 1E0#E016BD80C10B3C00
(1445275284.296013) vcan0 2C3#505400FFFF012975
(1445275284.299352) vcan0 010#F800000000000000
(1445275284.299678) vcan0 055#809C00B227FFF7FE
(1445275284.299911) vcan0 065#01EB8E00F7F9E000
(1445275284.300231) vcan0 070#000EF200F8046000
(1445275284.300515) vcan0 075#1854000000000000
(1445275284.300824) vcan0 080#802600E200804FFF
(1445275284.300826) vcan0 0B0#A352C200A2768352
(1445275284.301102) vcan0 145#210040FC8050F2FD
(1445275284.301387) vcan0 1D0#6108000000000000
(1445275284.301569) vcan0 210#4286080020005FC5
(1445275284.301840) vcan0 2C0#E5A0000000000000
(1445275284.302144) vcan0 2C5#0000E00000008700
(1445275284.302428) vcan0 370#00D3437B00900004
(1445275284.302705) vcan0 3E0#0080985118000000
(1445275284.303723) vcan0 008#80008000A7CC8197
(1445275284.304358) vcan0 072#20A0000027FF00F0
(1445275284.304600) vcan0 3B0#00C4000028B9D800
(1445275284.304949) vcan0 0F5#00027F7F80008000
(1445275284.305221) vcan0 120#8954004F80008000
(1445275284.305528) vcan0 130#11FF0300001C99FC
(1445275284.305798) vcan0 150#C003C7FFF0000000
(1445275284.309454) vcan0 010#F800000000000000
(1445275284.313675) vcan0 008#8000800097DC8197
(1445275284.314890) vcan0 1B0#EC00B00000008000
(1445275284.315212) vcan0 1B5#2FFFC000000000F9
(1445275284.315507) vcan0 1D8#63CF000000000000
(1445275284.315767) vcan0 1E0#E016BD80810B3C00
(1445275284.319131) vcan0 581#8100FFFFFFFFFFFF
(1445275284.319369) vcan0 010#F800000000000000
(1445275284.319644) vcan0 055#809C00B227FFF7FE
(1445275284.319889) vcan0 065#01EB8E00F7F9E000
(1445275284.320269) vcan0 070#000EF200F8046000
(1445275284.320525) vcan0 072#2080000027FF00F0
(1445275284.320842) vcan0 075#1854000000000000
(1445275284.320843) vcan0 080#802600E200804FFF
(1445275284.321105) vcan0 0B0#A352C200A2768352
(1445275284.321391) vcan0 145#A11040FC8050F2FD
(1445275284.321540) vcan0 1D0#6100000000000000
(1445275284.321842) vcan0 28C#00BE300000005080
(1445275284.322105) vcan0 2B5#0022ADB35200004B
(1445275284.322355) vcan0 400#0401020101040201
(1445275284.323725) vcan0 008#8000800087EC8197
(1445275284.324248) vcan0 210#4286080020005FC5
(1445275284.325046) vcan0 0F5#00F2437F80008000
(1445275284.325226) vcan0 120#8954004F80008000
(1445275284.325480) vcan0 130#11FFF300001C9984
(1445275284.325805) vcan0 150#C0F3C7FF00000000
(1445275284.326080) vcan0 3CA#C000004000000000
(1445275284.329549) vcan0 010#F800000000000000
(1445275284.329762) vcan0 2A9#840000C0C20006BC
(1445275284.333728) vcan0 008#8000800077FC8197
(1445275284.334015) vcan0 072#20A0000027FF00F0
(1445275284.334230) vcan0 360#01A00003D2000000
(1445275284.335044) vcan0 1B0#EC00B00000008000
(1445275284.335303) vcan0 1B5#2FFFC000000000F9
(1445275284.335606) vcan0 1D8#63CF000000000000
(1445275284.336044) vcan0 1E0#E016BD80C1FB0000
(1445275284.336047) vcan0 2C3#505400FFFF012975
(1445275284.339389) vcan0 010#F800000000000000
(1445275284.339619) vcan0 055#809C00B227FFF7FE
(1445275284.339855) vcan0 065#01EB8E00F7F9E000
(1445275284.340106) vcan0 070#000EF200F8046000
(1445275284.340358) vcan0 075#1854000000000000
(1445275284.340679) vcan0 080#802600E200804FFF
(1445275284.341017) vcan0 0B0#A352C200A2768352
(1445275284.341330) vcan0 145#211040FC8050F2FD
(1445275284.341331) vcan0 1D0#6100000000000000
(1445275284.341600) vcan0 390#475626020000FF80
(1445275284.343731) vcan0 008#80008000670C8197
(1445275284.344958) vcan0 0F5#00E2477F80008000
(1445275284.345200) vcan0 120#8954004F80008000
(1445275284.345439) vcan0 130#11FFE300001C998C
(1445275284.345711) vcan0 150#C0E3C7FF10000000
(1445275284.349457) vcan0 010#F800000000000000
(1445275284.349727) vcan0 072#2080000027FF00F0
(1445275284.350017) vcan0 210#4286080020005FC5
(1445275284.350226) vcan0 3D0#C28003120061009A
(1445275284.353728) vcan0 008#80008000571C8197
(1445275284.354962) vcan0 1B0#EC00B00000008000
(1445275284.355198) vcan0 1B5#2FFFC000000000F9
(1445275284.355439) vcan0 1D8#63CF000000000000
(1445275284.355710) vcan0 1E0#E016BD80C1EB0400
(1445275284.359500) vcan0 010#F800000000000000
(1445275284.359678) vcan0 055#809C00B227FFF7FE
(1445275284.360043) vcan0 065#01EB8E00F7F9E000
(1445275284.360299) vcan0 070#000EF200F8046000
(1445275284.360599) vcan0 075#1854000000000000
(1445275284.360904) vcan0 080#802600E200804FFF
(1445275284.360905) vcan0 0B0#A352C200A2768352
(1445275284.361237) vcan0 145#210040FC8050F2FD
(1445275284.361515) vcan0 1D0#6100000000000000
(1445275284.361784) vcan0 28C#00BE300000005080
(1445275284.362080) vcan0 2B5#0022ADB35200004B
(1445275284.362082) vcan0 2C0#E5A0000000000000
(1445275284.362335) vcan0 2C5#0000E00000008700
(1445275284.362582) vcan0 3AF#2000000000000000
(1445275284.362833) vcan0 405#2400000000000000
(1445275284.363708) vcan0 008#80008000472C8197
(1445275284.364030) vcan0 072#20A0000027FF00F0
(1445275284.364908) vcan0 0F5#00D24B7F80008000
(1445275284.365201) vcan0 120#8954004F80008000
(1445275284.365491) vcan0 130#11FFD300001C9994
(1445275284.365743) vcan0 150#C0D3C7FF20000000
(1445275284.369344) vcan0 010#F800000000000000
(1445275284.369642) vcan0 2A9#840000C0CA0006BC
(1445275284.373732) vcan0 008#80008000373C8197
(1445275284.374079) vcan0 210#4286080020005FC5
(1445275284.374914) vcan0 1B0#EC00B00000008000
(1445275284.375139) vcan0 1B5#2FFFC000000000F9
(1445275284.375393) vcan0 1D8#63CF000000000000
(1445275284.375639) vcan0 1E0#E016BD8081EB0400
(1445275284.375894) vcan0 2C3#505400FFFF012975
(1445275284.379465) vcan0 010#F800000000000000
(1445275284.379698) vcan0 055#809C00B227FFF7FE
(1445275284.380043) vcan0 065#01EB8E00F7F9E000
(1445275284.380316) vcan0 070#000EF200F8046000
(1445275284.380530) vcan0 072#2080000027FF00F0
(1445275284.380852) vcan0 075#1854000000000000
(1445275284.380854) vcan0 080#802600E200804FFF
(1445275284.381143) vcan0 0B0#A352C200A2768352
(1445275284.381390) vcan0 145#A11040FC8050F2FD
(1445275284.381621) vcan0 1D0#6108000000000000
(1445275284.383724) vcan0 008#80008000274C8197
(1445275284.384958) vcan0 0F5#00C24F7F80008000
(1445275284.385217) vcan0 120#8954004F80008000
(1445275284.385481) vcan0 130#11FFC300001C999C
(1445275284.385730) vcan0 150#C0C3C7FF30000000
(1445275284.389432) vcan0 010#F800000000000000
(1445275284.393628) vcan0 008#80008000175C8197
(1445275284.393999) vcan0 072#20A0000027FF00F0
(1445275284.394914) vcan0 1B0#EC00B00000008000
(1445275284.395259) vcan0 1B5#2FFFC000000000F9
(1445275284.395495) vcan0 1D8#63CF000000000000
(1445275284.395710) vcan0 1E0#E016BD80C1DB0800
(1445275284.399335) vcan0 010#F800000000000000
(1445275284.399573) vcan0 055#809C00B227FFF7FE
(1445275284.399822) vcan0 065#01EB8E00F7F9E000
(1445275284.400104) vcan0 070#000EF200F8046000
(1445275284.400391) vcan0 075#1854000000000000
(1445275284.400678) vcan0 080#802600E200804FFF
(1445275284.401016) vcan0 0B0#A352C200A2768352
(1445275284.401018) vcan0 145#211040FC8050F2FD
(1445275284.401210) vcan0 1D0#6100000000000000
(1445275284.401460) vcan0 210#4286080020005FC5
(1445275284.401708) vcan0 28C#00BE300000005080
(1445275284.402034) vcan0 2B5#0022ADB35200004B
(1445275284.402306) vcan0 370#00D3437B00900004
(1445275284.403667) vcan0 008#80008000076C8197
(1445275284.404959) vcan0 0F5#00B2537F80008000
(1445275284.405200) vcan0 120#8954004F80008000
(1445275284.405465) vcan0 130#11FFB300001C99A4
(1445275284.405732) vcan0 150#C0B3C7FF40000000
(1445275284.409367) vcan0 010#F800000000000000
(1445275284.409591) vcan0 072#2080000027FF00F0
(1445275284.409855) vcan0 2A9#840000C0C20006BC
(1445275284.413732) vcan0 008#80008000F77C8197
(1445275284.414959) vcan0 1B0#EC00B00000008000
(1445275284.415174) vcan0 1B5#2FFFC000000000F9
(1445275284.415444) vcan0 1D8#63CF000000000000
(1445275284.415713) vcan0 1E0#E016BD80C1CB0C00
(1445275284.416018) vcan0 2C3#505400FFFF012975
(1445275284.419498) vcan0 010#F800000000000000
(1445275284.419712) vcan0 055#809C00B227FFF7FE
(1445275284.419946) vcan0 065#01EB8E00F7F9E000
(1445275284.420221) vcan0 070#000EF200F8046000
(1445275284.420525) vcan0 075#1854000000000000
(1445275284.420787) vcan0 080#802600E200804FFF
(1445275284.421141) vcan0 0B0#A352C200A2768352
(1445275284.421142) vcan0 145#210040FC8050F2FD
(1445275284.421415) vcan0 1D0#6100000000000000
(1445275284.421645) vcan0 2C0#E5A0000000000000
(1445275284.421929) vcan0 2C5#0000E00000008700
(1445275284.423695) vcan0 008#80008000E78C8197
(1445275284.424053) vcan0 072#20A0000027FF00F0
(1445275284.424325) vcan0 210#4286080020005FC5
(1445275284.424597) vcan0 3B0#00C6000028B9D800
(1445275284.424947) vcan0 0F5#00A2577F80008000
(1445275284.425195) vcan0 120#8954004F80008000
(1445275284.425464) vcan0 130#11FFA300001C99AC
(1445275284.425712) vcan0 150#C0A3C7FF50000000
(1445275284.429430) vcan0 010#F800000000000000
(1445275284.433668) vcan0 008#80008000D79C8197
(1445275284.434014) vcan0 360#01A00003D2000000
(1445275284.434920) vcan0 1B0#EC00B00000008000
(1445275284.435230) vcan0 1B5#2FFFC000000000F9
(1445275284.435544) vcan0 1D8#63CF000000000000
(1445275284.435756) vcan0 1E0#E016BD8081CB0C00
(1445275284.439447) vcan0 010#F800000000000000
(1445275284.439663) vcan0 055#809C00B227FFF7FE
(1445275284.439923) vcan0 065#01EB8E00F7F9E000
(1445275284.440285) vcan0 070#000EF200F8046000
(1445275284.440545) vcan0 072#2080000027FF00F0
(1445275284.440908) vcan0 075#1854000000000000
(1445275284.440910) vcan0 080#802600E200804FFF
(1445275284.441111) vcan0 0B0#A352C200A2768352
(1445275284.441388) vcan0 145#A11040FC8050F2FD
(1445275284.441577) vcan0 1D0#6100000000000000
(1445275284.441840) vcan0 28C#00BE300000005080
(1445275284.442142) vcan0 2B5#0022ADB35200004B
(1445275284.442417) vcan0 390#475722020000FF80
(1445275284.443694) vcan0 008#80008000C7AC8197
(1445275284.445049) vcan0 0F5#00925B7F80008000
(1445275284.445339) vcan0 120#8954004F80008000
(1445275284.445650) vcan0 130#11FF9300001C99B4
(1445275284.445936) vcan0 150#C093C7FF60000000
(1445275284.445938) vcan0 3CA#C000005100000000
(1445275284.449497) vcan0 010#F800000000000000
(1445275284.449768) vcan0 210#4286080020005FC5
(1445275284.450018) vcan0 2A9#840000C0CA0006BC
(1445275284.453706) vcan0 008#80008000B7BC8197
(1445275284.454197) vcan0 072#20A0000027FF00F0
(1445275284.454928) vcan0 1B0#EC00B00000008000
(1445275284.455218) vcan0 1B5#2FFFC000000000F9
(1445275284.455531) vcan0 1D8#63CF000000000000
(1445275284.455788) vcan0 1E0#E016BD80C1BB1000
(1445275284.456051) vcan0 2C3#505400FFFF012975
(1445275284.459337) vcan0 010#F800000000000000
(1445275284.459553) vcan0 055#809C00B227FFF7FE
(1445275284.459819) vcan0 065#01EB8E00F7F9E000
(1445275284.460091) vcan0 070#000EF200F8046000
(1445275284.460401) vcan0 075#1854000000000000
(1445275284.460663) vcan0 080#802600E200804FFF
(1445275284.461042) vcan0 0B0#A352C200A2768352
(1445275284.461044) vcan0 145#211040FC8050F2FD
(1445275284.461262) vcan0 1D0#6108000000000000
(1445275284.463667) vcan0 008#80008000A7CC8197
(1445275284.464920) vcan0 0F5#00825F7F80008000
(1445275284.465219) vcan0 120#8954004F80008000
(1445275284.465523) vcan0 130#11FF8300001C99BC
(1445275284.465790) vcan0 150#C083C7FF70000000
(1445275284.469469) vcan0 010#F800000000000000
(1445275284.469729) vcan0 072#2080000027FF00F0
(1445275284.473705) vcan0 008#8000800097DC8197
(1445275284.474015) vcan0 210#4286080020005FC5
(1445275284.474919) vcan0 1B0#EC00B00000008000
(1445275284.475218) vcan0 1B5#2FFFC000000000F9
(1445275284.475532) vcan0 1D8#63CF000000000000
(1445275284.475742) vcan0 1E0#E016BD80C1AB1400
(1445275284.479346) vcan0 010#F800000000000000
(1445275284.479608) vcan0 055#809C00B227FFF7FE
(1445275284.479848) vcan0 065#01EB8E00F7F9E000
(1445275284.480073) vcan0 070#000EF200F8046000
(1445275284.480318) vcan0 075#1854000000000000
(1445275284.480557) vcan0 080#802600E200804FFF
(1445275284.480801) vcan0 0B0#A352C200A2768352
(1445275284.481023) vcan0 145#210040FC8050F2FD
(1445275284.481240) vcan0 1D0#6100000000000000
(1445275284.481479) vcan0 28C#00BE300000005080
(1445275284.481737) vcan0 2B5#0022ADB35200004B
(1445275284.481980) vcan0 2C0#E5A0000000000000
(1445275284.482243) vcan0 2C5#0000E00000008700
(1445275284.482494) vcan0 3AF#2000000000000000
(1445275284.483656) vcan0 008#8000800087EC8197
(1445275284.484035) vcan0 072#20A0000027FF00F0
(1445275284.484904) vcan0 0F5#0072637F80008000
(1445275284.485215) vcan0 120#8954004F80008000
(1445275284.485517) vcan0 130#11FF7300001C99C4
(1445275284.485748) vcan0 150#C073C7FF80000000
(1445275284.489449) vcan0 010#F800000000000000
(1445275284.489728) vcan0 2A9#840000C0C20006BC
(1445275284.493704) vcan0 008#8000800077FC8197
(1445275284.494907) vcan0 1B0#EC00B00000008000
(1445275284.495185) vcan0 1B5#2FFFC000000000F9
(1445275284.495481) vcan0 1D8#63CF000000000000
(1445275284.495793) vcan0 1E0#E016BD8081AB1400
(1445275284.496027) vcan0 2C3#505400FFFF012975
(1445275284.499410) vcan0 010#F800000000000000
(1445275284.499666) vcan0 055#809C00B227FFF7FE
(1445275284.499938) vcan0 065#01EB8E00F7F9E000
(1445275284.500224) vcan0 070#000EF200F8046000
(1445275284.500545) vcan0 072#2080000027FF00F0
(1445275284.500850) vcan0 075#1854000000000000
(1445275284.500852) vcan0 080#802600E200804FFF
(1445275284.501181) vcan0 0B0#A352C200A2768352
(1445275284.501478) vcan0 145#A11040FC8050F2FD
(1445275284.501788) vcan0 1D0#6100000000000000
(1445275284.501790) vcan0 210#4286080020005FC5
(1445275284.502056) vcan0 370#00D3437B00900004
(1445275284.503622) vcan0 008#80008000670C8197
(1445275284.504916) vcan0 0F5#0062677F80008000
(1445275284.505196) vcan0 120#8954004F80008000
(1445275284.505501) vcan0 130#11FF6300001C99CC
(1445275284.505745) vcan0 150#C063C7FF90000000
(1445275284.509518) vcan0 010#F800000000000000
(1445275284.513670) vcan0 008#80008000571C8197
(1445275284.514014) vcan0 072#20A0000027FF00F0
(1445275284.514916) vcan0 1B0#EC00B00000008000
(1445275284.515198) vcan0 1B5#2FFFC000000000F9
(1445275284.515499) vcan0 1D8#63CF000000000000
(1445275284.515731) vcan0 1E0#E016BD80C19B1800
(1445275284.519389) vcan0 010#F800000000000000
(1445275284.519621) vcan0 055#809C00B227FFF7FE
(1445275284.519852) vcan0 065#01EB8E00F7F9E000
(1445275284.520099) vcan0 070#000EF200F8046000
(1445275284.520351) vcan0 075#1854000000000000
(1445275284.520565) vcan0 080#802600E200804FFF
(1445275284.520784) vcan0 0B0#A352C200A2768352
(1445275284.521020) vcan0 145#211040FC8050F2FD
(1445275284.521265) vcan0 1D0#6100000000000000
(1445275284.521484) vcan0 28C#00BE300000005080
(1445275284.521749) vcan0 2B5#0022ADB35200004B
(1445275284.523635) vcan0 008#80008000472C8197
(1445275284.524030) vcan0 210#428309A8A000DFC5
(1445275284.524869) vcan0 0F5#00526B7F80008000
(1445275284.525238) vcan0 120#8954004F80008000
(1445275284.525505) vcan0 130#11FF5300001C99D4
(1445275284.525746) vcan0 150#C053C7FFA0000000
(1445275284.529453) vcan0 010#F800000000000000
(1445275284.529729) vcan0 072#2080000027FF00F0
(1445275284.530042) vcan0 2A9#840000C0CA0006BC
(1445275284.533676) vcan0 008#80008000373C8197
(1445275284.534014) vcan0 360#01A00003D2000000
(1445275284.534941) vcan0 1B0#EC00B00000008000
(1445275284.535232) vcan0 1B5#2FFFC000000000F9
(1445275284.535482) vcan0 1D8#63CF000000000000
(1445275284.535802) vcan0 1E0#E016BD80C18B1C00
(1445275284.536050) vcan0 2C3#505400FFFF012975
(1445275284.539413) vcan0 010#F800000000000000
(1445275284.539672) vcan0 055#809C00B227FFF7FE
(1445275284.539937) vcan0 065#01EB8E00F7F9E000
(1445275284.540265) vcan0 070#000EF200F8046000
(1445275284.540541) vcan0 075#1854000000000000
(1445275284.540932) vcan0 080#802600E200804FFF
(1445275284.540933) vcan0 0B0#A352C200A2768352
(1445275284.541224) vcan0 145#210040FC8050F2FD
(1445275284.541547) vcan0 1D0#6108000000000000
(1445275284.541549) vcan0 2C0#E5A0000000000000
(1445275284.541817) vcan0 2C5#0000E00000008700
(1445275284.542058) vcan0 390#67581E020000FF80
(1445275284.543620) vcan0 008#80008000274C8197
(1445275284.544033) vcan0 072#20A0000027FF00F0
(1445275284.544325) vcan0 3B0#02C400002CB9D800
(1445275284.544911) vcan0 0F5#00426F7F80008000
(1445275284.545267) vcan0 120#8954004F80008000
(1445275284.545522) vcan0 130#11FF4300001C99DC
(1445275284.545767) vcan0 150#C043C7FFB0000000
(1445275284.549488) vcan0 010#F800000000000000
(1445275284.549707) vcan0 210#428309A8A000DFC9
(1445275284.550016) vcan0 3D0#C28003120061009A
(1445275284.553677) vcan0 008#80008000175C8197
(1445275284.554105) vcan0 430#0400000000280828
(1445275284.554911) vcan0 1B0#EC00B00000008000
(1445275284.555137) vcan0 1B5#2FFFC000000000F9
(1445275284.555388) vcan0 1D8#63CF000000000000
(1445275284.555635) vcan0 1E0#E016BD80818B1C00
(1445275284.559444) vcan0 010#F800000000000000
(1445275284.559657) vcan0 055#809C00B227FFF7FE
(1445275284.559921) vcan0 065#01EB8E00F7F9E000
(1445275284.560267) vcan0 070#000EF200F8046000
(1445275284.560523) vcan0 072#2080000027FF00F0
(1445275284.560821) vcan0 075#1854000000000000
(1445275284.561142) vcan0 080#802600E200804FFF
(1445275284.561143) vcan0 0B0#A352C200A2768352
(1445275284.561404) vcan0 145#A11040FC8050F2FD
(1445275284.561720) vcan0 1D0#6100000000000000
(1445275284.562015) vcan0 28C#00BE300000005080
(1445275284.562243) vcan0 2B5#0022ADB35200004B
(1445275284.563624) vcan0 008#80008000076C8197
(1445275284.564898) vcan0 0F5#0032737F80008000
(1445275284.565201) vcan0 120#8954004F80008000
(1445275284.565493) vcan0 130#11FF3300001C99E4
(1445275284.565785) vcan0 150#C033C7FFC0000000
(1445275284.566023) vcan0 3CA#C000005200000000
(1445275284.569418) vcan0 010#F800000000000000
(1445275284.569641) vcan0 2A9#840000C0C20006BC
(1445275284.569912) vcan0 400#0502010201010101
(1445275284.573677) vcan0 008#80008000F77C8197
(1445275284.574016) vcan0 072#20A0000027FF00F0
(1445275284.574230) vcan0 210#428309A8A000DFC9
(1445275284.574894) vcan0 1B0#EC00B00000008000
(1445275284.575215) vcan0 1B5#2FFFC000000000F9
(1445275284.575484) vcan0 1D8#63CF000000000000
(1445275284.575765) vcan0 1E0#E016BD80C17B2000
(1445275284.576015) vcan0 2C3#505400FFFF012975
(1445275284.579330) vcan0 010#F800000000000000
(1445275284.579574) vcan0 055#809C00B227FFF7FE
(1445275284.579848) vcan0 065#01EB8E00F7F9E000
(1445275284.580121) vcan0 070#000EF200F8046000
(1445275284.580407) vcan0 075#1854000000000000
(1445275284.580710) vcan0 080#802600E200804FFF
(1445275284.580711) vcan0 0B0#A352C200A2768352
(1445275284.581014) vcan0 145#211040FC8050F2FD
(1445275284.581227) vcan0 1D0#6100000000000000
(1445275284.583670) vcan0 008#80008000E78C8197
(1445275284.584906) vcan0 0F5#0022777F80008000
(1445275284.585182) vcan0 120#8954004F80008000
(1445275284.585479) vcan0 130#11FF2300001C99EC
(1445275284.585729) vcan0 150#C023C7FFD0000000
(1445275284.589466) vcan0 010#F800000000000000
(1445275284.589681) vcan0 072#2080000027FF00F0
(1445275284.593609) vcan0 008#80008000D79C8197
(1445275284.594844) vcan0 1B0#EC00B00000008000
(1445275284.595137) vcan0 1B5#2FFFC000000000F9
(1445275284.595405) vcan0 1D8#63CF000000000000
(1445275284.595673) vcan0 1E0#E016BD80C16B2400
(1445275284.599462) vcan0 010#F800000000000000
(1445275284.599730) vcan0 055#809C00B227FFF7FE
(1445275284.600069) vcan0 065#01EB8E00F7F9E000
(1445275284.600325) vcan0 070#000EF200F8046000
(1445275284.600671) vcan0 075#1854000000000000
(1445275284.600673) vcan0 080#802600E200804FFF
(1445275284.601016) vcan0 0B0#A352C200A2768352
(1445275284.601296) vcan0 145#210040FC8050F2FD
(1445275284.601604) vcan0 1D0#6100000000000000
(1445275284.601605) vcan0 210#428309A8A000DFC9
(1445275284.601854) vcan0 28C#00BE300000005080
(1445275284.602103) vcan0 2B5#0022ADB35200004B
(1445275284.602350) vcan0 2C0#E5A0000000000000
(1445275284.602585) vcan0 2C5#0000E00000008700
(1445275284.602911) vcan0 370#00D3437B00900004
(1445275284.603205) vcan0 3AF#2000000000000000
(1445275284.603458) vcan0 3E0#0080985118000000
(1445275284.603743) vcan0 008#80008000C7AC8197
(1445275284.604247) vcan0 072#20A0000027FF00F0
(1445275284.604882) vcan0 0F5#00127B7F80008000
(1445275284.605245) vcan0 120#8954004F80008000
(1445275284.605502) vcan0 130#11FF1300001C99F4
(1445275284.605747) vcan0 150#C013C7FFE0000000
(1445275284.609380) vcan0 010#F800000000000000
(1445275284.609641) vcan0 2A9#840000C0CA0006BC
(1445275284.609890) vcan0 405#2500000000000000
(1445275284.613642) vcan0 008#80008000B7BC8197
(1445275284.614930) vcan0 1B0#EC00B00000008000
(1445275284.615246) vcan0 1B5#2FFFC000000000F9
(1445275284.615542) vcan0 1D8#63CF000000000000
(1445275284.615858) vcan0 1E0#E016BD80816B2400
(1445275284.615859) vcan0 2C3#505400FFFF012975
(1445275284.619466) vcan0 010#F800000000000000
(1445275284.619684) vcan0 055#809C00B227FFF7FE
(1445275284.619947) vcan0 065#01EB8E00F7F9E000
(1445275284.620236) vcan0 070#000EF200F8046000
(1445275284.620517) vcan0 072#2080000027FF00F0
(1445275284.620810) vcan0 075#1854000000000000
(1445275284.621104) vcan0 080#802600E200804FFF
(1445275284.621105) vcan0 0B0#A352C200A2768352
(1445275284.621351) vcan0 145#A11040FC8050F2FD
(1445275284.621604) vcan0 1D0#6108000000000000
(1445275284.623646) vcan0 008#80008000A7CC8197
(1445275284.624038) vcan0 210#428309A82000DFC9
(1445275284.624905) vcan0 0F5#00027F7F80008000
(1445275284.625217) vcan0 120#8954004F80008000
(1445275284.625476) vcan0 130#11FF0300001C99FC
(1445275284.625727) vcan0 150#C003C7FFF0000000
(1445275284.629302) vcan0 010#F800000000000000
(1445275284.633643) vcan0 008#8000800097DC8197
(1445275284.634152) vcan0 072#20A0000027FF00F0
(1445275284.634426) vcan0 360#01A00003D2000000
(1445275284.634855) vcan0 1B0#EC00B00000008000
(1445275284.635143) vcan0 1B5#2FFFC000000000F9
(1445275284.635388) vcan0 1D8#63CF000000000000
(1445275284.635603) vcan0 1E0#E016BD80C15B2800
(1445275284.639337) vcan0 010#F800000000000000
(1445275284.639597) vcan0 055#809C00B227FFF7FE
(1445275284.639937) vcan0 065#01EB8E00F7F9E000
(1445275284.640266) vcan0 070#000EF200F8046000
(1445275284.640268) vcan0 075#1854000000000000
(1445275284.640543) vcan0 080#802600E200804FFF
(1445275284.640854) vcan0 0B0#A352C200A2768352
(1445275284.641143) vcan0 145#211040FC8050F2FD
(1445275284.641430) vcan0 1D0#6100000000000000
(1445275284.641742) vcan0 28C#00BE300000005080
(1445275284.641743) vcan0 2B5#0022ADB35200004B
(1445275284.641991) vcan0 390#47591A020000FF80
(1445275284.643622) vcan0 008#8000800087EC8197
(1445275284.644936) vcan0 0F5#00F2437F80008000
(1445275284.645227) vcan0 120#8954004F80008000
(1445275284.645550) vcan0 130#11FFF300001C9984
(1445275284.645827) vcan0 150#C0F3C7FF00000000
(1445275284.649483) vcan0 010#F800000000000000
(1445275284.649722) vcan0 072#2080000027FF00F0
(1445275284.650014) vcan0 210#428309A8A000DFC9
(1445275284.650226) vcan0 2A9#840000C0C20006BC
(1445275284.653649) vcan0 008#8000800077FC8197
(1445275284.654928) vcan0 1B0#EC00B00000008000
(1445275284.655216) vcan0 1B5#2FFFC000000000F9
(1445275284.655530) vcan0 1D8#63CF000000000000
(1445275284.655791) vcan0 1E0#E016BD80C14B2C00
(1445275284.656050) vcan0 2C3#505400FFFF012975
(1445275284.659467) vcan0 010#F800000000000000
(1445275284.659699) vcan0 055#809C00B227FFF7FE
(1445275284.660046) vcan0 065#01EB8E00F7F9E000
(1445275284.660315) vcan0 070#000EF200F8046000
(1445275284.660574) vcan0 075#1854000000000000
(1445275284.660895) vcan0 080#802600E200804FFF
(1445275284.660897) vcan0 0B0#A352C200A2768352
(1445275284.661230) vcan0 145#210040FC8050F2FD
(1445275284.661554) vcan0 1D0#6100000000000000
(1445275284.661854) vcan0 2C0#E5A0000000000000
(1445275284.661856) vcan0 2C5#0000E00000008700
(1445275284.663645) vcan0 008#80008000670C8197
(1445275284.664014) vcan0 072#20A0000027FF00F0
(1445275284.664297) vcan0 3B0#00C4000028B9D800
(1445275284.664876) vcan0 0F5#00E2477F80008000
(1445275284.665244) vcan0 120#8954004F80008000
(1445275284.665504) vcan0 130#11FFE300001C998C
(1445275284.665750) vcan0 150#C0E3C7FF10000000
(1445275284.669458) vcan0 010#F800000000000000
(1445275284.673647) vcan0 008#80008000571C8197
(1445275284.674049) vcan0 210#428309A8A000DFC9
(1445275284.674914) vcan0 1B0#EC00B00000008000
(1445275284.675136) vcan0 1B5#2FFFC000000000F9
(1445275284.675390) vcan0 1D8#63CF000000000000
(1445275284.675641) vcan0 1E0#E016BD80814B2C00
(1445275284.679253) vcan0 010#F800000000000000
(1445275284.679465) vcan0 072#2080000027FF00F0
(1445275284.679726) vcan0 055#809C00B227FFF7FE
(1445275284.680039) vcan0 065#01EB8E00F7F9E000
(1445275284.680297) vcan0 070#000EF200F8046000
(1445275284.680602) vcan0 075#1854000000000000
(1445275284.681015) vcan0 080#802600E200804FFF
(1445275284.681017) vcan0 0B0#A352C200A2768352
(1445275284.681298) vcan0 145#A11040FC8050F2FD
(1445275284.681604) vcan0 1D0#6100000000000000
(1445275284.681606) vcan0 28C#00BE300000005080
(1445275284.681876) vcan0 2B5#0022ADB35200004B
(1445275284.683584) vcan0 008#80008000472C8197
(1445275284.684958) vcan0 0F5#00D24B7F80008000
(1445275284.685230) vcan0 120#8954004F80008000
(1445275284.685560) vcan0 130#11FFD300001C9994
(1445275284.685873) vcan0 150#C0D3C7FF20000000
(1445275284.686080) vcan0 3CA#C000005300000000
(1445275284.689545) vcan0 010#F800000000000000
(1445275284.689756) vcan0 2A9#840000C0CA0006BC
(1445275284.693602) vcan0 008#80008000373C8197
(1445275284.693994) vcan0 072#20A0000027FF00F0
(1445275284.694860) vcan0 1B0#EC00B00000008000
(1445275284.695136) vcan0 1B5#2FFFC000000000F9
(1445275284.695426) vcan0 1D8#63CF000000000000
(1445275284.695730) vcan0 1E0#E016BD80C13B3000
(1445275284.696016) vcan0 2C3#505400FFFF012975
(1445275284.699410) vcan0 010#F800000000000000
(1445275284.699664) vcan0 055#809C00B227FFF7FE
(1445275284.700013) vcan0 065#01EB8E00F7F9E000
(1445275284.700296) vcan0 070#000EF200F8046000
(1445275284.700579) vcan0 075#1854000000000000
(1445275284.700581) vcan0 080#802600E200804FFF
(1445275284.700910) vcan0 0B0#A352C200A2768352
(1445275284.701227) vcan0 145#211040FC8050F2FD
(1445275284.701551) vcan0 1D0#6108000000000000
(1445275284.701553) vcan0 210#428309A8A000DFC9
(1445275284.701826) vcan0 370#00D3437B00900004
(1445275284.703645) vcan0 008#80008000274C8197
(1445275284.704892) vcan0 0F5#00C24F7F80008000
(1445275284.705205) vcan0 120#8954004F80008000
(1445275284.705534) vcan0 130#11FFC300001C999C
(1445275284.705799) vcan0 150#C0C3C7FF30000000
(1445275284.709332) vcan0 010#F800000000000000
(1445275284.709603) vcan0 072#2080000027FF00F0
(1445275284.713644) vcan0 008#80008000175C8197
(1445275284.714927) vcan0 1B0#EC00B00000008000
(1445275284.715247) vcan0 1B5#2FFFC000000000F9
(1445275284.715522) vcan0 1D8#63CF000000000000
(1445275284.715788) vcan0 1E0#E016BD80C12B3400
(1445275284.719391) vcan0 010#F800000000000000
(1445275284.719618) vcan0 055#809C00B227FFF7FE
(1445275284.719854) vcan0 065#01EB8E00F7F9E000
(1445275284.720104) vcan0 070#000EF200F8046000
(1445275284.720354) vcan0 075#1854000000000000
(1445275284.720620) vcan0 080#802600E200804FFF
(1445275284.720890) vcan0 0B0#A352C200A2768352
(1445275284.721210) vcan0 145#210040FC8050F2FD
(1445275284.721212) vcan0 1D0#6100000000000000
(1445275284.721555) vcan0 28C#00BE300000005080
(1445275284.721788) vcan0 2B5#0022ADB35200004B
(1445275284.722100) vcan0 2C0#E5A0000000000000
(1445275284.722387) vcan0 2C5#0000E00000008700
(1445275284.722659) vcan0 3AF#2000000000000000
(1445275284.723617) vcan0 008#80008000076C8197
(1445275284.724027) vcan0 072#20A0000027FF00F0
(1445275284.724270) vcan0 210#428309A8A000DFC9
(1445275284.724932) vcan0 0F5#00B2537F80008000
(1445275284.725217) vcan0 120#8954004F80008000
(1445275284.725517) vcan0 130#11FFB300001C99A4
(1445275284.725746) vcan0 150#C0B3C7FF40000000
(1445275284.729446) vcan0 010#F800000000000000
(1445275284.729727) vcan0 2A9#840000C0C20006BC
(1445275284.733642) vcan0 008#80008000F77C8197
(1445275284.734042) vcan0 360#01A00003D2000000
(1445275284.734849) vcan0 1B0#EC00B00000008000
(1445275284.735126) vcan0 1B5#2FFFC000000000F9
(1445275284.735389) vcan0 1D8#63CF000000000000
(1445275284.735638) vcan0 1E0#E016BD80812B3400
(1445275284.735882) vcan0 2C3#505400FFFF012975
(1445275284.739360) vcan0 010#F800000000000000
(1445275284.739625) vcan0 055#809C00B227FFF7FE
(1445275284.739866) vcan0 065#01EB8E00F7F9E000
(1445275284.740211) vcan0 070#000EF200F8046000
(1445275284.740474) vcan0 072#2080000027FF00F0
(1445275284.740748) vcan0 075#1854000000000000
(1445275284.741041) vcan0 080#802600E200804FFF
(1445275284.741042) vcan0 0B0#A352C200A2768352
(1445275284.741289) vcan0 145#A11040FC8050F2FD
(1445275284.741526) vcan0 1D0#6100000000000000
(1445275284.741813) vcan0 390#475A16020000FF80
(1445275284.743640) vcan0 008#80008000E78C8197
(1445275284.744925) vcan0 0F5#00A2577F80008000
(1445275284.745231) vcan0 120#8954004F80008000
(1445275284.745480) vcan0 130#11FFA300001C99AC
(1445275284.745726) vcan0 150#C0A3C7FF50000000
(1445275284.749534) vcan0 010#F800000000000000
(1445275284.749746) vcan0 210#428309A8A000DFC9
(1445275284.750013) vcan0 3D0#C28003120061009A
(1445275284.753624) vcan0 008#80008000D79C8197
(1445275284.754015) vcan0 072#20A0000027FF00F0
(1445275284.754914) vcan0 1B0#EC00B00000008000
(1445275284.755227) vcan0 1B5#2FFFC000000000F9
(1445275284.755513) vcan0 1D8#63CF000000000000
(1445275284.755758) vcan0 1E0#E016BD80C11B3800
(1445275284.759282) vcan0 010#F800000000000000
(1445275284.759492) vcan0 055#809C00B227FFF7FE
(1445275284.759729) vcan0 065#01EB8E00F7F9E000
(1445275284.760013) vcan0 070#000EF200F8046000
(1445275284.760225) vcan0 075#1854000000000000
(1445275284.760481) vcan0 080#802600E200804FFF
(1445275284.760776) vcan0 0B0#A352C200A2768352
(1445275284.761093) vcan0 145#211040FC8050F2FD
(1445275284.761403) vcan0 1D0#6100000000000000
(1445275284.761404) vcan0 28C#00BE300000005080
(1445275284.761638) vcan0 2B5#0022ADB35200004B
(1445275284.763622) vcan0 008#80008000C7AC8197
(1445275284.764866) vcan0 0F5#00925B7F80008000
(1445275284.765119) vcan0 120#8954004F80008000
(1445275284.765389) vcan0 130#11FF9300001C99B4
(1445275284.765637) vcan0 150#C093C7FF60000000
(1445275284.769335) vcan0 010#F800000000000000
(1445275284.769545) vcan0 072#2080000027FF00F0
(1445275284.769814) vcan0 2A9#840000C0CA0006BC
(1445275284.773627) vcan0 008#80008000B7BC8197
(1445275284.773861) vcan0 210#428309A82000DFC9
(1445275284.774927) vcan0 1B0#EC00B00000008000
(1445275284.775234) vcan0 1B5#2FFFC000000000F9
(1445275284.775544) vcan0 1D8#63CF000000000000
(1445275284.775840) vcan0 1E0#E016BD80C10B3C00
(1445275284.775841) vcan0 2C3#505400FFFF012975
(1445275284.779467) vcan0 010#F800000000000000
(1445275284.779725) vcan0 055#809C00B227FFF7FE
(1445275284.780013) vcan0 065#01EB8E00F7F9E000
(1445275284.780300) vcan0 070#000EF200F8046000
(1445275284.780580) vcan0 075#1854000000000000
(1445275284.780925) vcan0 080#802600E200804FFF
(1445275284.780926) vcan0 0B0#A352C200A2768352
(1445275284.781209) vcan0 145#210040FC8050F2FD
(1445275284.781534) vcan0 1D0#6108000000000000
(1445275284.781881) vcan0 2C0#E5A0000000000000
(1445275284.781883) vcan0 2C5#0000E00000008700
(1445275284.783616) vcan0 008#80008000A7CC8197
(1445275284.784169) vcan0 072#20A0000027FF00F0
(1445275284.784406) vcan0 3B0#00C4000028B9FC00
(1445275284.784916) vcan0 0F5#00825F7F80008000
(1445275284.785226) vcan0 120#8954004F80008000
(1445275284.785545) vcan0 130#11FF8300001C99BC
(1445275284.785818) vcan0 150#C083C7FF70000000
(1445275284.789466) vcan0 010#F800000000000000
(1445275284.793557) vcan0 008#8000800097DC8197
(1445275284.794830) vcan0 1B0#EC00B00000008000
(1445275284.795107) vcan0 1B5#2FFFC000000000F9
(1445275284.795325) vcan0 1D8#63CF000000000000
(1445275284.795570) vcan0 1E0#E016BD80810B3C00
(1445275284.799389) vcan0 010#F800000000000000
(1445275284.799660) vcan0 055#809C00B227FFF7FE
(1445275284.799882) vcan0 065#01EB8E00F7F9E000
(1445275284.800240) vcan0 070#000EF200F8046000
(1445275284.800513) vcan0 072#2080000027FF00F0
(1445275284.800766) vcan0 075#1854000000000000
(1445275284.801082) vcan0 080#802600E200804FFF
(1445275284.801082) vcan0 0B0#A352C200A2768352
(1445275284.801322) vcan0 145#A11040FC8050F2FD
(1445275284.801595) vcan0 1D0#6100000000000000
(1445275284.801822) vcan0 210#428309A8A000DFC9
(1445275284.802055) vcan0 28C#00BE300000005080
(1445275284.802301) vcan0 2B5#0022ADB35200004B
(1445275284.802551) vcan0 370#00D3437B00900004
(1445275284.803603) vcan0 008#8000800087EC8197
(1445275284.804864) vcan0 0F5#0072637F80008000
(1445275284.805188) vcan0 120#8954004F80008000
(1445275284.805435) vcan0 130#11FF7300001C99C4
(1445275284.805662) vcan0 150#C073C7FF80000000
(1445275284.805978) vcan0 3CA#C000005400000000
(1445275284.809344) vcan0 010#F800000000000000
(1445275284.809634) vcan0 2A9#840000C0C20006BC
(1445275284.813571) vcan0 008#8000800077FC8197
(1445275284.814153) vcan0 072#20A0000027FF00F0
(1445275284.814834) vcan0 1B0#EC00B00000008000
(1445275284.815131) vcan0 1B5#2FFFC000000000F9
(1445275284.815349) vcan0 1D8#63CF000000000000
(1445275284.815599) vcan0 1E0#E016BD80C1FB0000
(1445275284.815847) vcan0 2C3#505400FFFF012975
(1445275284.819267) vcan0 010#F800000000000000
(1445275284.819523) vcan0 055#809C00B227FFF7FE
(1445275284.819769) vcan0 065#01EB8E00F7F9E000
(1445275284.820019) vcan0 070#000EF200F8046000
(1445275284.820242) vcan0 075#1854000000000000
(1445275284.820516) vcan0 080#802600E200804FFF
(1445275284.820763) vcan0 0B0#A352C200A2768352
(1445275284.820992) vcan0 145#211040FC8050F2FD
(1445275284.821244) vcan0 1D0#6100000000000000
(1445275284.821452) vcan0 400#0602010102010101
(1445275284.823576) vcan0 008#80008000670C8197
(1445275284.823995) vcan0 210#428309A8A000DFC8
(1445275284.824910) vcan0 0F5#0062677F80008000
(1445275284.825231) vcan0 120#8954004F80008000
(1445275284.825515) vcan0 130#11FF6300001C99CC
(1445275284.825760) vcan0 150#C063C7FF90000000
(1445275284.829419) vcan0 010#F800000000000000
(1445275284.829728) vcan0 072#2080000027FF00F0
(1445275284.833619) vcan0 008#80008000571C8197
(1445275284.834041) vcan0 360#01A00003D2000000
(1445275284.834887) vcan0 1B0#EC00B00000008000
(1445275284.835154) vcan0 1B5#2FFFC000000000F9
(1445275284.835478) vcan0 1D8#63CF000000000000
(1445275284.835725) vcan0 1E0#E016BD80C1EB0400
(1445275284.839465) vcan0 010#F800000000000000
(1445275284.839678) vcan0 055#809C00B227FFF7FE
(1445275284.839945) vcan0 065#01EB8E00F7F9E000
(1445275284.840263) vcan0 070#000EF200F8046000
(1445275284.840507) vcan0 075#1854000000000000
(1445275284.840795) vcan0 080#802600E200804FFF
(1445275284.841117) vcan0 0B0#A352C200A2768352
(1445275284.841119) vcan0 145#210040FC8050F2FD
(1445275284.841369) vcan0 1D0#6100000000000000
(1445275284.841589) vcan0 28C#00BE300000005080
(1445275284.841881) vcan0 2B5#0022ADB35200004B
(1445275284.842079) vcan0 2C0#E5A0000000000000
(1445275284.842405) vcan0 2C5#0000E00000008700
(1445275284.842726) vcan0 390#475B12020000FF80
(1445275284.843013) vcan0 3AF#2000000000000000
(1445275284.843608) vcan0 008#80008000472C8197
(1445275284.844075) vcan0 072#20A0000027FF00F0
(1445275284.844908) vcan0 0F5#00526B7F80008000
(1445275284.845183) vcan0 120#8954004F80008000
(1445275284.845478) vcan0 130#11FF5300001C99D4
(1445275284.845729) vcan0 150#C053C7FFA0000000
(1445275284.849508) vcan0 010#F800000000000000
(1445275284.849743) vcan0 210#428309A8A000DFC8
(1445275284.850012) vcan0 2A9#840000C0CA0006BC
(1445275284.853625) vcan0 008#80008000373C8197
(1445275284.854902) vcan0 1B0#EC00B00000008000
(1445275284.855113) vcan0 1B5#2FFFC000000000F9
(1445275284.855355) vcan0 1D8#63CF000000000000
(1445275284.855603) vcan0 1E0#E016BD8081EB0400
(1445275284.855850) vcan0 2C3#505400FFFF012975
(1445275284.859257) vcan0 010#F800000000000000
(1445275284.859491) vcan0 055#809C00B227FFF7FE
(1445275284.859727) vcan0 065#01EB8E00F7F9E000
(1445275284.860042) vcan0 070#000EF200F8046000
(1445275284.860333) vcan0 072#2080000027FF00F0
(1445275284.860575) vcan0 075#1854000000000000
(1445275284.860872) vcan0 080#802600E200804FFF
(1445275284.860873) vcan0 0B0#A352C200A2768352
(1445275284.861213) vcan0 145#A11040FC8050F2FD
(1445275284.861520) vcan0 1D0#6108000000000000
(1445275284.861741) vcan0 405#016438B0E70807D5
(1445275284.863591) vcan0 008#80008000274C8197
(1445275284.864926) vcan0 0F5#00426F7F80008000
(1445275284.865280) vcan0 120#8954004F80008000
(1445275284.865517) vcan0 130#11FF4300001C99DC
(1445275284.865740) vcan0 150#C043C7FFB0000000
(1445275284.869492) vcan0 010#F800000000000000
(1445275284.873624) vcan0 008#80008000175C8197
(1445275284.874012) vcan0 072#20A0000027FF00F0
(1445275284.874227) vcan0 210#428309A8A000DFC8
(1445275284.874853) vcan0 1B0#EC00B00000008000
(1445275284.875141) vcan0 1B5#2FFFC000000000F9
(1445275284.875387) vcan0 1D8#63CF000000000000
(1445275284.875602) vcan0 1E0#E016BD80C1DB0800
(1445275284.879388) vcan0 010#F800000000000000
(1445275284.879611) vcan0 055#809C00B227FFF7FE
(1445275284.879852) vcan0 065#01EB8E00F7F9E000
(1445275284.880101) vcan0 070#000EF200F8046000
(1445275284.880379) vcan0 075#1854000000000000
(1445275284.880573) vcan0 080#802600E200804FFF
(1445275284.880833) vcan0 0B0#A352C200A2768352
(1445275284.881137) vcan0 145#211040FC8050F2FD
(1445275284.881401) vcan0 1D0#6100000000000000
(1445275284.881660) vcan0 28C#00BE300000005080
(1445275284.881893) vcan0 2B5#0022ADB35200004B
(1445275284.883579) vcan0 008#80008000076C8197
(1445275284.884902) vcan0 0F5#0032737F80008000
(1445275284.885135) vcan0 120#8954004F80008000
(1445275284.885390) vcan0 130#11FF3300001C99E4
(1445275284.885603) vcan0 150#C033C7FFC0000000
(1445275284.889318) vcan0 010#F800000000000000
(1445275284.889603) vcan0 072#2080000027FF00F0
(1445275284.889854) vcan0 2A9#840000C0C20006BC
(1445275284.893587) vcan0 008#80008000F77C8197
(1445275284.894902) vcan0 1B0#EC00B00000008000
(1445275284.895183) vcan0 1B5#2FFFC000000000F9
(1445275284.895495) vcan0 1D8#63CF000000000000
(1445275284.895789) vcan0 1E0#E016BD80C1CB0C00
(1445275284.896067) vcan0 2C3#505400FFFF012975
(1445275284.899335) vcan0 010#F800000000000000
(1445275284.899641) vcan0 055#809C00B227FFF7FE
(1445275284.899888) vcan0 065#01EB8E00F7F9E000
(1445275284.900202) vcan0 070#000EF200F8046000
(1445275284.900551) vcan0 075#1854000000000000
(1445275284.900553) vcan0 080#802600E200804FFF
(1445275284.900822) vcan0 0B0#A352C200A2768352
(1445275284.901118) vcan0 145#210040FC8050F2FD
(1445275284.901423) vcan0 1D0#6100000000000000
(1445275284.901728) vcan0 210#428309A8A000DFC8
(1445275284.901729) vcan0 2C0#E5A0000000000000
(1445275284.902036) vcan0 2C5#0000E00000008700
(1445275284.902330) vcan0 370#00D3437B00900004
(1445275284.902584) vcan0 3E0#0080985118000000
(1445275284.903548) vcan0 008#80008000E78C8197
(1445275284.904053) vcan0 072#20A0000027FF00F0
(1445275284.904298) vcan0 3B0#00C4000028B9D800
(1445275284.904867) vcan0 0F5#0022777F80008000
(1445275284.905180) vcan0 120#8954004F80008000
(1445275284.905450) vcan0 130#11FF2300001C99EC
(1445275284.905695) vcan0 150#C023C7FFD0000000
(1445275284.909449) vcan0 010#F800000000000000
(1445275284.913546) vcan0 008#80008000D79C8197
(1445275284.914811) vcan0 1B0#EC00B00000008000
(1445275284.915076) vcan0 1B5#2FFFC000000000F9
(1445275284.915324) vcan0 1D8#63CF000000000000
(1445275284.915569) vcan0 1E0#E016BD8081CB0C00
(1445275284.919338) vcan0 010#F800000000000000
(1445275284.919580) vcan0 055#809C00B227FFF7FE
(1445275284.919810) vcan0 065#01EB8E00F7F9E000
(1445275284.920059) vcan0 070#000EF200F8046000
(1445275284.920284) vcan0 072#2080000027FF00F0
(1445275284.920526) vcan0 075#1854000000000000
(1445275284.920807) vcan0 080#802600E200804FFF
(1445275284.921069) vcan0 0B0#A352C200A2768352
(1445275284.921354) vcan0 145#A11040FC8050F2FD
(1445275284.921651) vcan0 1D0#6100000000000000
(1445275284.921978) vcan0 28C#00BE300000005080
(1445275284.921979) vcan0 2B5#0022ADB35200004B
(1445275284.923526) vcan0 008#80008000C7AC8197
(1445275284.924005) vcan0 210#428309A82000DFC8
(1445275284.924896) vcan0 0F5#00127B7F80008000
(1445275284.925241) vcan0 120#8954004F80008000
(1445275284.925516) vcan0 130#11FF1300001C99F4
(1445275284.925789) vcan0 150#C013C7FFE0000000
(1445275284.926025) vcan0 3CA#C000005500000000
(1445275284.929474) vcan0 010#F800000000000000
(1445275284.929712) vcan0 2A9#840000C0CA0006BC
(1445275284.933547) vcan0 008#80008000B7BC8197
(1445275284.934000) vcan0 072#20A0000027FF00F0
(1445275284.934244) vcan0 360#01A00003D2000000
(1445275284.934853) vcan0 1B0#EC00B00000008000
(1445275284.935123) vcan0 1B5#2FFFC000000000F9
(1445275284.935347) vcan0 1D8#63CF000000000000
(1445275284.935594) vcan0 1E0#E016BD80C1BB1000
(1445275284.935819) vcan0 2C3#505400FFFF012975
(1445275284.939245) vcan0 010#F800000000000000
(1445275284.939513) vcan0 055#809C00B227FFF7FE
(1445275284.939728) vcan0 065#01EB8E00F7F9E000
(1445275284.939976) vcan0 070#000EF200F8046000
(1445275284.940222) vcan0 075#1854000000000000
(1445275284.940469) vcan0 080#802600E200804FFF
(1445275284.940716) vcan0 0B0#A352C200A2768352
(1445275284.940976) vcan0 145#211040FC8050F2FD
(1445275284.941197) vcan0 1D0#6108000000000000
(1445275284.941445) vcan0 390#475C0E020000FF80
(1445275284.943550) vcan0 008#80008000A7CC8197
(1445275284.944862) vcan0 0F5#00027F7F80008000
(1445275284.945235) vcan0 120#8954004F80008000
(1445275284.945514) vcan0 130#11FF0300001C99FC
(1445275284.945760) vcan0 150#C003C7FFF0000000
(1445275284.949355) vcan0 010#F800000000000000
(1445275284.949571) vcan0 072#2080000027FF00F0
(1445275284.949853) vcan0 210#428309A8A000DFC8
(1445275284.950100) vcan0 3D0#C28003120061009A
(1445275284.953541) vcan0 008#8000800097DC8197
(1445275284.954887) vcan0 1B0#EC00B00000008000
(1445275284.955224) vcan0 1B5#2FFFC000000000F9
(1445275284.955511) vcan0 1D8#63CF000000000000
(1445275284.955759) vcan0 1E0#E016BD80C1AB1400
(1445275284.959479) vcan0 010#F800000000000000
(1445275284.959725) vcan0 055#809C00B227FFF7FE
(1445275284.960012) vcan0 065#01EB8E00F7F9E000
(1445275284.960294) vcan0 070#000EF200F8046000
(1445275284.960636) vcan0 075#1854000000000000
(1445275284.960919) vcan0 080#802600E200804FFF
(1445275284.960920) vcan0 0B0#A352C200A2768352
(1445275284.961206) vcan0 145#210040FC8050F2FD
(1445275284.961530) vcan0 1D0#6100000000000000
(1445275284.961889) vcan0 28C#00BE300000005080
(1445275284.961895) vcan0 2B5#0022ADB35200004B
(1445275284.962242) vcan0 2C0#E5A0000000000000
(1445275284.962509) vcan0 2C5#0000E00000008700
(1445275284.962510) vcan0 3AF#2000000000000000
(1445275284.963592) vcan0 008#8000800087EC8197
(1445275284.964152) vcan0 072#20A0000027FF00F0
(1445275284.964911) vcan0 0F5#00F2437F80008000
(1445275284.965115) vcan0 120#8954004F80008000
(1445275284.965346) vcan0 130#11FFF300001C9984
(1445275284.965600) vcan0 150#C0F3C7FF00000000
(1445275284.969382) vcan0 010#F800000000000000
(1445275284.969635) vcan0 2A9#840000C0C20006BC
(1445275284.973595) vcan0 008#8000800077FC8197
(1445275284.974012) vcan0 210#428309A8A000DFC8
(1445275284.974897) vcan0 1B0#EC00B00000008000
(1445275284.975226) vcan0 1B5#2FFFC000000000F9
(1445275284.975530) vcan0 1D8#63CF000000000000
(1445275284.975798) vcan0 1E0#E016BD8081AB1400
(1445275284.975800) vcan0 2C3#505400FFFF012975
(1445275284.979386) vcan0 010#F800000000000000
(1445275284.979666) vcan0 055#809C00B227FFF7FE
(1445275284.979991) vcan0 065#01EB8E00F7F9E000
(1445275284.980271) vcan0 070#000EF200F8046000
(1445275284.980614) vcan0 072#2080000027FF00F0
(1445275284.980615) vcan0 075#1854000000000000
(1445275284.980877) vcan0 080#802600E200804FFF
(1445275284.981179) vcan0 0B0#A352C200A2768352
(1445275284.981451) vcan0 145#A11040FC8050F2FD
(1445275284.981694) vcan0 1D0#6100000000000000
(1445275284.983588) vcan0 008#80008000670C8197
(1445275284.984890) vcan0 0F5#00E2477F80008000
(1445275284.985244) vcan0 120#8954004F80008000
(1445275284.985502) vcan0 130#11FFE300001C998C
(1445275284.985765) vcan0 150#C0E3C7FF10000000
(1445275284.989512) vcan0 010#F800000000000000
(1445275284.993523) vcan0 008#80008000571C8197
(1445275284.994181) vcan0 072#20A0000027FF00F0
(1445275284.994845) vcan0 1B0#EC00B00000008000
(1445275284.995098) vcan0 1B5#2FFFC000000000F9
(1445275284.995349) vcan0 1D8#63CF000000000000
(1445275284.995598) vcan0 1E0#E016BD80C19B1800
(1445275284.999297) vcan0 010#F800000000000000
(1445275284.999544) vcan0 055#809C00B227FFF7FE
(1445275284.999818) vcan0 065#01EB8E00F7F9E000
(1445275285.000100) vcan0 070#000EF200F8046000
(1445275285.000368) vcan0 075#1854000000000000
(1445275285.000652) vcan0 080#802600E200804FFF
(1445275285.000993) vcan0 0B0#A352C200A2768352
(1445275285.000994) vcan0 145#211040FC8050F2FD
(1445275285.001294) vcan0 1D0#6100000000000000
(1445275285.001593) vcan0 210#428309A8A000DFC8
(1445275285.001917) vcan0 28C#00BE300000005080
(1445275285.001919) vcan0 2B5#0022ADB35200004B
(1445275285.002193) vcan0 370#00D3437B00900004
(1445275285.003551) vcan0 008#80008000472C8197
(1445275285.004863) vcan0 0F5#00D24B7F80008000
(1445275285.005255) vcan0 120#8954004F80008000
(1445275285.005493) vcan0 130#11FFD300001C9994
(1445275285.005726) vcan0 150#C0D3C7FF20000000
(1445275285.009425) vcan0 010#F800000000000000
(1445275285.009672) vcan0 072#2080000027FF00F0
(1445275285.009947) vcan0 2A9#840000C0CA0006BC
(1445275285.013570) vcan0 008#80008000373C8197
(1445275285.014842) vcan0 1B0#EC00B00000008000
(1445275285.015133) vcan0 1B5#2FFFC000000000F9
(1445275285.015378) vcan0 1D8#63CF000000000000
(1445275285.015592) vcan0 1E0#E016BD80C18B1C00
(1445275285.015850) vcan0 2C3#505400FFFF012975
(1445275285.019412) vcan0 010#F800000000000000
(1445275285.019650) vcan0 055#809C00B227FFF7FE
(1445275285.019906) vcan0 065#01EB8E00F7F9E000
(1445275285.020229) vcan0 070#000EF200F8046000
(1445275285.020543) vcan0 075#1854000000000000
(1445275285.020823) vcan0 080#802600E200804FFF
(1445275285.020825) vcan0 0B0#A352C200A2768352
(1445275285.021101) vcan0 145#210040FC8050F2FD
(1445275285.021387) vcan0 1D0#6108000000000000
(1445275285.021601) vcan0 2C0#E5A0000000000000
(1445275285.021852) vcan0 2C5#0000E00000008700
(1445275285.023563) vcan0 008#80008000274C8197
(1445275285.024222) vcan0 072#20A0000027FF00F0
(1445275285.024484) vcan0 210#428309A8A000DFC8
(1445275285.024769) vcan0 3B0#00C4000028B9D800
