(1445275668.953944) can0 400#0502010201010101
(1445275668.957804) can0 072#388078003FFF00F0
(1445275668.958107) can0 210#4DA809AD2080E041
(1445275668.958433) can0 1B0#EC00B0000000C000
(1445275668.958646) can0 1B5#EFFFE000000000FF
(1445275668.958900) can0 1D8#43E0303135303734
(1445275668.959166) can0 1E0#E017BD80817B2000
(1445275668.959414) can0 2C3#505400FFFF012975
(1445275668.963169) can0 008#80008000B5BC8199
(1445275668.963442) can0 010#F831B02F80000000
(1445275668.963699) can0 1D0#61020A2BD2C5EC00
(1445275668.963908) can0 055#809C00B227F3F7F2
(1445275668.964154) can0 065#01F98E00F7F2E351
(1445275668.964389) can0 070#005BF1F9F8434000
(1445275668.964635) can0 075#585423098F99E900
(1445275668.964880) can0 080#802DF9F200804FDE
(1445275668.965156) can0 0B0#A352C1F8A2658352
(1445275668.965446) can0 145#211040FC85D0F2FD
(1445275668.965693) can0 260#F0DC17495500FFD0
(1445275668.965890) can0 0E0#00A18000D0027162
(1445275668.968495) can0 0F5#00127B7F80008000
(1445275668.968771) can0 120#8955FA7F80008000
(1445275668.969025) can0 130#11FF1300001DFFF7
(1445275668.969250) can0 150#C013F7E0E7FD0000
(1445275668.969797) can0 288#80000000CF30DFDD
(1445275668.971151) can0 125#34D7D0C1E67EB7E5
(1445275668.973249) can0 008#80008000A5CC8199
(1445275668.973536) can0 010#F831B02F80000000
(1445275668.973750) can0 072#38A078003FFF00F0
(1445275668.978472) can0 1B0#EC00B0000000C000
(1445275668.978686) can0 1B5#EFFFE000000000FF
(1445275668.978930) can0 1D8#43E0303135303734
(1445275668.979186) can0 1E0#E017BD80C16B2400
(1445275668.983183) can0 008#8000800095DC8199
(1445275668.983442) can0 010#F831B02F80000000
(1445275668.983686) can0 1D0#61000A2BD2C5EC00
(1445275668.983905) can0 055#809C00B227F0F7EF
(1445275668.984154) can0 065#01F78E01F7F1E354
(1445275668.984390) can0 070#005BF1F7F8444000
(1445275668.984607) can0 075#585423098F99E900
(1445275668.984850) can0 080#802DF9F200804FDF
(1445275668.985094) can0 0B0#A352C1F9A2668352
(1445275668.985389) can0 145#211040FC85D0F2FD
(1445275668.985672) can0 210#45A809ADA080E03D
(1445275668.985938) can0 28C#8CBE300000004000
(1445275668.986234) can0 0E0#00828000D8017162
(1445275668.986235) can0 2B5#3D22A9B3722AA84B
(1445275668.986498) can0 2C0#E5B0001400000000
(1445275668.986752) can0 2C5#7000E000001BB700
(1445275668.986987) can0 370#3CD3437600900004
(1445275668.987242) can0 3AF#2000000000000000
(1445275668.987464) can0 3E0#8C80984718000000
(1445275668.988151) can0 072#388078003FFF00F0
(1445275668.988444) can0 0F5#00027F7F80008000
(1445275668.988719) can0 120#8955FB7F80008000
(1445275668.988957) can0 130#11FF0300001DFFFF
(1445275668.989201) can0 150#C003F7E0F8050000
(1445275668.991117) can0 125#34D7D0C1E67EB7E5
(1445275668.993215) can0 008#8000800085EC8199
(1445275668.993470) can0 010#F831B02F80000000
(1445275668.993691) can0 2A9#840000C0CA00268C
(1445275668.993964) can0 260#F0DC17495500FFD0
(1445275668.994822) can0 288#80000000CF30DFC4
(1445275668.998461) can0 1B0#EC00B0000000C000
(1445275668.998676) can0 1B5#EFFFE000000000FF
(1445275668.998934) can0 1D8#43E0303135303734
(1445275668.999153) can0 1E0#E017BD80C15B2800
(1445275668.999437) can0 2C3#505400FFFF012975
(1445275669.003255) can0 008#8000800075FC8199
(1445275669.003467) can0 010#F831B02F80000000
(1445275669.003717) can0 072#38A078003FFF00F0
(1445275669.003990) can0 055#809C00B227F0F7F0
(1445275669.004277) can0 065#01F78E00F7F1E352
(1445275669.004591) can0 070#005BF1F7F8434000
(1445275669.004879) can0 075#585423098F99E900
(1445275669.004880) can0 080#802DF7F200804FD9
(1445275669.005145) can0 0B0#A352C1F7A2668352
(1445275669.005434) can0 145#A10040FC85D0F2FD
(1445275669.005704) can0 1D0#61080A2BD2C5EC00
(1445275669.005931) can0 0E0#00628000E0017162
(1445275669.007952) can0 210#45A809ADA080E03D
(1445275669.008477) can0 0F5#00F2437F80008000
(1445275669.008722) can0 120#8955F87F80008000
(1445275669.008995) can0 130#11FFF300001DFF87
(1445275669.009274) can0 150#C0F3F7E007FD0000
(1445275669.011197) can0 125#34D7D0C1E67EB7E5
(1445275669.013216) can0 008#80008000650C8199
(1445275669.013498) can0 010#F831B02F80000000
(1445275669.017988) can0 072#388078003FFF00F0
(1445275669.018206) can0 360#01A06EABD1012975
(1445275669.018454) can0 1B0#EC00B0000000C000
(1445275669.018737) can0 1B5#EFFFE000000000FF
(1445275669.019024) can0 1D8#43E0303135303734
(1445275669.019308) can0 1E0#E017BD80815B2800
(1445275669.019862) can0 288#80000000CF30DFD0
(1445275669.023255) can0 008#80008000551C8199
(1445275669.023536) can0 010#F831B02F80000000
(1445275669.023756) can0 1D0#61000A2BD2C5EC00
(1445275669.023993) can0 055#809C00B227F3F7F2
(1445275669.024263) can0 065#01F98E00F7F2E352
(1445275669.024591) can0 070#005BF1F9F8424000
(1445275669.024848) can0 075#585423098F99E900
(1445275669.025151) can0 080#802DF9F200804FE1
(1445275669.025152) can0 0B0#A352C1F9A2678352
(1445275669.025435) can0 145#211040FC85D0F2FD
(1445275669.025648) can0 260#F0DC16495500FFD0
(1445275669.025877) can0 28C#89BE300000004000
(1445275669.026202) can0 0E0#00428000E8017162
(1445275669.026500) can0 2B5#3D22A9B37225A84B
(1445275669.026753) can0 390#67591A021405FFE4
(1445275669.027101) can0 350#80000000000000A2
(1445275669.028485) can0 0F5#00E2477F80008000
(1445275669.028724) can0 120#8955FA7F80008000
(1445275669.028995) can0 130#11FFE300001DFF8F
(1445275669.029219) can0 150#C0E3F7E017FD0000
(1445275669.031098) can0 125#34D7D0C1E67EB7E5
(1445275669.033164) can0 008#80008000452C8199
(1445275669.033469) can0 010#F931B02F80000000
(1445275669.033723) can0 072#38A078003FFF00F0
(1445275669.034002) can0 210#4DA809ADA080E03D
(1445275669.034268) can0 2A9#840000C0D300268C
(1445275669.038471) can0 1B0#EC00B0000000C000
(1445275669.038697) can0 1B5#EFFFE000000000FF
(1445275669.038977) can0 1D8#43E0303135303734
(1445275669.039291) can0 1E0#E017BD80C14B2C00
(1445275669.039503) can0 2C3#505400FFFF012975
(1445275669.043224) can0 008#80008000353C8199
(1445275669.043498) can0 010#F831B02F80000000
(1445275669.043774) can0 1D0#61020A2BD2C5EC00
(1445275669.044115) can0 055#809C00B227F3F7F2
(1445275669.044434) can0 065#01F98E00F7F3E355
(1445275669.044435) can0 070#005BF1F9F8424000
(1445275669.044670) can0 075#585423098F99E900
(1445275669.044965) can0 080#802DF9F200804FE0
(1445275669.045298) can0 0B0#A352C1F9A2668352
(1445275669.045299) can0 145#211040FC85D0F2FD
(1445275669.045668) can0 288#80000000CF30DFCC
(1445275669.045924) can0 2C0#E5B0001400000000
(1445275669.046187) can0 0E0#00228000F0017162
(1445275669.046458) can0 2C5#7000E000001BB700
(1445275669.048004) can0 072#388078003FFF00F0
(1445275669.048251) can0 3B0#00C4A8B93CB9D800
(1445275669.048503) can0 0F5#00D24B7F80008000
(1445275669.048741) can0 120#8955FA7F80008000
(1445275669.049009) can0 130#11FFD300001DFF97
(1445275669.049262) can0 150#C0D3F7E028030000
(1445275669.051191) can0 125#34D7D0C1E67EB7E5
(1445275669.053225) can0 008#80008000254C8199
(1445275669.053496) can0 010#F831B02F80000000
(1445275669.053875) can0 260#F0DC1749AA00FFD0
(1445275669.054882) can0 3C8#8E0024888E012975
(1445275669.057913) can0 210#45A809ADA080E03D
(1445275669.058462) can0 1B0#EC00B0000000C000
(1445275669.058679) can0 1B5#EFFFE000000000FF
(1445275669.058931) can0 1D8#43E0303135303734
(1445275669.059143) can0 1E0#E017BD80C13B3000
(1445275669.063217) can0 008#80008000155C8199
(1445275669.063498) can0 010#F831B02F80000000
(1445275669.063752) can0 072#38A078003FFF00F0
(1445275669.064041) can0 055#809C00B227F1F7F1
(1445275669.064331) can0 065#01F88E00F7F2E355
(1445275669.064684) can0 070#005BF1F8F8414000
(1445275669.064685) can0 075#585423098F99E900
(1445275669.064872) can0 080#802DF8F200804FDB
(1445275669.065162) can0 0B0#A352C1F8A2678352
(1445275669.065476) can0 145#A10040FC85D0F2FD
(1445275669.065767) can0 1D0#61000A2BD2C5EC00
(1445275669.065769) can0 28C#89BE300000004000
(1445275669.066063) can0 0E0#00028000F8017162
(1445275669.066332) can0 2B5#3C22A9B37225A84B
(1445275669.068524) can0 0F5#00C24F7F80008000
(1445275669.068746) can0 120#8955FA7F80008000
(1445275669.069004) can0 130#11FFC300001DFF9F
(1445275669.069275) can0 150#C0C3F7E038000000
(1445275669.069524) can0 3CA#C000005100000000
(1445275669.069873) can0 288#80000000BF40DFC8
(1445275669.071171) can0 125#34D7D0C1E67EB7E5
(1445275669.073221) can0 008#80008000056C8199
(1445275669.073498) can0 010#F831B02F80000000
(1445275669.073777) can0 2A9#840000C0CA00268C
(1445275669.077823) can0 072#388078003FFF00F0
(1445275669.078448) can0 1B0#EC00B0000000C000
(1445275669.078620) can0 1B5#EFFFE000000000FF
(1445275669.078893) can0 1D8#43E0303135303734
(1445275669.079135) can0 1E0#E017BD80813B3000
(1445275669.079415) can0 2C3#505400FFFF012975
(1445275669.083196) can0 010#F831B02F80000000
(1445275669.083435) can0 008#80008000F57C8199
(1445275669.083667) can0 1D0#61080A2BD2C5EC00
(1445275669.083904) can0 210#4DA809ADA080E03D
(1445275669.084116) can0 055#809C00B227F2F7F1
(1445275669.084433) can0 065#01F88E00F7F1E353
(1445275669.084716) can0 070#005BF1F8F8414000
(1445275669.085023) can0 075#585423098F99E900
(1445275669.085025) can0 080#802DF8F200804FDB
(1445275669.085349) can0 0B0#A352C1F8A2678352
(1445275669.085649) can0 145#211040FC85D0F2FD
(1445275669.085934) can0 260#F0DC1749AA00FFD0
(1445275669.086225) can0 0E0#00E28000C0017162
(1445275669.086226) can0 370#3CD3437600900004
(1445275669.088479) can0 0F5#00B2537F80008000
(1445275669.088752) can0 120#8955FA7F80008000
(1445275669.089003) can0 130#11FFB300001DFFA7
(1445275669.089251) can0 150#C0B3F7E047FF0000
(1445275669.091103) can0 125#34D7D0C1E67EB7E5
(1445275669.093128) can0 010#F831B02F80000000
(1445275669.093437) can0 008#80008000E58C8199
(1445275669.093692) can0 072#38A078003FFF00F0
(1445275669.094908) can0 288#80000000BF40DFC8
(1445275669.098467) can0 1B0#EC00B0000000C000
(1445275669.098708) can0 1B5#EFFFE000000000FF
(1445275669.098987) can0 1D8#43E0303135303734
(1445275669.099248) can0 1E0#E017BD80C12B3400
(1445275669.103198) can0 010#F831B02F80000000
(1445275669.103442) can0 008#80008000D59C8199
(1445275669.103736) can0 1D0#61000A2BD2C5EC00
(1445275669.104056) can0 055#809C00B227F1F7F1
(1445275669.104360) can0 065#01F88E00F7F1E353
(1445275669.104361) can0 070#005BF1F8F8424000
(1445275669.104637) can0 075#585423098F99E900
(1445275669.104946) can0 080#802DF8F200804FDB
(1445275669.105208) can0 0B0#A352C1F8A2668352
(1445275669.105524) can0 145#211040FC85D0F2FD
(1445275669.105525) can0 28C#8FBE300000004000
(1445275669.105774) can0 2B5#3C22A9B37224A84B
(1445275669.105996) can0 0E0#00C28000C8017162
(1445275669.106274) can0 2C0#E5B0001400000000
(1445275669.106600) can0 2C5#7000E000001BB700
(1445275669.106869) can0 3AF#2000000000000000
(1445275669.108220) can0 072#388078003FFF00F0
(1445275669.108426) can0 210#4DA809AD2080E03D
(1445275669.108708) can0 0F5#00A2577F80008000
(1445275669.108941) can0 120#8955F97F80008000
(1445275669.109238) can0 130#11FFA300001DFFAF
(1445275669.109498) can0 150#C0A3F7E057FF0000
(1445275669.111143) can0 125#34D7D0C1E67EB7E5
(1445275669.113219) can0 008#80008000C5AC8199
(1445275669.113651) can0 010#F931B02F80000000
(1445275669.113893) can0 260#F0DC1749AA00FFD0
(1445275669.114140) can0 2A9#840000C0D300268C
(1445275669.114403) can0 405#0240340039012975
(1445275669.117146) can0 350#80000000000000A2
(1445275669.118428) can0 1B0#EC00B0000000C000
(1445275669.118719) can0 1B5#EFFFE000000000FF
(1445275669.119019) can0 1D8#43E0303135303734
(1445275669.119327) can0 1E0#E017BD80C11B3800
(1445275669.119665) can0 2C3#505400FFFF012975
(1445275669.119666) can0 360#01A06EABD1012975
(1445275669.119876) can0 288#80000000BF40DFCC
(1445275669.123169) can0 008#80008000B5BC8199
(1445275669.123877) can0 055#809C00B227F1F7F0
(1445275669.124089) can0 065#01F78E00F7F1E354
(1445275669.124365) can0 010#F831B02F80000000
(1445275669.124704) can0 070#005BF1F7F8424000
(1445275669.124962) can0 072#38A078003FFF00F0
(1445275669.125278) can0 075#585423098F99E900
(1445275669.125279) can0 080#802DF9F200804FDE
(1445275669.125523) can0 0B0#A352C1F9A2678352
(1445275669.125773) can0 145#A10040FC85D0F2FD
(1445275669.126061) can0 0E0#00A28000D0017162
(1445275669.126362) can0 1D0#61020A2BD2C5EC00
(1445275669.126619) can0 390#475B12021405FFE4
(1445275669.128520) can0 0F5#00925B7F80008000
(1445275669.128760) can0 120#8955FC7F80008000
(1445275669.129064) can0 130#11FF9300001DFFB7
(1445275669.129340) can0 150#C093F7E067FF0000
(1445275669.131147) can0 125#34D7D0C1E67EB7E5
(1445275669.133219) can0 008#80008000A5CC8199
(1445275669.133459) can0 010#F831B02F80000000
(1445275669.133717) can0 210#45A809ADA080E03D
(1445275669.133991) can0 3D0#C3800338006109A2
(1445275669.138008) can0 072#388078003FFF00F0
(1445275669.138454) can0 1B0#EC00B0000000C000
(1445275669.138672) can0 1B5#EFFFE000000000FF
(1445275669.138900) can0 1D8#43E0303135303734
(1445275669.139149) can0 1E0#E017BD80811B3800
(1445275669.143226) can0 008#8000800095DC8199
(1445275669.143474) can0 010#F831B02F80000000
(1445275669.143812) can0 1D0#61000A2BD2C5EC00
(1445275669.144075) can0 055#809C00B227F1F7F1
(1445275669.144433) can0 065#01F88E00F7F1E351
(1445275669.144435) can0 070#005BF1F8F8414000
(1445275669.144715) can0 075#585423098F99E900
(1445275669.145008) can0 080#802DF8F200804FDB
(1445275669.145310) can0 0B0#A352C1F8A2678352
(1445275669.145311) can0 145#211040FC85D0F2FD
(1445275669.145687) can0 260#F0DC17495500FFD0
(1445275669.145986) can0 288#80000000BF40DFC4
(1445275669.146292) can0 0E0#00828000D8017162
(1445275669.146292) can0 28C#8FBE300000004000
(1445275669.146500) can0 2B5#3B22A9B37224A84B
(1445275669.148504) can0 0F5#00825F7F80008000
(1445275669.148753) can0 120#8955FA7F80008000
(1445275669.148996) can0 130#11FF8300001DFFBF
(1445275669.149250) can0 150#C083F7E078000000
(1445275669.151074) can0 125#34D7D0C1E67EB7E5
(1445275669.153163) can0 008#8000800085EC8199
(1445275669.153434) can0 010#F831B02F80000000
(1445275669.153689) can0 072#38A078003FFF00F0
(1445275669.153942) can0 2A9#840000C0CA00268C
(1445275669.158078) can0 210#4DA809ADA080E03D
(1445275669.158436) can0 1B0#EC00B0000000C000
(1445275669.158716) can0 1B5#EFFFE000000000FF
(1445275669.159016) can0 1D8#43E0303135303734
(1445275669.159358) can0 1E0#E017BD80C10B3C00
(1445275669.159615) can0 2C3#505400FFFF012975
(1445275669.163191) can0 008#8000800075FC8199
(1445275669.163433) can0 010#F831B02F80000000
(1445275669.163691) can0 1D0#61080A2BD2C5EC00
(1445275669.163988) can0 055#809C00B227F3F7F2
(1445275669.164280) can0 065#01F98E00F7F2E351
(1445275669.164605) can0 070#005BF1F9F8424000
(1445275669.164607) can0 075#585423098F99E900
(1445275669.164875) can0 080#802DF9F200804FE1
(1445275669.165148) can0 0B0#A352C1F9A2678352
(1445275669.165425) can0 145#211040FC85D0F2FD
(1445275669.165718) can0 2C0#E5B0001400000000
(1445275669.166004) can0 2C5#7000E000001BB700
(1445275669.166005) can0 0E0#00628000E0017162
(1445275669.168128) can0 072#388078003FFF00F0
(1445275669.168410) can0 3B0#00C4A8B938B9D800
(1445275669.168630) can0 0F5#0072637F80008000
(1445275669.168953) can0 120#8955F97F80008000
(1445275669.169249) can0 130#11FF7300001DFFC7
(1445275669.169510) can0 150#C073F7E087FC0000
(1445275669.169887) can0 288#80000000AF50DFC4
(1445275669.171105) can0 125#34D7D0C1E67EB7E5
(1445275669.173189) can0 008#80008000650C8199
(1445275669.173445) can0 010#F831B02F80000000
(1445275669.173897) can0 260#F0DC17495500FFD0
(1445275669.174910) can0 3C8#8E0024888E012975
(1445275669.178423) can0 1B0#EC00B0000000C000
(1445275669.178716) can0 1B5#EFFFE000000000FF
(1445275669.179014) can0 1D8#43E0303135303734
(1445275669.179274) can0 1E0#E017BD80C1FB0000
(1445275669.183194) can0 008#80008000551C8199
(1445275669.183446) can0 010#F831B02F80000000
(1445275669.183716) can0 072#38A078003FFF00F0
(1445275669.184017) can0 055#809C00B227F4F7F3
(1445275669.184324) can0 065#01F98DFFF7F3E351
(1445275669.184625) can0 070#005BF1F9F8414000
(1445275669.184626) can0 075#585423098F99E900
(1445275669.184963) can0 080#802DF9F200804FE0
(1445275669.185218) can0 0B0#A352C1F9A2678352
(1445275669.185523) can0 145#A10040FC85D0F2FD
(1445275669.185524) can0 1D0#61000A2BD2C5EC00
(1445275669.185805) can0 210#45A809ADA080E03D
(1445275669.185998) can0 0E0#00418000E8027162
(1445275669.186268) can0 28C#8FBE300000004000
(1445275669.186519) can0 2B5#3B22A9B37224A84B
(1445275669.186775) can0 370#3CD3437600900004
(1445275669.188547) can0 0F5#0062677F80008000
(1445275669.188781) can0 120#8955FC7F80008000
(1445275669.189008) can0 130#11FF6300001DFFCF
(1445275669.189253) can0 150#C063F7E097FD0000
(1445275669.189522) can0 3CA#C000005200000000
(1445275669.191119) can0 125#34D7D0C1E67EB7E5
(1445275669.193195) can0 008#80008000452C8199
(1445275669.193446) can0 010#F931B02F80000000
(1445275669.193716) can0 2A9#840000C0D300268C
(1445275669.194888) can0 288#80000000AF50DFDD
(1445275669.197884) can0 072#388078003FFF00F0
(1445275669.198458) can0 1B0#EC00B0000000C000
(1445275669.198675) can0 1B5#EFFFE000000000FF
(1445275669.198917) can0 1D8#43E0303135303734
(1445275669.199203) can0 1E0#E017BD8081FB0000
(1445275669.199440) can0 2C3#505400FFFF012975
(1445275669.203199) can0 008#80008000353C8199
(1445275669.203468) can0 010#F831B02F80000000
(1445275669.203745) can0 1D0#61020A2BD2C5EC00
(1445275669.204024) can0 055#809C00B227F4F7F4
(1445275669.204338) can0 065#01FA8DFFF7F4E351
(1445275669.204741) can0 070#005BF1FAF8414000
(1445275669.204742) can0 075#585423098F99E900
(1445275669.205025) can0 080#802DFAF200804FE3
(1445275669.205462) can0 0B0#A352C1FAA2678352
(1445275669.205463) can0 145#211040FC85D0F2FD
(1445275669.205719) can0 260#F0DC17495500FFD0
(1445275669.206004) can0 400#0602010102010101
(1445275669.206005) can0 0E0#00228000F0017162
(1445275669.207110) can0 350#80000000000000A2
(1445275669.207927) can0 210#45A809ADA080E03D
(1445275669.208507) can0 0F5#00526B7F80008000
(1445275669.208772) can0 120#8955FB7F80008000
(1445275669.209094) can0 130#11FF5300001DFFD7
(1445275669.209331) can0 150#C053F7E0A8050000
(1445275669.211119) can0 125#34D7D0C1E67EB7E5
(1445275669.213191) can0 008#80008000254C8199
(1445275669.213446) can0 010#F831B02F80000000
(1445275669.213713) can0 072#38A078003FFF00F0
(1445275669.218172) can0 360#01A06EABD2012975
(1445275669.218450) can0 1B0#EC00B0000000C000
(1445275669.218760) can0 1B5#EFFFE000000000FF
(1445275669.219021) can0 1D8#43E0303135303734
(1445275669.219305) can0 1E0#E017BD80C1EB0400
(1445275669.219913) can0 288#80000000AF50DFC4
(1445275669.223129) can0 008#80008000155C8199
(1445275669.223728) can0 010#F831B02F80000000
(1445275669.223965) can0 055#809C00B227F3F7F3
(1445275669.224250) can0 065#01F88DFFF7F2E350
(1445275669.224521) can0 070#005BF1F9F8434000
(1445275669.224808) can0 075#585423098F99E900
(1445275669.225089) can0 080#802DF8F200804FDE
(1445275669.225488) can0 0B0#A352C1F8A2668352
(1445275669.225489) can0 145#211040FC85D0F2FD
(1445275669.225773) can0 1D0#61000A2BD2C5EC00
(1445275669.226080) can0 0E0#00028000F8017162
(1445275669.226081) can0 28C#8FBE310000004000
(1445275669.226414) can0 2B5#3B22A9B3722AA84B
(1445275669.226699) can0 2C0#E5B0001400000000
(1445275669.227000) can0 2C5#7000E000001CB700
(1445275669.227001) can0 390#475B12021405FFE4
(1445275669.227246) can0 3AF#2000000000000000
(1445275669.227866) can0 072#388078003FFF00F0
(1445275669.228513) can0 0F5#00426F7F80008000
(1445275669.228757) can0 120#8955FA7F80008000
(1445275669.229026) can0 130#11FF4300001DFFDF
(1445275669.229274) can0 150#C043F7E0B7FF0000
(1445275669.231115) can0 125#34D7D0C1E67EB7E5
(1445275669.233190) can0 008#80008000056C8199
(1445275669.233446) can0 010#F831B02F80000000
(1445275669.233764) can0 210#4DA809ADA080E03D
(1445275669.234022) can0 2A9#840000C0CA00268C
(1445275669.234273) can0 260#F0DC17495500FFD0
(1445275669.238470) can0 1B0#EC00B0000000C000
(1445275669.238687) can0 1B5#EFFFE000000000FF
(1445275669.238934) can0 1D8#43E0303135303734
(1445275669.239184) can0 1E0#E017BD80C1DB0800
(1445275669.239435) can0 2C3#505400FFFF012975
(1445275669.243198) can0 008#80008000F57C8199
(1445275669.243438) can0 010#F831B02F80000000
(1445275669.243761) can0 072#38A078003FFF00F0
(1445275669.244027) can0 1D0#61080A2BD2C5EC00
(1445275669.244355) can0 055#809C00B227F3F7F2
(1445275669.244356) can0 065#01F98DFFF7F3E350
(1445275669.244609) can0 070#005BF1F9F8444000
(1445275669.244883) can0 075#585423098F99E900
(1445275669.245149) can0 080#802DF9F200804FDF
(1445275669.245434) can0 0B0#A352C1F9A2658352
(1445275669.245695) can0 145#A10040FC85D0F2FD
(1445275669.246000) can0 288#80000000AF50DFBC
(1445275669.246001) can0 0E0#00E28000C0017162
(1445275669.248452) can0 0F5#0032737F80008000
(1445275669.248725) can0 120#8955F97F80008000
(1445275669.249038) can0 130#11FF3300001DFFE7
(1445275669.249288) can0 150#C033F7E0C7FC0000
(1445275669.251042) can0 125#34D7D0C1E67EB7E5
(1445275669.253125) can0 008#80008000E58C8199
(1445275669.253433) can0 010#F831B02F80000000
(1445275669.257883) can0 072#388078003FFF00F0
(1445275669.258101) can0 210#45A809AD2080E03D
(1445275669.258436) can0 1B0#EC00B0000000C000
(1445275669.258747) can0 1B5#EFFFE000000000FF
(1445275669.259019) can0 1D8#43E0303135303734
(1445275669.259268) can0 1E0#E017BD8081DB0800
(1445275669.263195) can0 008#80008000D59C8199
(1445275669.263448) can0 010#F831B02F80000000
(1445275669.263759) can0 1D0#61000A2BD2C5EC00
(1445275669.264024) can0 055#809C00B227F3F7F3
(1445275669.264352) can0 065#01F98E00F7F3E351
(1445275669.264353) can0 070#005BF1F9F8434000
(1445275669.264637) can0 075#585423098F99E900
(1445275669.264883) can0 080#802DF9F200804FE1
(1445275669.265164) can0 0B0#A352C1F9A2668352
(1445275669.265451) can0 145#211040FC85D0F2FD
(1445275669.265773) can0 260#F0DC1749AA00FFD0
(1445275669.265774) can0 28C#8FBE310000004000
(1445275669.266002) can0 0E0#00C18000C8027162
(1445275669.266310) can0 2B5#3D22A9B3722AA84B
(1445275669.268482) can0 0F5#0022777F80008000
(1445275669.268752) can0 120#8955FA7F80008000
(1445275669.269004) can0 130#11FF2300001DFFEF
(1445275669.269290) can0 150#C023F7E0D7FF0000
(1445275669.269965) can0 288#800000009F60DFD0
(1445275669.271061) can0 125#34D7D0C1E67EB7E5
(1445275669.273169) can0 008#80008000C5AC8199
(1445275669.273445) can0 010#F931B02F80000000
(1445275669.273742) can0 072#38A078003FFF00F0
(1445275669.274026) can0 2A9#840000C0C200268C
(1445275669.278462) can0 1B0#EC00B0000000C000
(1445275669.278672) can0 1B5#EFFFE000000000FF
(1445275669.278964) can0 1D8#43E0303135303734
(1445275669.279274) can0 1E0#E017BD80C1CB0C00
(1445275669.279524) can0 2C3#505400FFFF012975
(1445275669.283192) can0 008#80008000B5BC8199
(1445275669.283445) can0 010#F831B02F80000000
(1445275669.283744) can0 1D0#61020A2BD2C5EC00
(1445275669.284023) can0 055#809C00B227F3F7F3
(1445275669.284346) can0 065#01F98E00F7F3E351
(1445275669.284347) can0 070#005BF1F9F8434000
(1445275669.284632) can0 075#585423098F99E900
(1445275669.284900) can0 080#802DF9F200804FE0
(1445275669.285183) can0 0B0#A352C1F9A2668352
(1445275669.285455) can0 145#211040FC85D0F2FD
(1445275669.285750) can0 210#4DA809ADA080E03D
(1445275669.285751) can0 2C0#E5B0001400000000
(1445275669.286000) can0 0E0#00A28000D0017162
(1445275669.286249) can0 2C5#7000E000001BB700
(1445275669.286538) can0 370#3CD7437600900004
(1445275669.286791) can0 3E0#8F80984718000000
(1445275669.287909) can0 072#388078003FFF00F0
(1445275669.288164) can0 3B0#00C4A8B938B9FC00
(1445275669.288456) can0 0F5#00127B7F80008000
(1445275669.288724) can0 120#8955F97F80008000
(1445275669.289040) can0 130#11FF1300001DFFF7
(1445275669.289285) can0 150#C013F7E0E8000000
(1445275669.291039) can0 125#34D7D0C1E67EB7E5
(1445275669.293125) can0 008#80008000A5CC8199
(1445275669.293432) can0 010#F831B02F80000000
(1445275669.293911) can0 260#F0DC1749AA00FFD0
(1445275669.294988) can0 288#800000009F60DFD0
(1445275669.295203) can0 3C8#8E0024888E012975
(1445275669.297143) can0 350#80000000000000A2
(1445275669.298464) can0 1B0#EC00B0000000C000
(1445275669.298684) can0 1B5#EFFFE000000000FF
(1445275669.298956) can0 1D8#43E0303135303734
(1445275669.299226) can0 1E0#E017BD80C1BB1000
(1445275669.303174) can0 008#8000800095DC8199
(1445275669.303444) can0 010#F831B02F80000000
(1445275669.303751) can0 072#38A078003FFF00F0
(1445275669.304062) can0 055#809C00B227F3F7F3
(1445275669.304344) can0 065#01F98E00F7F3E351
(1445275669.304345) can0 070#005BF1F9F8444000
(1445275669.304636) can0 075#585423098F99E900
(1445275669.304913) can0 080#802DFAF200804FE2
(1445275669.305169) can0 0B0#A352C1F9A2668352
(1445275669.305447) can0 145#A10040FC85D0F2FD
(1445275669.305788) can0 1D0#61000A2BD2C5EC00
(1445275669.305789) can0 28C#8FBE310000004000
(1445275669.306074) can0 0E0#00828000D8017162
(1445275669.306344) can0 2B5#3D22A9B3722AA84B
(1445275669.307977) can0 210#4DA809ADA080E03D
(1445275669.308474) can0 0F5#00027F7F80008000
(1445275669.308745) can0 120#8955FA7F80008000
(1445275669.309068) can0 130#11FF0300001DFFFF
(1445275669.309413) can0 150#C003F7E0F8000000
(1445275669.309663) can0 3CA#C000005300000000
(1445275669.311039) can0 125#34D7D0C1E67EB7E5
(1445275669.313168) can0 008#8000800085EC8199
(1445275669.313446) can0 010#F831B02F80000000
(1445275669.313731) can0 2A9#840000C0DB00268C
(1445275669.318469) can0 1B0#EC00B0000000C000
(1445275669.318715) can0 072#388078003FFF00F0
(1445275669.319004) can0 1B5#EFFFE000000000FF
(1445275669.319368) can0 1D8#43E0303135303734
(1445275669.319369) can0 1E0#E017BD8081BB1000
(1445275669.319635) can0 2C3#505400FFFF012975
(1445275669.319942) can0 360#01A06EABD2012975
(1445275669.320172) can0 288#800000009F60DFCC
(1445275669.323174) can0 008#8000800075FC8199
(1445275669.323851) can0 055#809C00B227F4F7F3
(1445275669.324086) can0 065#01F98E01F7F3E354
(1445275669.324340) can0 070#005BF1FAF8434000
(1445275669.324647) can0 010#F831B02F80000000
(1445275669.324969) can0 075#585423098F99E900
(1445275669.325271) can0 080#802DF9F200804FE0
(1445275669.325272) can0 0B0#A352C1F9A2658352
(1445275669.325559) can0 145#211040FC85D0F2FD
(1445275669.325840) can0 1D0#61080A2BD2C5EC00
(1445275669.326141) can0 0E0#00628000E0017162
(1445275669.326465) can0 260#F0DC1749AA00FFD0
(1445275669.326466) can0 390#475C0E021405FFE4
(1445275669.328477) can0 0F5#00F2437F80008000
(1445275669.328719) can0 120#8955FA7F80008000
(1445275669.328994) can0 130#11FFF300001DFF87
(1445275669.329250) can0 150#C0F3F7E007FD0000
(1445275669.331000) can0 125#34D7D0C1E67EB7E5
(1445275669.333128) can0 008#80008000650C8199
(1445275669.333525) can0 010#F831B02F80000000
(1445275669.333772) can0 072#38A078003FFF00F0
(1445275669.334092) can0 210#45A809ADA080E03D
(1445275669.334363) can0 3D0#C3800338006109A2
(1445275669.338469) can0 1B0#EC00B0000000C000
(1445275669.338712) can0 1B5#EFFFE000000000FF
(1445275669.339001) can0 1D8#43E0303135303734
(1445275669.339289) can0 1E0#E017BD80C1AB1400
(1445275669.343174) can0 008#80008000551C8199
(1445275669.343468) can0 010#F831B02F80000000
(1445275669.343743) can0 1D0#61000A2BD2C5EC00
(1445275669.344080) can0 055#809C00B227F1F7F1
(1445275669.344352) can0 065#01F88E01F7F3E354
(1445275669.344702) can0 070#005BF1F8F8434000
(1445275669.344703) can0 075#585423098F99E900
(1445275669.344897) can0 080#802DF8F200804FDC
(1445275669.345148) can0 0B0#A352C1F8A2668352
(1445275669.345432) can0 145#211040FC85D0F2FD
(1445275669.345737) can0 288#800000009F60DFD5
(1445275669.346001) can0 0E0#00428000E8017162
(1445275669.346350) can0 28C#8DBE300000004000
(1445275669.346351) can0 2B5#3F22A9B3722AA84B
(1445275669.346646) can0 2C0#E5B0001400000000
(1445275669.346982) can0 2C5#7000E000001BB700
(1445275669.347227) can0 3AF#2000000000000000
(1445275669.347991) can0 072#388078003FFF00F0
(1445275669.348472) can0 0F5#00E2477F80008000
(1445275669.348744) can0 120#8955FA7F80008000
(1445275669.349023) can0 130#11FFE300001DFF8F
(1445275669.349309) can0 150#C0E3F7E018000000
(1445275669.351005) can0 125#34D7D0C1E67EB7E5
(1445275669.353169) can0 008#80008000452C8199
(1445275669.353644) can0 010#F931B02F80000000
(1445275669.353878) can0 2A9#840000C0C200268C
(1445275669.354148) can0 260#F0DC17495500FFD0
(1445275669.357807) can0 210#4DA809ADA080E03D
(1445275669.358454) can0 1B0#EC00B0000000C000
(1445275669.358628) can0 1B5#EFFFE000000000FF
(1445275669.358897) can0 1D8#43E0303135303734
(1445275669.359147) can0 1E0#E017BD80C19B1800
(1445275669.359432) can0 2C3#505400FFFF012975
(1445275669.363170) can0 008#80008000353C8199
(1445275669.363448) can0 010#F831B02F80000000
(1445275669.363717) can0 072#38A078003FFF00F0
(1445275669.364023) can0 055#809C00B227F1F7F0
(1445275669.364364) can0 065#01F88E01F7F1E353
(1445275669.364718) can0 070#005BF1F8F8444000
(1445275669.364718) can0 075#585423098F99E900
(1445275669.365002) can0 080#802DF8F200804FDC
(1445275669.365403) can0 0B0#A352C1F8A2668352
(1445275669.365405) can0 145#A10040FC85D0F2FD
(1445275669.365698) can0 1D0#61020A2BD2C5EC00
(1445275669.365991) can0 0E0#00228000F0017162
(1445275669.366251) can0 405#2000000000000000
(1445275669.368453) can0 0F5#00D24B7F80008000
(1445275669.368720) can0 120#8955F87F80008000
(1445275669.368994) can0 130#11FFD300001DFF97
(1445275669.369250) can0 150#C0D3F7E028000000
(1445275669.369968) can0 288#800000008F70DFD0
(1445275669.371001) can0 125#34D7D0C1E67EB7E5
(1445275669.373141) can0 008#80008000254C8199
(1445275669.373432) can0 010#F831B02F80000000
(1445275669.377878) can0 072#388078003FFF00F0
(1445275669.378459) can0 1B0#EC00B0000000C000
(1445275669.378619) can0 1B5#EFFFE000000000FF
(1445275669.378892) can0 1D8#43E0303135303734
(1445275669.379174) can0 1E0#E017BD80819B1800
(1445275669.383169) can0 008#80008000155C8199
(1445275669.383445) can0 010#F831B02F80000000
(1445275669.383743) can0 1D0#61000A2BD2C5EC00
(1445275669.384094) can0 210#45A809ADA080E03D
(1445275669.384095) can0 055#809C00B227F1F7F0
(1445275669.384365) can0 065#01F88E01F7F1E353
(1445275669.384682) can0 070#005BF1F8F8444000
(1445275669.384942) can0 075#585423098F99E900
(1445275669.385244) can0 080#802DF8F200804FDA
(1445275669.385245) can0 0B0#A352C1F8A2658352
(1445275669.385499) can0 145#211040FC85D0F2FD
(1445275669.385787) can0 260#F0DC17495500FFD0
(1445275669.386070) can0 0E0#00018000F8027162
(1445275669.386407) can0 28C#8DBE300000004000
(1445275669.386721) can0 2B5#3F22A9B3722AA84B
(1445275669.386722) can0 370#3CD3437600900004
(1445275669.387096) can0 350#80000000000000A2
(1445275669.388475) can0 0F5#00C24F7F80008000
(1445275669.388747) can0 120#8955FB7F80008000
(1445275669.389068) can0 130#11FFC300001DFF9F
(1445275669.389339) can0 150#C0C3F7E038000000
(1445275669.390995) can0 125#34D7D0C1E67EB7E5
(1445275669.393124) can0 008#80008000056C8199
(1445275669.393432) can0 010#F831B02F80000000
(1445275669.393687) can0 072#38A078003FFF00F0
(1445275669.393959) can0 2A9#840000C0DB00268C
(1445275669.395007) can0 288#800000008F70DFD0
(1445275669.398465) can0 1B0#EC00B0000000C000
(1445275669.398681) can0 1B5#EFFFE000000000FF
(1445275669.398956) can0 1D8#43E0303135303734
(1445275669.399264) can0 1E0#E017BD80C18B1C00
(1445275669.399495) can0 2C3#505400FFFF012975
(1445275669.403172) can0 008#80008000F57C8199
(1445275669.403444) can0 010#F831B02F80000000
(1445275669.403743) can0 1D0#61080A2BD2C5EC00
(1445275669.404072) can0 055#809C00B227EFF7EF
(1445275669.404073) can0 065#01F88E01F7F1E356
(1445275669.404337) can0 070#005BF1F7F8434000
(1445275669.404701) can0 075#585423098F99E900
(1445275669.404961) can0 080#802DF8F200804FDC
(1445275669.405299) can0 0B0#A352C1F8A2668352
(1445275669.405300) can0 145#211040FC85D0F2FD
(1445275669.405517) can0 2C0#E5B0001400000000
(1445275669.405765) can0 2C5#7000E000001BB700
(1445275669.406022) can0 0E0#00E28000C0017162
(1445275669.408092) can0 072#388078003FFF00F0
(1445275669.408305) can0 210#45A809AD2080E03D
(1445275669.408556) can0 0F5#00B2537F80008000
(1445275669.408803) can0 120#8955FA7F80008000
(1445275669.409049) can0 130#11FFB300001DFFA7
(1445275669.409267) can0 150#C0B3F7E048000000
(1445275669.409535) can0 3B0#00C6A8B938B9D800
(1445275669.411041) can0 125#34D7D0C1E67EB7E5
(1445275669.413140) can0 008#80008000E58C8199
(1445275669.413580) can0 010#F831B02F80000000
(1445275669.413934) can0 260#F0DC17495500FFD0
(1445275669.414970) can0 3C8#8E0024888E012975
(1445275669.418468) can0 1B0#EC00B0000000C000
(1445275669.418683) can0 1B5#EFFFE000000000FF
(1445275669.418933) can0 1D8#43E0303135303734
(1445275669.419223) can0 1E0#E017BD80C17B2000
(1445275669.419495) can0 360#01A06EABD1012975
(1445275669.420002) can0 288#800000008F70DFC4
(1445275669.423137) can0 008#80008000D59C8199
(1445275669.423821) can0 010#F831B02F80000000
(1445275669.424083) can0 055#809C00B227EDF7ED
(1445275669.424432) can0 065#01F58E00F7EEE352
(1445275669.424739) can0 070#005BF1F6F8454000
(1445275669.424740) can0 072#38A078003FFF00F0
(1445275669.425016) can0 075#585423098F99E900
(1445275669.425309) can0 080#802DF6F200804FD1
(1445275669.425601) can0 0B0#A352C1F6A2658352
(1445275669.425896) can0 145#A10040FC85D0F2FD
(1445275669.425898) can0 0E0#00C28000C8017162
(1445275669.426166) can0 1D0#61000A2BD2C5EC00
(1445275669.426413) can0 28C#8CBE300000004000
(1445275669.426664) can0 2B5#3F22A9B37230A84B
(1445275669.426915) can0 390#475E06021405FFE4
(1445275669.428476) can0 0F5#00A2577F80008000
(1445275669.428748) can0 120#8955F97F80008000
(1445275669.428998) can0 130#11FFA300001DFFAF
(1445275669.429284) can0 150#C0A3F7E057FD0000
(1445275669.429496) can0 3CA#C000005400000000
(1445275669.431003) can0 125#34D7D0C1E67EB7E5
(1445275669.433100) can0 008#80008000C5AC8199
(1445275669.433431) can0 010#F931B02F80000000
(1445275669.433715) can0 210#4DA809ADA080E03D
(1445275669.433968) can0 2A9#840000C0C200268C
(1445275669.437903) can0 072#388078003FFF00F0
(1445275669.438460) can0 1B0#EC00B0000000C000
(1445275669.438619) can0 1B5#EFFFE000000000FF
(1445275669.438887) can0 1D8#43E0303135303734
(1445275669.439174) can0 1E0#E017BD80817B2000
(1445275669.439444) can0 2C3#505400FFFF012975
(1445275669.443135) can0 008#80008000B5BC8199
(1445275669.443432) can0 010#F831B02F80000000
(1445275669.443715) can0 1D0#61020A2BD2C5EC00
(1445275669.444023) can0 055#809C00B227EFF7EF
(1445275669.444431) can0 065#01F78E00F7EFE352
(1445275669.444432) can0 070#005BF1F7F8464000
(1445275669.444716) can0 075#585423098F99E900
(1445275669.445001) can0 080#802DF7F200804FD8
(1445275669.445002) can0 0B0#A352C1F7A2658352
(1445275669.445328) can0 145#211040FC85D0F2FD
(1445275669.445623) can0 260#F0DC1749AA00FFD0
(1445275669.445970) can0 288#800000008F70DFCC
(1445275669.445971) can0 0E0#00A28000D0017162
(1445275669.448476) can0 0F5#00925B7F80008000
(1445275669.448744) can0 120#8955F97F80008000
(1445275669.449071) can0 130#11FF9300001DFFB7
(1445275669.449337) can0 150#C093F7E068020000
(1445275669.450971) can0 125#34D7D0C1E67EB7E5
(1445275669.453097) can0 008#80008000A5CC8199
(1445275669.453432) can0 010#F831B02F80000000
(1445275669.453714) can0 072#38A078003FFF00F0
(1445275669.453988) can0 400#0702010507030101
(1445275669.457875) can0 210#45A809ADA080E03D
(1445275669.458459) can0 1B0#EC00B0000000C000
(1445275669.458671) can0 1B5#EFFFE000000000FF
(1445275669.458921) can0 1D8#43E0303135303734
(1445275669.459115) can0 1E0#E017BD80C16B2400
(1445275669.463146) can0 010#F831B02F80000000
(1445275669.463432) can0 008#8000800095DC8199
(1445275669.463718) can0 1D0#61000A2BD2C5EC00
(1445275669.464019) can0 055#809C00B227F0F7F0
(1445275669.464342) can0 065#01F78DFFF7EFE353
(1445275669.464343) can0 070#005BF1F7F8454000
(1445275669.464684) can0 075#585423098F99E900
(1445275669.464984) can0 080#802DF7F200804FD6
(1445275669.465338) can0 0B0#A352C1F7A2648352
(1445275669.465340) can0 145#211040FC85D0F2FD
(1445275669.465625) can0 28C#8CBE300000004000
(1445275669.465971) can0 2B5#3A22A9B37230A84B
(1445275669.465972) can0 0E0#00828000D8017162
(1445275669.466254) can0 2C0#E5B0001400000000
(1445275669.466584) can0 2C5#7000E000001BB700
(1445275669.466854) can0 3AF#2000000000000000
(1445275669.467993) can0 072#388078003FFF00F0
(1445275669.468413) can0 0F5#00825F7F80008000
(1445275669.468700) can0 120#8955F97F80008000
(1445275669.468972) can0 130#11FF8300001DFFBF
(1445275669.469243) can0 150#C083F7E078000000
(1445275669.469994) can0 288#800000007F80DFD5
(1445275669.471011) can0 125#34D7D0C1E67EB7E5
(1445275669.473142) can0 008#8000800085EC8199
(1445275669.473433) can0 010#F831B02F80000000
(1445275669.473687) can0 2A9#840000C0CA00268C
(1445275669.474008) can0 260#F0DC1749AA00FFD0
(1445275669.477140) can0 350#80000000000000A2
(1445275669.478464) can0 1B0#EC00B0000000C000
(1445275669.478758) can0 1B5#EFFFE000000000FF
(1445275669.479025) can0 1D8#43E0303135303734
(1445275669.479372) can0 1E0#E017BD80C15B2800
(1445275669.479373) can0 2C3#505400FFFF012975
(1445275669.483144) can0 008#8000800075FC8199
(1445275669.483432) can0 010#F831B02F80000000
(1445275669.483714) can0 072#38A078003FFF00F0
(1445275669.484013) can0 055#809C00B227EFF7EE
(1445275669.484364) can0 065#01F68DFFF7EFE353
(1445275669.484365) can0 070#005BF1F6F8454000
(1445275669.484681) can0 075#585423098F99E900
(1445275669.484942) can0 080#802DF6F200804FD3
(1445275669.485317) can0 0B0#A352C1F6A2648352
(1445275669.485318) can0 145#A10040FC85D0F2FD
(1445275669.485623) can0 1D0#61080A2BD2C5EC00
(1445275669.485973) can0 210#4DA809ADA080E03D
(1445275669.485974) can0 0E0#00628000E0017162
(1445275669.486244) can0 370#3CD3437600900004
(1445275669.488450) can0 0F5#0072637F80008000
(1445275669.488737) can0 120#8955FA7F80008000
(1445275669.489055) can0 130#11FF7300001DFFC7
(1445275669.489303) can0 150#C073F7E088020000
(1445275669.491013) can0 125#34D7D0C1E67EB7E5
(1445275669.493111) can0 008#80008000650C8199
(1445275669.493431) can0 010#F831B02F80000000
(1445275669.495061) can0 288#800000007F80DFCC
(1445275669.497910) can0 072#388078003FFF00F0
(1445275669.498448) can0 1B0#EC00B0000000C000
(1445275669.498697) can0 1B5#EFFFE000000000FF
(1445275669.499004) can0 1D8#43E0303135303734
(1445275669.499239) can0 1E0#E017BD80815B2800
(1445275669.503146) can0 008#80008000551C8199
(1445275669.503433) can0 010#F831B02F80000000
(1445275669.503715) can0 1D0#61000A2BD2C5EC00
(1445275669.504016) can0 055#809C00B227EEF7EE
(1445275669.504339) can0 065#01F68E00F7EFE352
(1445275669.504340) can0 070#005BF1F6F8464000
(1445275669.504647) can0 075#585423098F99E900
(1445275669.504986) can0 080#802DF6F200804FD5
(1445275669.505297) can0 0B0#A352C1F6A2658352
(1445275669.505298) can0 145#211040FC85D0F2FD
(1445275669.505482) can0 260#F0DC1749AA00FFD0
(1445275669.505762) can0 28C#8CBE300000004000
(1445275669.506052) can0 0E0#00428000E8017162
(1445275669.506294) can0 2B5#3A22A9B37230A84B
(1445275669.508036) can0 210#4DA809ADA080E03D
(1445275669.508459) can0 0F5#0062677F80008000
(1445275669.508743) can0 120#8955FA7F80008000
(1445275669.509083) can0 130#11FF6300001DFFCF
(1445275669.509292) can0 150#C063F7E097FF0000
(1445275669.510948) can0 125#34D7D0C1E67EB7E5
(1445275669.513165) can0 008#80008000452C8199
(1445275669.513773) can0 010#F931B02F80000000
(1445275669.514020) can0 072#38A078003FFF00F0
(1445275669.514271) can0 2A9#840000C0D300268C
(1445275669.518468) can0 1B0#EC00B0000000C000
(1445275669.518760) can0 1B5#EFFFE000000000FF
(1445275669.519024) can0 1D8#43E0303135303734
(1445275669.519353) can0 1E0#E017BD80C14B2C00
(1445275669.519354) can0 2C3#505400FFFF012975
(1445275669.519634) can0 360#01A06EABD1012975
(1445275669.520050) can0 288#800000007F80DFC4
(1445275669.523116) can0 008#80008000353C8199
(1445275669.523848) can0 055#809C00B227F1F7F0
(1445275669.524082) can0 065#01F88E00F7F0E352
(1445275669.524337) can0 010#F831B02F80000000
(1445275669.524674) can0 070#005BF1F8F8444000
(1445275669.524914) can0 075#585423098F99E900
(1445275669.525186) can0 080#802DF8F200804FDA
(1445275669.525520) can0 0B0#A352C1F8A2658352
(1445275669.525521) can0 145#211040FC85D0F2FD
(1445275669.525806) can0 0E0#00218000F0027162
(1445275669.526107) can0 1D0#61020A2BD2C5EC00
(1445275669.526431) can0 2C0#E5B0001400000000
(1445275669.526762) can0 2C5#7000E000001BB700
(1445275669.526763) can0 390#475E06021405FFE4
(1445275669.528126) can0 072#388078003FFF00F0
(1445275669.528431) can0 3B0#00C4A8B938B9D800
(1445275669.528625) can0 0F5#00526B7F80008000
(1445275669.528896) can0 120#8955FA7F80008000
(1445275669.529203) can0 130#11FF5300001DFFD7
(1445275669.529474) can0 150#C053F7E0A7FD0000
(1445275669.530943) can0 125#34D7D0C1E67EB7E5
(1445275669.533111) can0 008#80008000254C8199
(1445275669.533433) can0 010#F831B02F80000000
(1445275669.533714) can0 210#45A809ADA080E03D
(1445275669.534022) can0 3D0#C3800338006109A2
(1445275669.534023) can0 260#F0DC1749AA00FFD0
(1445275669.535003) can0 3C8#8E0024888E012975
(1445275669.538213) can0 430#C6300000002A082A
(1445275669.538497) can0 1B0#EC00B0000000C000
(1445275669.538798) can0 1B5#EFFFE000000000FF
(1445275669.539074) can0 1D8#43E0303135303734
(1445275669.539276) can0 1E0#E017BD80C13B3000
(1445275669.543076) can0 008#80008000155C8199
(1445275669.543340) can0 010#F831B02F80000000
(1445275669.543609) can0 072#38A078003FFF00F0
(1445275669.543880) can0 1D0#61000A2BD2C5EC00
(1445275669.544154) can0 055#809C00B227F0F7F0
(1445275669.544418) can0 065#01F88E00F7F1E353
(1445275669.544691) can0 070#005BF1F7F8434000
(1445275669.544990) can0 075#585423098F99E900
(1445275669.544991) can0 080#802DF8F200804FDC
(1445275669.545213) can0 0B0#A352C1F8A2668352
(1445275669.545449) can0 145#A10040FC85D0F2FD
(1445275669.545670) can0 288#800000007F80DFC8
(1445275669.545943) can0 0E0#00028000F8017162
(1445275669.546189) can0 28C#8CBE300000004000
(1445275669.546422) can0 2B5#3C22A9B3722AA84B
(1445275669.548410) can0 0F5#00426F7F80008000
(1445275669.548689) can0 120#8955F97F80008000
(1445275669.548960) can0 130#11FF4300001DFFDF
(1445275669.549252) can0 150#C043F7E0B7FF0000
(1445275669.549495) can0 3CA#C000005500000000
(1445275669.550939) can0 125#34D7D0C1E67EB7E5
(1445275669.553076) can0 008#80008000056C8199
(1445275669.553416) can0 010#F831B02F80000000
(1445275669.553681) can0 2A9#840000C0CA00268C
(1445275669.557840) can0 072#388078003FFF00F0
(1445275669.558125) can0 210#4DA809AD2080E040
(1445275669.558415) can0 1B0#EC00B0000000C000
(1445275669.558691) can0 1B5#EFFFE000000000FF
(1445275669.558981) can0 1D8#43E0303135303734
(1445275669.559295) can0 1E0#E017BD80813B3000
(1445275669.559295) can0 2C3#505400FFFF012975
(1445275669.563070) can0 008#80008000F57C8199
(1445275669.563410) can0 010#F831B02F80000000
(1445275669.563700) can0 1D0#61080A2BD2C5EC00
(1445275669.563989) can0 055#809C00B227F0F7F0
(1445275669.564298) can0 065#01F78E00F7F0E353
(1445275669.564299) can0 070#005BF1F7F8434000
(1445275669.564660) can0 075#585423098F99E900
(1445275669.564902) can0 080#802DF7F200804FD8
(1445275669.565200) can0 0B0#A352C1F7A2668352
(1445275669.565202) can0 145#211040FC85D0F2FD
(1445275669.565437) can0 260#F0DC17495500FFD0
(1445275669.565717) can0 0E0#00E28000C0017162
(1445275669.567036) can0 350#80000000000000A2
(1445275669.568412) can0 0F5#0032737F80008000
(1445275669.568711) can0 120#8955FA7F80008000
(1445275669.568961) can0 130#11FF3300001DFFE7
(1445275669.569208) can0 150#C033F7E0C7FF0000
(1445275669.570054) can0 288#800000006F90DFCC
(1445275669.570945) can0 125#34D7D0C1E67EB7E5
(1445275669.573110) can0 008#80008000E58C8199
(1445275669.573432) can0 010#F831B02F80000000
(1445275669.573687) can0 072#38A078003FFF00F0
(1445275669.578467) can0 1B0#EC00B0000000C000
(1445275669.578714) can0 1B5#EFFFE000000000FF
(1445275669.579002) can0 1D8#43E0303135303734
(1445275669.579271) can0 1E0#E017BD80C12B3400
(1445275669.583117) can0 008#80008000D59C8199
(1445275669.583431) can0 010#F831B02F80000000
(1445275669.583716) can0 1D0#61000A2BD2C5EC00
(1445275669.584020) can0 055#809C00B227F1F7F1
(1445275669.584431) can0 065#01F88E00F7F1E351
(1445275669.584432) can0 070#005BF1F8F8444000
(1445275669.584726) can0 075#585423098F99E900
(1445275669.585001) can0 080#802DF7F200804FD8
(1445275669.585002) can0 0B0#A352C1F7A2668352
(1445275669.585244) can0 145#211040FC85D0F2FD
(1445275669.585495) can0 210#45A809ADA080E040
(1445275669.585747) can0 0E0#00C28000C8017162
(1445275669.586069) can0 28C#8CBE300000004000
(1445275669.586411) can0 2B5#3C22A9B3722AA84B
(1445275669.586738) can0 2C0#E5B0001400000000
(1445275669.586739) can0 2C5#7000E000001BB700
(1445275669.586942) can0 370#3CD3437600900004
(1445275669.587212) can0 3AF#2000000000000000
(1445275669.587473) can0 3E0#8C80984718000000
(1445275669.587912) can0 072#388078003FFF00F0
(1445275669.588454) can0 0F5#0022777F80008000
(1445275669.588726) can0 120#8955FA7F80008000
(1445275669.589035) can0 130#11FF2300001DFFEF
(1445275669.589287) can0 150#C023F7E0D7FF0000
(1445275669.590942) can0 125#34D7D0C1E67EB7E5
(1445275669.593114) can0 008#80008000C5AC8199
(1445275669.593431) can0 010#F931B02F80000000
(1445275669.593645) can0 2A9#840000C0C200268C
(1445275669.594020) can0 260#F0DC16495500FFD0
(1445275669.595088) can0 288#800000006F90DFD0
(1445275669.598454) can0 1B0#EC00B0000000C000
(1445275669.598643) can0 1B5#EFFFE000000000FF
(1445275669.598896) can0 1D8#43E0303135303734
(1445275669.599146) can0 1E0#E017BD80C11B3800
(1445275669.599431) can0 2C3#505400FFFF012975
(1445275669.603119) can0 008#80008000B5BC8199
(1445275669.603335) can0 010#F831B02F80000000
(1445275669.603682) can0 072#38A078003FFF00F0
(1445275669.603939) can0 1D0#61020A2BD2C5EC00
(1445275669.604233) can0 055#809C00B227F2F7F1
(1445275669.604590) can0 065#01F88E00F7F2E352
(1445275669.604592) can0 070#005BF1F8F8434000
(1445275669.604847) can0 075#585423098F99E900
(1445275669.605147) can0 080#802DF8F200804FDD
(1445275669.605468) can0 0B0#A352C1F8A2668352
(1445275669.605469) can0 145#A10040FC85D0F2FD
(1445275669.605741) can0 0E0#00A18000D0027162
(1445275669.608412) can0 0F5#00127B7F80008000
(1445275669.608699) can0 120#8955FB7F80008000
(1445275669.608998) can0 130#11FF1300001DFFF7
(1445275669.609342) can0 150#C013F7E0E8000000
(1445275669.609635) can0 210#45A809ADA080E040
(1445275669.610914) can0 125#34D7D0C1E67EB7E5
(1445275669.613087) can0 008#80008000A5CC8199
(1445275669.614536) can0 010#F831B02F80000000
(1445275669.614775) can0 405#2100000000000000
(1445275669.618467) can0 1B0#EC00B0000000C000
(1445275669.618713) can0 1B5#EFFFE000000000FF
(1445275669.618997) can0 1D8#43E0303135303734
(1445275669.619304) can0 1E0#E017BD80811B3800
(1445275669.619305) can0 072#388078003FFF00F0
(1445275669.619634) can0 360#01A06EABD1012975
(1445275669.620068) can0 288#800000006F90DFC8
(1445275669.623092) can0 008#8000800095DC8199
(1445275669.623903) can0 055#809C00B227F1F7F1
(1445275669.624140) can0 065#01F88E00F7F2E352
(1445275669.624458) can0 070#005BF1F8F8434000
(1445275669.624727) can0 075#585423098F99E900
(1445275669.625002) can0 010#F831B02F80000000
(1445275669.625307) can0 080#802DF8F200804FDB
(1445275669.625309) can0 0B0#A352C1F8A2668352
(1445275669.625644) can0 145#211040FC85D0F2FD
(1445275669.625930) can0 0E0#00828000D8017162
(1445275669.626236) can0 1D0#61000A2BD2C5EC00
(1445275669.626237) can0 260#F0DC17495500FFD0
(1445275669.626519) can0 28C#8DBE300000004000
(1445275669.626749) can0 2B5#3C22A9B3722AA84B
(1445275669.627038) can0 390#67503E021405FFE4
(1445275669.628447) can0 0F5#00027F7F80008000
(1445275669.628745) can0 120#8955FA7F80008000
(1445275669.629066) can0 130#11FF0300001DFFFF
(1445275669.629338) can0 150#C003F7E0F7FB0000
(1445275669.630876) can0 125#34D7D0C1E67EB7E5
(1445275669.633110) can0 008#8000800085EC8199
(1445275669.633766) can0 010#F831B02F80000000
(1445275669.634012) can0 072#38A078003FFF00F0
(1445275669.634308) can0 210#4DA809ADA080E040
(1445275669.634515) can0 2A9#840000C0DB00268C
(1445275669.638466) can0 1B0#EC00B0000000C000
(1445275669.638701) can0 1B5#EFFFE000000000FF
(1445275669.638991) can0 1D8#43E0303135303734
(1445275669.639271) can0 1E0#E017BD80C10B3C00
(1445275669.639519) can0 2C3#505400FFFF012975
(1445275669.643089) can0 008#8000800075FC8199
(1445275669.643495) can0 010#F831B02F80000000
(1445275669.643766) can0 1D0#61080A2BD2C5EC00
(1445275669.644078) can0 055#809C00B227F1F7F1
(1445275669.644337) can0 065#01F88E00F7F1E350
(1445275669.644661) can0 070#005BF1F8F8434000
(1445275669.644662) can0 075#585423098F99E900
(1445275669.644948) can0 080#802DF8F200804FDA
(1445275669.645182) can0 0B0#A352C1F8A2658352
(1445275669.645443) can0 145#211040FC85D0F2FD
(1445275669.645742) can0 288#800000006F90DFCC
(1445275669.646059) can0 0E0#00628000E0017162
(1445275669.646345) can0 2C0#E5B0001400000000
(1445275669.646346) can0 2C5#7000E000001BB700
(1445275669.647926) can0 072#388078003FFF00F0
(1445275669.648231) can0 3B0#00C4A8B93CB9D800
(1445275669.648466) can0 0F5#00F2437F80008000
(1445275669.648742) can0 120#8955FA7F80008000
(1445275669.649019) can0 130#11FFF300001DFF87
(1445275669.649246) can0 150#C0F3F7E008030000
(1445275669.650913) can0 125#34D7D0C1E67EB7E5
(1445275669.653089) can0 008#80008000650C8199
(1445275669.653570) can0 010#F831B02F80000000
(1445275669.654042) can0 260#F0DC1749AA00FFD0
(1445275669.655086) can0 3C8#8E0024888E012975
(1445275669.657112) can0 350#80000000000000A2
(1445275669.657755) can0 210#45A809ADA080E040
(1445275669.658457) can0 1B0#EC00B0000000C000
(1445275669.658673) can0 1B5#EFFFE000000000FF
(1445275669.658930) can0 1D8#43E0303135303734
(1445275669.659150) can0 1E0#E017BD80C1FB0000
(1445275669.663092) can0 008#80008000551C8199
(1445275669.663428) can0 010#F831B02F80000000
(1445275669.663641) can0 072#38A078003FFF00F0
(1445275669.663893) can0 055#809C00B227F2F7F2
(1445275669.664212) can0 065#01F98E00F7F2E350
(1445275669.664520) can0 070#005BF1F9F8444000
(1445275669.664845) can0 075#585423098F99E900
(1445275669.664846) can0 080#802DF9F200804FDE
(1445275669.665175) can0 0B0#A352C1F9A2658352
(1445275669.665427) can0 145#A10040FC85D0F2FD
(1445275669.665745) can0 1D0#61000A2BD2C5EC00
(1445275669.665746) can0 0E0#00418000E8027162
(1445275669.666010) can0 28C#8DBE300000004000
(1445275669.666250) can0 2B5#3D22A9B3722AA84B
(1445275669.668451) can0 0F5#00E2477F80008000
(1445275669.668741) can0 120#8955FA7F80008000
(1445275669.669056) can0 130#11FFE300001DFF8F
(1445275669.669338) can0 150#C0E3F7E017FF0000
(1445275669.669633) can0 3CA#C000005600000000
(1445275669.670048) can0 288#800000005FA0DFD5
(1445275669.670875) can0 125#34D7D0C1E67EB7E5
(1445275669.673091) can0 008#80008000452C8199
(1445275669.673518) can0 010#F931B02F80000000
(1445275669.673770) can0 2A9#840000C0C200268C
(1445275669.678195) can0 072#388078003FFF00F0
(1445275669.678435) can0 1B0#EC00B0000000C000
(1445275669.678760) can0 1B5#EFFFE000000000FF
(1445275669.679054) can0 1D8#43E0303135303734
(1445275669.679355) can0 1E0#E017BD8081FB0000
(1445275669.679356) can0 2C3#505400FFFF012975
(1445275669.683090) can0 008#80008000353C8199
(1445275669.683337) can0 010#F831B02F80000000
(1445275669.683649) can0 1D0#61020A2BD2C5EC00
(1445275669.683960) can0 210#4DA809ADA080E040
(1445275669.684243) can0 055#809C00B227F2F7F1
(1445275669.684244) can0 065#01F98E00F7F3E352
(1445275669.684519) can0 070#005BF1F8F8434000
(1445275669.684747) can0 075#585423098F99E900
(1445275669.685090) can0 080#802DF9F200804FE0
(1445275669.685431) can0 0B0#A352C1F9A2668352
(1445275669.685432) can0 145#211040FC85D0F2FD
(1445275669.685707) can0 0E0#00228000F0017162
(1445275669.685887) can0 260#F0DC1649AA00FFD0
(1445275669.686144) can0 370#3CD3437600900004
(1445275669.688477) can0 0F5#00D24B7F80008000
(1445275669.688768) can0 120#8955FC7F80008000
(1445275669.689055) can0 130#11FFD300001DFF97
(1445275669.689305) can0 150#C0D3F7E028020000
(1445275669.690895) can0 125#34D7D0C1E67EB7E5
(1445275669.693089) can0 008#80008000254C8199
(1445275669.693353) can0 010#F831B02F80000000
(1445275669.693652) can0 072#38A078003FFF00F0
(1445275669.695114) can0 288#800000005FA0DFC8
(1445275669.698418) can0 1B0#EC00B0000000C000
(1445275669.698643) can0 1B5#EFFFE000000000FF
(1445275669.698895) can0 1D8#43E0303135303734
(1445275669.699143) can0 1E0#E017BD80C1EB0400
(1445275669.703091) can0 008#80008000155C8199
(1445275669.703308) can0 581#8100FFFFFFFFFFFF
(1445275669.703682) can0 010#F831B02F80000000
(1445275669.703942) can0 1D0#61000A2BD2C5EC00
(1445275669.704258) can0 055#809C00B227F2F7F1
(1445275669.704259) can0 065#01F88E00F7F2E352
(1445275669.704519) can0 070#005BF1F8F8434000
(1445275669.704770) can0 075#585423098F99E900
(1445275669.705089) can0 080#802DF8F200804FDB
(1445275669.705429) can0 0B0#A352C1F8A2658352
(1445275669.705430) can0 145#211040FC85D0F2FD
(1445275669.705712) can0 0E0#00028000F8017162
(1445275669.705988) can0 28C#8DBE300000004000
(1445275669.706283) can0 2B5#3D22A9B3722AA84B
(1445275669.706534) can0 2C0#E5B0001400000000
(1445275669.706849) can0 2C5#7000E000001BB700
(1445275669.706849) can0 3AF#2000000000000000
(1445275669.707125) can0 400#0801590101010101
(1445275669.708202) can0 072#388078003FFF00F0
(1445275669.708497) can0 0F5#00C24F7F80008000
(1445275669.708826) can0 120#8955F97F80008000
(1445275669.709121) can0 130#11FFC300001DFF9F
(1445275669.709122) can0 150#C0C3F7E037FF0000
(1445275669.709411) can0 210#4DA809AD2080E040
(1445275669.710908) can0 125#34D7D0C1E67EB7E5
(1445275669.713036) can0 008#80008000056C8199
(1445275669.713821) can0 010#F831B02F80000000
(1445275669.714081) can0 260#F0DC1749AA00FFD0
(1445275669.714354) can0 2A9#840000C0DB00268C
(1445275669.718466) can0 1B0#EC00B0000000C000
(1445275669.718713) can0 1B5#EFFFE000000000FF
(1445275669.719001) can0 1D8#43E0303135303734
(1445275669.719267) can0 1E0#E017BD80C1DB0800
(1445275669.719601) can0 2C3#505400FFFF012975
(1445275669.719602) can0 360#01A06EABD1012975
(1445275669.720106) can0 288#800000005FA0DFD0
(1445275669.723091) can0 008#80008000F57C8199
(1445275669.723815) can0 055#809C00B227F2F7F2
(1445275669.724097) can0 010#F831B02F80000000
(1445275669.724430) can0 065#01F98E00F7F2E351
(1445275669.724714) can0 070#005BF1F9F8444000
(1445275669.725056) can0 072#38A078003FFF00F0
(1445275669.725058) can0 075#585423098F99E900
(1445275669.725318) can0 080#802DF8F200804FDD
(1445275669.725641) can0 0B0#A352C1F8A2668352
(1445275669.725974) can0 0E0#00E28000C0017162
(1445275669.725975) can0 145#A10040FC85D0F2FD
(1445275669.726246) can0 1D0#61080A2BD2C5EC00
(1445275669.726496) can0 390#47503E021405FFE4
(1445275669.728419) can0 0F5#00B2537F80008000
(1445275669.728717) can0 120#8955FA7F80008000
(1445275669.729038) can0 130#11FFB300001DFFA7
(1445275669.729286) can0 150#C0B3F7E047FF0000
(1445275669.730874) can0 125#34D7D0C1E67EB7E5
(1445275669.733034) can0 008#80008000E58C8199
(1445275669.733306) can0 010#F831B02F80000000
(1445275669.733557) can0 210#45A809ADA080E040
(1445275669.733806) can0 3D0#C3800338006109A2
(1445275669.737936) can0 072#388078003FFF00F0
(1445275669.738363) can0 1B0#EC00B0000000C000
(1445275669.738635) can0 1B5#EFFFE000000000FF
(1445275669.738945) can0 1D8#43E0303135303734
(1445275669.739136) can0 1E0#E017BD8081DB0800
(1445275669.743064) can0 008#80008000D59C8199
(1445275669.743310) can0 010#F831B02F80000000
(1445275669.743634) can0 1D0#61000A2BD2C5EC00
(1445275669.743936) can0 055#809C00B227F3F7F3
(1445275669.744227) can0 065#01F98E00F7F3E354
(1445275669.744556) can0 070#005BF1F9F8434000
(1445275669.744558) can0 075#585423098F99E900
(1445275669.744804) can0 080#802DF9F200804FE0
(1445275669.745021) can0 0B0#A352C1F9A2668352
(1445275669.745270) can0 145#211040FC85D0F2FD
(1445275669.745595) can0 260#F0DC17495500FFD0
(1445275669.745895) can0 0E0#00C18000C8027162
(1445275669.746243) can0 288#800000005FA0DFD0
(1445275669.746244) can0 28C#8DBE300000004000
(1445275669.746519) can0 2B5#3D22A9B3722AA84B
(1445275669.747105) can0 350#80000000000000A2
(1445275669.748487) can0 0F5#00A2577F80008000
(1445275669.748698) can0 120#8955F97F80008000
(1445275669.748981) can0 130#11FFA300001DFFAF
(1445275669.749220) can0 150#C0A3F7E057FF0000
(1445275669.750906) can0 125#34D7D0C1E67EB7E5
(1445275669.753059) can0 008#80008000C5AC8199
(1445275669.753309) can0 010#F931B02F80000000
(1445275669.753700) can0 072#38A078003FFF00F0
(1445275669.753911) can0 2A9#840000C0C200268C
(1445275669.757773) can0 210#4DA809ADA080E040
(1445275669.758367) can0 1B0#EC00B0000000C000
(1445275669.758647) can0 1B5#EFFFE000000000FF
(1445275669.758966) can0 1D8#43E0303135303734
(1445275669.759268) can0 1E0#E017BD80C1CB0C00
(1445275669.759518) can0 2C3#505400FFFF012975
(1445275669.763065) can0 008#80008000B5BC8199
(1445275669.763310) can0 010#F831B02F80000000
(1445275669.763633) can0 1D0#61020A2BD2C5EC00
(1445275669.763942) can0 055#809C00B227F0F7F0
(1445275669.764204) can0 065#01F78E00F7F1E354
(1445275669.764559) can0 070#005BF1F7F8444000
(1445275669.764560) can0 075#585423098F99E900
(1445275669.764818) can0 080#802DF8F200804FDA
(1445275669.765120) can0 0B0#A352C1F8A2668352
(1445275669.765428) can0 145#211040FC85D0F2FD
(1445275669.765736) can0 2C0#E5B0001400000000
(1445275669.765737) can0 0E0#00A28000D0017162
(1445275669.765978) can0 2C5#7000E000001BB700
(1445275669.767841) can0 072#388078003FFF00F0
(1445275669.768128) can0 3B0#02C4A8B938B9D800
(1445275669.768428) can0 0F5#00925B7F80008000
(1445275669.768715) can0 120#8955FA7F80008000
(1445275669.768998) can0 130#11FF9300001DFFB7
(1445275669.769287) can0 150#C093F7E067FF0000
(1445275669.770124) can0 288#800000004FB0DFCC
(1445275669.770930) can0 125#34D7D0C1E67EB7E5
(1445275669.773059) can0 008#80008000A5CC8199
(1445275669.773307) can0 010#F831B02F80000000
(1445275669.774064) can0 260#F0DC17495500FFD0
(1445275669.775137) can0 3C8#8E0024888E012975
(1445275669.778465) can0 1B0#EC00B0000000C000
(1445275669.778713) can0 1B5#EFFFE000000000FF
(1445275669.779001) can0 1D8#43E0303135303734
(1445275669.779269) can0 1E0#E017BD80C1BB1000
(1445275669.783061) can0 008#8000800095DC8199
(1445275669.783310) can0 010#F831B02F80000000
(1445275669.783669) can0 072#38A078003FFF00F0
(1445275669.783909) can0 1D0#61000A2BD2C5EC00
(1445275669.784230) can0 055#809C00B227F1F7F0
(1445275669.784231) can0 065#01F88E01F7F1E354
(1445275669.784519) can0 070#005BF1F8F8434000
(1445275669.784841) can0 075#585423098F99E900
(1445275669.785145) can0 080#802DF7F200804FD8
(1445275669.785146) can0 0B0#A352C1F7A2658352
(1445275669.785429) can0 145#A10040FC85D0F2FD
(1445275669.785645) can0 0E0#00828000D8017162
(1445275669.785893) can0 210#45A809ADA080E040
(1445275669.786123) can0 28C#8DBE300000004000
(1445275669.786447) can0 2B5#3D22A9B3722AA84B
(1445275669.786720) can0 370#3CD3437600900004
(1445275669.788420) can0 0F5#00825F7F80008000
(1445275669.788737) can0 120#8955F97F80008000
(1445275669.789019) can0 130#11FF8300001DFFBF
(1445275669.789342) can0 150#C083F7E077FF0000
(1445275669.789610) can0 3CA#C000004000000000
(1445275669.790843) can0 125#34D7D0C1E67EB7E5
(1445275669.792996) can0 008#8000800085EC8199
(1445275669.793445) can0 010#F831B02F80000000
(1445275669.793651) can0 2A9#840000C0DB00268C
(1445275669.795163) can0 288#800000004FB0DFCC
(1445275669.797908) can0 072#388078003FFF00F0
(1445275669.798421) can0 1B0#EC00B0000000C000
(1445275669.798712) can0 1B5#EFFFE000000000FF
(1445275669.799005) can0 1D8#43E0303135303734
(1445275669.799354) can0 1E0#E017BD8081BB1000
(1445275669.799355) can0 2C3#505400FFFF012975
(1445275669.803029) can0 008#8000800075FC8199
(1445275669.803345) can0 010#F831B02F80000000
(1445275669.803633) can0 1D0#61080A2BD2C5EC00
(1445275669.803901) can0 055#809C00B227F0F7F0
(1445275669.804166) can0 065#01F78E01F7F0E354
(1445275669.804455) can0 070#005BF1F7F8434000
(1445275669.804750) can0 075#585423098F99E900
(1445275669.804751) can0 080#802DF7F200804FD8
(1445275669.804996) can0 0B0#A352C1F7A2668352
(1445275669.805249) can0 145#211040FC85D0F2FD
(1445275669.805534) can0 260#F0DC17495500FFD0
(1445275669.805786) can0 0E0#00628000E0017162
(1445275669.807907) can0 210#45A809ADA080E040
(1445275669.808449) can0 0F5#0072637F80008000
(1445275669.808716) can0 120#8955F97F80008000
(1445275669.808998) can0 130#11FF7300001DFFC7
(1445275669.809248) can0 150#C073F7E087FF0000
(1445275669.810836) can0 125#34D7D0C1E67EB7E5
(1445275669.813060) can0 008#80008000650C8199
(1445275669.813610) can0 010#F831B02F80000000
(1445275669.813854) can0 072#38A078003FFF00F0
(1445275669.818271) can0 360#01A06EABD1012975
(1445275669.818518) can0 1B0#EC00B0000000C000
(1445275669.818763) can0 1B5#EFFFE000000000FF
(1445275669.819019) can0 1D8#43E0303135303734
(1445275669.819304) can0 1E0#E017BD80C1AB1400
(1445275669.820185) can0 288#800000004FB0DFD0
(1445275669.823026) can0 008#80008000551C8199
(1445275669.823846) can0 055#809C00B227EFF7EF
(1445275669.824081) can0 010#F831B02F80000000
(1445275669.824331) can0 065#01F78E00F7F0E355
(1445275669.824644) can0 070#005BF1F7F8434000
(1445275669.824982) can0 075#585423098F99E900
(1445275669.825276) can0 080#802DF7F200804FD9
(1445275669.825277) can0 0B0#A352C1F7A2668352
(1445275669.825556) can0 145#211040FC85D0F2FD
(1445275669.825821) can0 0E0#00428000E8017162
(1445275669.826112) can0 1D0#61000A2BD2C5EC00
(1445275669.826448) can0 28C#8EBE300000004000
(1445275669.826449) can0 2B5#3D22A9B3722AA84B
(1445275669.826754) can0 2C0#E5B0001400000000
(1445275669.827073) can0 2C5#7000E000001BB700
(1445275669.827410) can0 390#475236021405FFE4
(1445275669.827411) can0 3AF#2000000000000000
(1445275669.828320) can0 072#388078003FFF00F0
(1445275669.828660) can0 0F5#0062677F80008000
(1445275669.828937) can0 120#8955FB7F80008000
(1445275669.829286) can0 130#11FF6300001DFFCF
(1445275669.829287) can0 150#C063F7E098020000
(1445275669.830862) can0 125#34D7D0C1E67EB7E5
(1445275669.833000) can0 008#80008000452C8199
(1445275669.833340) can0 010#F931B02F80000000
(1445275669.833645) can0 210#4DA809ADA080E042
(1445275669.833895) can0 2A9#840000C0C200268C
(1445275669.834145) can0 260#F0DC17495500FFD0
(1445275669.837117) can0 350#80000000000000A2
(1445275669.838456) can0 1B0#EC00B0000000C000
(1445275669.838727) can0 1B5#EFFFE000000000FF
(1445275669.839020) can0 1D8#43E0303135303734
(1445275669.839317) can0 1E0#E017BD80C19B1800
(1445275669.839318) can0 2C3#505400FFFF012975
(1445275669.843032) can0 008#80008000353C8199
(1445275669.843305) can0 010#F831B02F80000000
(1445275669.843637) can0 072#38A078003FFF00F0
(1445275669.843961) can0 1D0#61020A2BD2C5EC00
(1445275669.844263) can0 055#809C00B227EFF7EE
(1445275669.844264) can0 065#01F68E00F7EFE355
(1445275669.844495) can0 070#005BF1F6F8444000
(1445275669.844763) can0 075#585423098F99E900
(1445275669.844997) can0 080#802DF6F200804FD4
(1445275669.845319) can0 0B0#A352C1F6A2668352
(1445275669.845660) can0 145#A10040FC85D0F2FD
(1445275669.845661) can0 0E0#00228000F0017162
(1445275669.845939) can0 288#800000004FB0DFC8
(1445275669.848423) can0 0F5#00526B7F80008000
(1445275669.848692) can0 120#8955F97F80008000
(1445275669.848996) can0 130#11FF5300001DFFD7
(1445275669.849215) can0 150#C053F7E0A7FF0000
(1445275669.850878) can0 125#34D7D0C1E67EB7E5
(1445275669.853057) can0 008#80008000254C8199
(1445275669.853266) can0 010#F831B02F80000000
(1445275669.858036) can0 072#388078003FFF00F0
(1445275669.858251) can0 210#45A809AD2080E042
(1445275669.858519) can0 1B0#EC00B0000000C000
(1445275669.858804) can0 1B5#EFFFE000000000FF
(1445275669.859064) can0 1D8#43E0303135303734
(1445275669.859337) can0 1E0#E017BD80819B1800
(1445275669.863063) can0 008#80008000155C8199
(1445275669.863310) can0 010#F831B02F80000000
(1445275669.863639) can0 1D0#61000A2BD2C5EC00
(1445275669.863956) can0 405#016738B0F613F82A
(1445275669.864272) can0 055#809C00B227F0F7EF
(1445275669.864277) can0 065#01F78E00F7EFE353
(1445275669.864517) can0 070#005BF1F7F8434000
(1445275669.864738) can0 075#585423098F99E900
(1445275669.864987) can0 080#802DF7F200804FD6
(1445275669.865244) can0 0B0#A352C1F7A2668352
(1445275669.865410) can0 145#211040FC85D0F2FD
(1445275669.865709) can0 0E0#00028000F8017162
(1445275669.866007) can0 260#F0DC1749AA00FFD0
(1445275669.866273) can0 28C#8EBE300000004000
(1445275669.866519) can0 2B5#3B22A9B3722AA84B
(1445275669.868489) can0 0F5#00426F7F80008000
(1445275669.868725) can0 120#8955F87F80008000
(1445275669.868998) can0 130#11FF4300001DFFDF
(1445275669.869269) can0 150#C043F7E0B7FF0000
(1445275669.870183) can0 288#800000003FC0DFD5
(1445275669.870852) can0 125#34D7D0C1E67EB7E5
(1445275669.873054) can0 008#80008000056C8199
(1445275669.873265) can0 010#F831B02F80000000
(1445275669.873513) can0 072#38A078003FFF00F0
(1445275669.873758) can0 2A9#840000C0CA00268C
(1445275669.878465) can0 1B0#EC00B0000000C000
(1445275669.878696) can0 1B5#EFFFE000000000FF
(1445275669.878996) can0 1D8#43E0303135303734
(1445275669.879337) can0 1E0#E017BD80C18B1C00
(1445275669.879338) can0 2C3#505400FFFF012975
(1445275669.883017) can0 008#80008000F57C8199
(1445275669.883430) can0 010#F831B02F80000000
(1445275669.883711) can0 1D0#61080A2BD2C5EC00
(1445275669.884020) can0 055#809C00B227F0F7EF
(1445275669.884336) can0 065#01F78E00F7F0E354
(1445275669.884682) can0 070#005BF1F7F8434000
(1445275669.884683) can0 075#585423098F99E900
(1445275669.884918) can0 080#802DF7F200804FD8
(1445275669.885212) can0 0B0#A352C1F7A2668352
(1445275669.885517) can0 145#211040FC85D0F2FD
(1445275669.885518) can0 210#4DA809ADA080E042
(1445275669.885783) can0 0E0#00E28000C0017162
(1445275669.886063) can0 2C0#E5B0001400000000
(1445275669.886407) can0 2C5#7000E000001BB700
(1445275669.886694) can0 370#3CD3437600900004
(1445275669.886910) can0 3E0#8D80984718000000
(1445275669.887951) can0 072#388078003FFF00F0
(1445275669.888184) can0 3B0#00C4A8B938B9D800
(1445275669.888493) can0 0F5#0032737F80008000
(1445275669.888803) can0 120#8955FA7F80008000
(1445275669.889090) can0 130#11FF3300001DFFE7
(1445275669.889363) can0 150#C033F7E0C8020000
(1445275669.890880) can0 125#34D7D0C1E67EB7E5
(1445275669.893033) can0 008#80008000E58C8199
(1445275669.893533) can0 010#F831B02F80000000
(1445275669.894126) can0 260#F0DC1749AA00FFD0
(1445275669.895215) can0 288#800000003FC0DFC8
(1445275669.895469) can0 3C8#8E0024888E012975
(1445275669.898438) can0 1B0#EC00B0000000C000
(1445275669.898715) can0 1B5#EFFFE000000000FF
(1445275669.899011) can0 1D8#43E0303135303734
(1445275669.899269) can0 1E0#E017BD80C17B2000
(1445275669.903039) can0 008#80008000D59C8199
(1445275669.903428) can0 010#F831B02F80000000
(1445275669.903710) can0 072#38A078003FFF00F0
(1445275669.904013) can0 055#809C00B227EEF7EE
(1445275669.904342) can0 065#01F68E00F7EFE354
(1445275669.904344) can0 070#005BF1F6F8444000
(1445275669.904622) can0 075#585423098F99E900
(1445275669.904940) can0 080#802DF6F200804FD5
(1445275669.905249) can0 0B0#A352C1F6A2668352
(1445275669.905250) can0 145#A10040FC85D0F2FD
(1445275669.905494) can0 1D0#61000A2BD2C5EC00
(1445275669.905746) can0 0E0#00C28000C8017162
(1445275669.906071) can0 28C#8EBE300000004000
(1445275669.906347) can0 2B5#3B22A9B3722AA84B
(1445275669.907941) can0 210#4DA809ADA080E042
(1445275669.908407) can0 0F5#0022777F80008000
(1445275669.908685) can0 120#8955FC7F80008000
(1445275669.908958) can0 130#11FF2300001DFFEF
(1445275669.909246) can0 150#C023F7E0D7FF0000
(1445275669.909492) can0 3CA#C000005100000000
(1445275669.910791) can0 125#34D7D0C1E67EB7E5
(1445275669.913037) can0 008#80008000C5AC8199
(1445275669.913429) can0 010#F931B02F80000000
(1445275669.913693) can0 2A9#840000C0D300268C
(1445275669.918116) can0 072#388078003FFF00F0
(1445275669.918331) can0 360#01A06EABD1012975
(1445275669.918634) can0 1B0#EC00B0000000C000
(1445275669.918858) can0 1B5#EFFFE000000000FF
(1445275669.919181) can0 1D8#43E0303135303734
(1445275669.919464) can0 1E0#E017BD80817B2000
(1445275669.919731) can0 2C3#505400FFFF012975
(1445275669.920175) can0 288#800000003FC0DFD0
(1445275669.923028) can0 008#80008000B5BC8199
(1445275669.923821) can0 010#F831B02F80000000
(1445275669.924079) can0 055#809C00B227EEF7EE
(1445275669.924355) can0 065#01F68DFFF7EEE350
(1445275669.924643) can0 070#005BF1F6F8444000
(1445275669.924928) can0 075#585423098F99E900
(1445275669.925241) can0 080#802DF6F200804FD3
(1445275669.925242) can0 0B0#A352C1F6A2668352
(1445275669.925517) can0 145#211040FC85D0F2FD
(1445275669.925784) can0 0E0#00A28000D0017162
(1445275669.926064) can0 1D0#61020A2BD2C5EC00
(1445275669.926411) can0 260#F0DC1749AA00FFD0
(1445275669.926412) can0 390#475236021405FFE4
(1445275669.927087) can0 350#80000000000000A2
(1445275669.928473) can0 0F5#00127B7F80008000
(1445275669.928764) can0 120#8955F87F80008000
(1445275669.929084) can0 130#11FF1300001DFFF7
(1445275669.929357) can0 150#C013F7E0E8050000
(1445275669.930825) can0 125#34D7D0C1E67EB7E5
(1445275669.933034) can0 008#80008000A5CC8199
(1445275669.933346) can0 010#F831B02F80000000
(1445275669.933627) can0 072#38A078003FFF00F0
(1445275669.933894) can0 210#45A809ADA080E042
(1445275669.934120) can0 3D0#C3800338006109A2
(1445275669.938403) can0 1B0#EC00B0000000C000
(1445275669.938671) can0 1B5#EFFFE000000000FF
(1445275669.938947) can0 1D8#43E0303135303734
(1445275669.939186) can0 1E0#E017BD80C16B2400
(1445275669.943040) can0 008#8000800095DC8199
(1445275669.943467) can0 010#F831B02F80000000
(1445275669.943754) can0 1D0#61000A2BD2C5EC00
(1445275669.944020) can0 055#809C00B227F2F7F1
(1445275669.944305) can0 065#01F88DFFF7F0E350
(1445275669.944711) can0 070#005BF1F8F8434000
(1445275669.944712) can0 075#585423098F99E900
(1445275669.945018) can0 080#802DF8F200804FDC
(1445275669.945429) can0 0B0#A352C1F8A2668352
(1445275669.945430) can0 145#211040FC85D0F2FD
(1445275669.945713) can0 0E0#00818000D8027162
(1445275669.946013) can0 288#800000003FC0DFC8
(1445275669.946339) can0 28C#88BE300000004000
(1445275669.946340) can0 2B5#3922A9B3722AA84B
(1445275669.946622) can0 2C0#E5B0001400000000
(1445275669.946907) can0 2C5#7000E000001BB700
(1445275669.947159) can0 3AF#2000000000000000
(1445275669.947990) can0 072#388078003FFF00F0
(1445275669.948409) can0 0F5#00027F7F80008000
(1445275669.948647) can0 120#8955FC7F80008000
(1445275669.948899) can0 130#11FF0300001DFFFF
(1445275669.949186) can0 150#C003F7E0F8000000
(1445275669.950794) can0 125#34D7D0C1E67EB7E5
(1445275669.953007) can0 008#8000800085EC8199
(1445275669.953456) can0 010#F831B02F80000000
(1445275669.953767) can0 2A9#840000C0CA00268C
(1445275669.954020) can0 400#0903010101100124
(1445275669.954267) can0 260#F0DC17495500FFD0
(1445275669.957960) can0 210#4DA809ADA080E042
(1445275669.958362) can0 1B0#EC00B0000000C000
(1445275669.958645) can0 1B5#EFFFE000000000FF
(1445275669.958929) can0 1D8#43E0303135303734
(1445275669.959210) can0 1E0#E017BD80C15B2800
(1445275669.959454) can0 2C3#505400FFFF012975
(1445275669.963038) can0 008#8000800075FC8199
(1445275669.963466) can0 010#F831B02F80000000
(1445275669.963753) can0 072#38A078003FFF00F0
(1445275669.964020) can0 055#809C00B227F0F7EF
(1445275669.964305) can0 065#01F88DFFF7F1E352
(1445275669.964662) can0 070#005BF1F7F8444000
(1445275669.964663) can0 075#585423098F99E900
(1445275669.964906) can0 080#802DF8F200804FDD
(1445275669.965181) can0 0B0#A352C1F8A2668352
(1445275669.965460) can0 145#A10040FC85D0F2FD
(1445275669.965746) can0 0E0#00628000E0017162
(1445275669.965747) can0 1D0#61080A2BD2C5EC00
(1445275669.968427) can0 0F5#00F2437F80008000
(1445275669.968689) can0 120#8955FC7F80008000
(1445275669.968959) can0 130#11FFF300001DFF87
(1445275669.969229) can0 150#C0F3F7E007FF0000
(1445275669.970162) can0 288#800000002FD0DFC8
(1445275669.970754) can0 125#34D7D0C1E67EB7E5
(1445275669.973006) can0 008#80008000650C8199
(1445275669.973448) can0 010#F831B02F80000000
(1445275669.977934) can0 072#388078003FFF00F0
(1445275669.978335) can0 1B0#EC00B0000000C000
(1445275669.978682) can0 1B5#EFFFE000000000FF
(1445275669.978935) can0 1D8#43E0303135303734
(1445275669.979180) can0 1E0#E017BD80815B2800
(1445275669.983009) can0 008#80008000551C8199
(1445275669.983457) can0 010#F831B02F80000000
(1445275669.983737) can0 1D0#61000A2BD2C5EC00
(1445275669.984018) can0 055#809C00B227F0F7EF
(1445275669.984338) can0 065#01F78DFFF7F0E352
(1445275669.984682) can0 070#005BF1F7F8444000
(1445275669.984683) can0 075#585423098F99E900
(1445275669.984942) can0 080#802DF7F200804FD8
(1445275669.985201) can0 0B0#A352C1F7A2658352
(1445275669.985486) can0 145#211040FC85D0F2FD
(1445275669.985800) can0 0E0#00428000E8017162
(1445275669.985801) can0 210#45A809ADA080E042
(1445275669.986064) can0 260#F0DC17495500FFD0
(1445275669.986410) can0 28C#88BE300000004000
(1445275669.986704) can0 2B5#3922A9B3722AA84B
(1445275669.986960) can0 370#3CD3437600900004
(1445275669.988410) can0 0F5#00E2477F80008000
(1445275669.988699) can0 120#8955FB7F80008000
(1445275669.988995) can0 130#11FFE300001DFF8F
(1445275669.989246) can0 150#C0E3F7E017FF0000
(1445275669.990739) can0 125#34D7D0C1E67EB7E5
(1445275669.992947) can0 008#80008000452C8199
(1445275669.993394) can0 010#F931B02F80000000
(1445275669.993657) can0 072#38A078003FFF00F0
(1445275669.993855) can0 2A9#840000C0D300268C
(1445275669.995241) can0 288#800000002FD0DFC8
(1445275669.998438) can0 1B0#EC00B0000000C000
(1445275669.998711) can0 1B5#EFFFE000000000FF
(1445275669.999000) can0 1D8#43E0303135303734
(1445275669.999269) can0 1E0#E017BD80C14B2C00
(1445275669.999270) can0 2C3#505400FFFF012975
(1445275670.003013) can0 008#80008000353C8199
(1445275670.003268) can0 010#F831B02F80000000
(1445275670.003518) can0 1D0#61020A2BD2C5EC00
(1445275670.003858) can0 055#809C00B227F3F7F3
(1445275670.004067) can0 065#01F78E00F7F0E34E
(1445275670.004323) can0 070#005BF1F9F8434000
(1445275670.004638) can0 075#585423098F99E900
(1445275670.004899) can0 080#802DF7F200804FD9
(1445275670.005240) can0 0B0#A352C1F7A2668352
(1445275670.005241) can0 145#211040FC85D0F2FD
(1445275670.005515) can0 2C0#E5B0001400000000
(1445275670.005800) can0 0E0#00228000F0017162
(1445275670.006050) can0 2C5#7000E000001BB700
(1445275670.007854) can0 072#388078003FFF00F0
(1445275670.008071) can0 210#45A809AD2080E042
(1445275670.008426) can0 3B0#00C4A8B938B9FC00
(1445275670.008711) can0 0F5#00D24B7F80008000
(1445275670.009051) can0 120#8955FA7F80008000
(1445275670.009052) can0 130#11FFD300001DFF97
(1445275670.009263) can0 150#C0D3F7E027FF0000
(1445275670.010827) can0 125#34D7D0C1E67EB7E5
(1445275670.013010) can0 008#80008000254C8199
(1445275670.013423) can0 010#F831B02F80000000
(1445275670.014145) can0 260#F0DC17495500FFD0
(1445275670.015202) can0 3C8#8E0024888E012975
(1445275670.017112) can0 350#80000000000000A2
(1445275670.018160) can0 360#01A06EABD1012975
(1445275670.018441) can0 1B0#EC00B0000000C000
(1445275670.018770) can0 1B5#EFFFE000000000FF
(1445275670.019086) can0 1D8#43E0303135303734
(1445275670.019088) can0 1E0#E017BD80C13B3000
(1445275670.020238) can0 288#800000002FD0DFC8
(1445275670.023011) can0 008#80008000155C8199
(1445275670.023820) can0 055#809C00B227F1F7F1
(1445275670.024077) can0 010#F831B02F80000000
(1445275670.024365) can0 065#01F88E00F7F1E351
(1445275670.024681) can0 070#005BF1F8F8454000
(1445275670.024955) can0 072#38A078003FFF00F0
(1445275670.025318) can0 075#585423098F99E900
(1445275670.025319) can0 080#802DF8F200804FDC
(1445275670.025548) can0 0B0#A352C1F8A2658352
(1445275670.025835) can0 0E0#00018000F8027162
(1445275670.026135) can0 145#A10040FC85D0F2FD
(1445275670.026463) can0 1D0#61000A2BD2C5EC00
(1445275670.026464) can0 28C#8FBE300000004000
(1445275670.026769) can0 2B5#3922A9B3722FA84B
(1445275670.027017) can0 390#475332021405FFE4
(1445275670.028460) can0 0F5#00C24F7F80008000
(1445275670.028695) can0 120#8955FA7F80008000
(1445275670.028937) can0 130#11FFC300001DFF9F
(1445275670.029208) can0 150#C0C3F7E037FD0000
(1445275670.029491) can0 3CA#C000005200000000
(1445275670.030798) can0 125#34D7D0C1E67EB7E5
(1445275670.033008) can0 008#80008000056C8199
(1445275670.033303) can0 010#F831B02F80000000
(1445275670.033642) can0 210#4DA809ADA080E042
(1445275670.033894) can0 2A9#840000C0CA00268C
(1445275670.037869) can0 072#388078003FFF00F0
(1445275670.038343) can0 1B0#EC00B0000000C000
(1445275670.038631) can0 1B5#EFFFE000000000FF
(1445275670.038942) can0 1D8#43E0303135303734
(1445275670.039213) can0 1E0#E017BD80813B3000
(1445275670.039445) can0 2C3#505400FFFF012975
(1445275670.043012) can0 008#80008000F57C8199
(1445275670.043303) can0 010#F831B02F80000000
(1445275670.043630) can0 1D0#61080A2BD2C5EC00
(1445275670.043897) can0 055#809C00B227EFF7EF
(1445275670.044179) can0 065#01F78E00F7F0E351
(1445275670.044471) can0 070#005BF1F7F8464000
(1445275670.044745) can0 075#585423098F99E900
(1445275670.044746) can0 080#802DF7F200804FD8
(1445275670.044994) can0 0B0#A352C1F7A2658352
(1445275670.045246) can0 145#211040FC85D0F2FD
(1445275670.045534) can0 260#F0DC1649AA00FFD0
(1445275670.045829) can0 0E0#00E28000C0017162
(1445275670.046078) can0 288#800000002FD0DFC8
(1445275670.048419) can0 0F5#00B2537F80008000
(1445275670.048686) can0 120#8955F97F80008000
(1445275670.048922) can0 130#11FFB300001DFFA7
(1445275670.049171) can0 150#C0B3F7E047FB0000
(1445275670.050774) can0 125#34D7D0C1E67EB7E5
(1445275670.053009) can0 008#80008000E58C8199
(1445275670.053264) can0 010#F831B02F80000000
(1445275670.053517) can0 072#38A078003FFF00F0
(1445275670.057908) can0 210#45A809ADA080E042
(1445275670.058361) can0 1B0#EC00B0000000C000
(1445275670.058633) can0 1B5#EFFFE000000000FF
(1445275670.058899) can0 1D8#43E0303135303734
(1445275670.059188) can0 1E0#E017BD80C12B3400
(1445275670.062985) can0 008#80008000D59C8199
(1445275670.063304) can0 010#F831B02F80000000
(1445275670.063611) can0 1D0#61000A2BD2C5EC00
(1445275670.063895) can0 055#809C00B227F0F7F0
(1445275670.064159) can0 065#01F78E00F7F0E34F
(1445275670.064446) can0 070#005BF1F7F8454000
(1445275670.064780) can0 075#585423098F99E900
(1445275670.064781) can0 080#802DF7F200804FD7
(1445275670.065013) can0 0B0#A352C1F7A2648352
(1445275670.065278) can0 145#211040FC85D0F2FD
(1445275670.065621) can0 28C#8FBE300000004000
(1445275670.065918) can0 0E0#00C28000C8017162
(1445275670.065919) can0 2B5#3E22A9B3722FA84B
(1445275670.066164) can0 2C0#E5B0001400000000
(1445275670.066407) can0 2C5#7000E000001BB700
(1445275670.066655) can0 3AF#2000000000000000
(1445275670.067953) can0 072#388078003FFF00F0
(1445275670.068403) can0 0F5#00A2577F80008000
(1445275670.068658) can0 120#8955FA7F80008000
(1445275670.068909) can0 130#11FFA300001DFFAF
(1445275670.069160) can0 150#C0A3F7E058020000
(1445275670.070224) can0 288#800000001FE0DFD5
(1445275670.070772) can0 125#34D7D0C1E67EB7E5
(1445275670.073007) can0 008#80008000C5AC8199
(1445275670.073305) can0 010#F931B02F80000000
(1445275670.073631) can0 2A9#840000C0C200268C
(1445275670.074137) can0 260#F0DC1749AA00FFD0
(1445275670.078463) can0 1B0#EC00B0000000C000
(1445275670.078753) can0 1B5#EFFFE000000000FF
(1445275670.079057) can0 1D8#43E0303135303734
(1445275670.079058) can0 1E0#E017BD80C11B3800
(1445275670.079347) can0 2C3#505400FFFF012975
(1445275670.083009) can0 008#80008000B5BC8199
(1445275670.083305) can0 010#F831B02F80000000
(1445275670.083667) can0 072#38A078003FFF00F0
(1445275670.083908) can0 1D0#61020A2BD2C5EC00
(1445275670.084179) can0 055#809C00B227F2F7F1
(1445275670.084491) can0 065#01F88E00F7F1E34F
(1445275670.084492) can0 070#005BF1F8F8454000
(1445275670.084764) can0 075#585423098F99E900
(1445275670.085104) can0 080#802DF8F200804FDD
(1445275670.085428) can0 0B0#A352C1F8A2658352
(1445275670.085730) can0 145#A10040FC85D0F2FD
(1445275670.085732) can0 0E0#00A28000D0017162
(1445275670.085996) can0 210#4DA809ADA080E042
(1445275670.086266) can0 370#3CD3437600900004
(1445275670.088422) can0 0F5#00925B7F80008000
(1445275670.088687) can0 120#8955FA7F80008000
(1445275670.088983) can0 130#11FF9300001DFFB7
(1445275670.089245) can0 150#C093F7E068020000
(1445275670.090730) can0 125#34D7D0C1E67EB7E5
(1445275670.092941) can0 008#80008000A5CC8199
(1445275670.093280) can0 010#F831B02F80000000
(1445275670.095270) can0 288#800000001FE0DFC8
(1445275670.097950) can0 072#388078003FFF00F0
(1445275670.098290) can0 1B0#EC00B0000000C000
(1445275670.098674) can0 1B5#EFFFE000000000FF
(1445275670.098907) can0 1D8#43E0303135303734
(1445275670.099142) can0 1E0#E017BD80811B3800
(1445275670.103013) can0 008#8000800095DC8199
(1445275670.103266) can0 010#F831B02F80000000
(1445275670.103556) can0 1D0#61000A2BD2C5EC00
(1445275670.103848) can0 055#809C00B227EFF7EE
(1445275670.104140) can0 065#01F88E00F7F2E353
(1445275670.104428) can0 070#005BF1F7F8454000
(1445275670.104709) can0 075#585423098F99E900
(1445275670.105071) can0 080#802DF8F200804FDD
(1445275670.105072) can0 0B0#A352C1F8A2658352
(1445275670.105407) can0 145#211040FC85D0F2FD
(1445275670.105715) can0 260#F0DC1749AA00FFD0
(1445275670.105716) can0 0E0#00828000D8017162
(1445275670.105994) can0 28C#8FBE300000004000
(1445275670.106244) can0 2B5#3E22A9B3722FA94B
(1445275670.107072) can0 350#80000000000000A2
(1445275670.107988) can0 210#4DA809ADA080E040
(1445275670.108408) can0 0F5#00825F7F80008000
(1445275670.108730) can0 120#8955FB7F80008000
(1445275670.108966) can0 130#11FF8300001DFFBF
(1445275670.109240) can0 150#C083F7E077FF0000
(1445275670.110736) can0 125#34D7D0C1E67EB7E5
(1445275670.113034) can0 008#8000800085EC8199
(1445275670.113456) can0 010#F831B02F80000000
(1445275670.113736) can0 072#38A078003FFF00F0
(1445275670.114018) can0 2A9#840000C0DB00268C
(1445275670.114267) can0 405#024034003A012975
(1445275670.118374) can0 1B0#EC00B0000000C000
(1445275670.118649) can0 1B5#EFFFE000000000FF
(1445275670.118929) can0 1D8#43E0303135303734
(1445275670.119212) can0 1E0#E017BD80C10B3C00
(1445275670.119494) can0 2C3#505400FFFF012975
(1445275670.119495) can0 360#01A06EABD1012975
(1445275670.120224) can0 288#800000001FE0DFD0
(1445275670.122942) can0 008#8000800075FC8199
(1445275670.123857) can0 055#809C00B227F0F7EF
(1445275670.124091) can0 065#01F78E00F7F0E353
(1445275670.124429) can0 070#005BF1F7F8444000
(1445275670.124766) can0 010#F831B02F80000000
(1445275670.124767) can0 075#585423098F99E900
(1445275670.125015) can0 080#802DF7F200804FD8
(1445275670.125355) can0 0B0#A352C1F7A2658352
(1445275670.125689) can0 145#211040FC85D0F2FD
(1445275670.125690) can0 0E0#00628000E0017162
(1445275670.125954) can0 1D0#61080A2BD2C5EC00
(1445275670.126227) can0 2C0#E5B0001400000000
(1445275670.126494) can0 2C5#7000E000001BB700
(1445275670.126749) can0 390#47552A021405FFE4
(1445275670.127937) can0 072#388078003FFF00F0
(1445275670.128207) can0 3B0#00C4A8B938B9D800
(1445275670.128494) can0 0F5#0072637F80008000
(1445275670.128782) can0 120#8955FA7F80008000
(1445275670.129069) can0 130#11FF7300001DFFC7
(1445275670.129341) can0 150#C073F7E088000000
(1445275670.130728) can0 125#34D7D0C1E67EB7E5
(1445275670.132946) can0 008#80008000650C8199
(1445275670.133535) can0 010#F831B02F80000000
(1445275670.133749) can0 210#45A809ADA080E040
(1445275670.134013) can0 3D0#C3800338006109A2
(1445275670.134299) can0 260#F0DC1749AA00FFD0
(1445275670.135265) can0 3C8#8E0024888E012975
(1445275670.137978) can0 430#C63000000028082A
(1445275670.138362) can0 1B0#EC00B0000000C000
(1445275670.138643) can0 1B5#EFFFE000000000FF
(1445275670.138882) can0 1D8#43E0303135303734
(1445275670.139139) can0 1E0#E017BD80C1FB0000
(1445275670.142984) can0 008#80008000551C8199
(1445275670.143486) can0 010#F831B02F80000000
(1445275670.143767) can0 072#38A078003FFF00F0
(1445275670.144088) can0 055#809C00B227F2F7F2
(1445275670.144426) can0 065#01F78E01F7F0E351
(1445275670.144427) can0 070#005BF1F9F8434000
(1445275670.144682) can0 075#585423098F99E900
(1445275670.145006) can0 080#802DF7F200804FD9
(1445275670.145300) can0 0B0#A352C1F7A2668352
(1445275670.145591) can0 145#A10040FC85D0F2FD
(1445275670.145592) can0 0E0#00428000E8017162
(1445275670.145868) can0 1D0#61000A2BD2C5EC00
(1445275670.146155) can0 288#800000001FE0DFCC
(1445275670.146445) can0 28C#8EBE300000004000
(1445275670.146724) can0 2B5#3B22A9B3722AA94B
(1445275670.148400) can0 0F5#0062677F80008000
(1445275670.148647) can0 120#8955FA7F80008000
(1445275670.148915) can0 130#11FF6300001DFFCF
(1445275670.149211) can0 150#C063F7E098050000
(1445275670.149468) can0 3CA#C000005300000000
(1445275670.150731) can0 125#34D7D0C1E67EB7E5
(1445275670.152937) can0 008#80008000452C8199
(1445275670.153427) can0 010#F931B02F80000000
(1445275670.153712) can0 2A9#840000C0C200268C
(1445275670.157934) can0 072#388078003FFF00F0
(1445275670.158142) can0 210#4DA809AD2080E040
(1445275670.158428) can0 1B0#EC00B0000000C000
(1445275670.158709) can0 1B5#EFFFE000000000FF
(1445275670.159008) can0 1D8#43E0303135303734
(1445275670.159333) can0 1E0#E017BD8081FB0000
(1445275670.159334) can0 2C3#505400FFFF012975
(1445275670.162986) can0 008#80008000353C8199
(1445275670.163504) can0 010#F831B02F80000000
(1445275670.163750) can0 1D0#61020A2BD2C5EC00
(1445275670.164055) can0 055#809C00B227F2F7F2
(1445275670.164349) can0 065#01F88E01F7F2E351
(1445275670.164640) can0 070#005BF1F9F8434000
(1445275670.164642) can0 075#585423098F99E900
(1445275670.164905) can0 080#802DF8F200804FDC
(1445275670.165144) can0 0B0#A352C1F8A2658352
(1445275670.165417) can0 145#211040FC85D0F2FD
(1445275670.165693) can0 0E0#00218000F0027162
(1445275670.165906) can0 260#F0DC17495500FFD0
(1445275670.168393) can0 0F5#00526B7F80008000
(1445275670.168654) can0 120#8955FA7F80008000
(1445275670.168898) can0 130#11FF5300001DFFD7
(1445275670.169160) can0 150#C053F7E0A7FF0000
(1445275670.170253) can0 288#800000000FF0DFD0
(1445275670.170726) can0 125#34D7D0C1E67EB7E5
(1445275670.172980) can0 008#80008000254C8199
(1445275670.173555) can0 010#F831B02F80000000
(1445275670.173769) can0 072#38A078003FFF00F0
(1445275670.178376) can0 1B0#EC00B0000000C000
(1445275670.178611) can0 1B5#EFFFE000000000FF
(1445275670.178877) can0 1D8#43E0303135303734
(1445275670.179118) can0 1E0#E017BD80C1EB0400
(1445275670.182917) can0 008#80008000155C8199
(1445275670.183412) can0 010#F831B02F80000000
(1445275670.183638) can0 1D0#61000A2BD2C5EC00
(1445275670.183896) can0 055#809C00B227EFF7EF
(1445275670.184210) can0 065#01F78E00F7F1E354
(1445275670.184510) can0 070#005BF1F7F8444000
(1445275670.184835) can0 075#585423098F99E900
(1445275670.184836) can0 080#802DF9F200804FDE
(1445275670.185111) can0 0B0#A352C1F9A2668352
(1445275670.185422) can0 145#211040FC85D0F2FD
(1445275670.185707) can0 0E0#00028000F8017162
(1445275670.185996) can0 210#45A809ADA080E040
(1445275670.185997) can0 28C#8EBE300000004000
(1445275670.186239) can0 2B5#3B22A9B3722AA94B
(1445275670.186511) can0 2C0#E5B0001400000000
(1445275670.186826) can0 2C5#7000E000001BB700
(1445275670.187117) can0 370#3CD3437600900004
(1445275670.187448) can0 3AF#2000000000000000
(1445275670.187448) can0 3E0#8D80984718000000
(1445275670.187867) can0 072#388078003FFF00F0
(1445275670.188406) can0 0F5#00426F7F80008000
(1445275670.188674) can0 120#8955FA7F80008000
(1445275670.188926) can0 130#11FF4300001DFFDF
(1445275670.189176) can0 150#C043F7E0B8000000
(1445275670.190769) can0 125#34D7D0C1E67EB7E5
(1445275670.193009) can0 008#80008000056C8199
(1445275670.193582) can0 010#F831B02F80000000
(1445275670.193796) can0 2A9#840000C0CA00268C
(1445275670.194179) can0 260#F0DC17495500FFD0
(1445275670.195290) can0 288#800000000FF0DFCC
(1445275670.197110) can0 350#80000000000000A2
(1445275670.198456) can0 1B0#EC00B0000000C000
(1445275670.198703) can0 1B5#EFFFE000000000FF
(1445275670.198995) can0 1D8#43E0303135303734
(1445275670.199336) can0 1E0#E017BD80C1DB0800
(1445275670.199337) can0 2C3#505400FFFF012975
(1445275670.202953) can0 008#80008000F57C8199
(1445275670.203464) can0 010#F831B02F80000000
(1445275670.203765) can0 072#38A078003FFF00F0
(1445275670.204053) can0 055#809C00B227F0F7EF
(1445275670.204318) can0 065#01F78E00F7F0E351
(1445275670.204679) can0 070#005BF1F7F8434000
(1445275670.204680) can0 075#585423098F99E900
(1445275670.204911) can0 080#802DF7F200804FD8
(1445275670.205146) can0 0B0#A352C1F7A2668352
(1445275670.205482) can0 145#A10040FC85D0F2FD
(1445275670.205742) can0 0E0#00E28000C0017162
(1445275670.206062) can0 1D0#61080A2BD2C5EC00
(1445275670.206063) can0 400#0A01010202010173
(1445275670.207756) can0 210#45A809ADA080E040
(1445275670.208458) can0 0F5#0032737F80008000
(1445275670.208669) can0 120#8955F87F80008000
(1445275670.208925) can0 130#11FF3300001DFFE7
(1445275670.209179) can0 150#C033F7E0C7FF0000
(1445275670.210734) can0 125#34D7D0C1E67EB7E5
(1445275670.212951) can0 008#80008000E58C8199
(1445275670.213608) can0 010#F831B02F80000000
(1445275670.218373) can0 1B0#EC00B0000000C000
(1445275670.218612) can0 072#388078003FFF00F0
(1445275670.218893) can0 1B5#EFFFE000000000FF
(1445275670.219182) can0 1D8#43E0303135303734
(1445275670.219462) can0 1E0#E017BD8081DB0800
(1445275670.219737) can0 360#01A06EABD1012975
(1445275670.220309) can0 288#800000000FF0DFCC
(1445275670.222958) can0 008#80008000D59C8199
(1445275670.223838) can0 055#809C00B227F2F7F1
(1445275670.224088) can0 065#01F88E00F7F1E351
(1445275670.224362) can0 010#F831B02F80000000
(1445275670.224676) can0 070#005BF1F8F8444000
(1445275670.224943) can0 075#585423098F99E900
(1445275670.225256) can0 080#802DF9F200804FDE
(1445275670.225258) can0 0B0#A352C1F9A2668352
(1445275670.225552) can0 0E0#00C28000C8017162
(1445275670.225826) can0 145#211040FC85D0F2FD
(1445275670.226158) can0 1D0#61000A2BD2C5EC00
(1445275670.226159) can0 260#F0DC17495500FFD0
(1445275670.226407) can0 28C#8EBE300000004000
(1445275670.226662) can0 2B5#3B22A9B3722AA94B
(1445275670.226907) can0 390#67552A021405FFE4
(1445275670.228419) can0 0F5#0022777F80008000
(1445275670.228712) can0 120#8955F97F80008000
(1445275670.228995) can0 130#11FF2300001DFFEF
(1445275670.229244) can0 150#C023F7E0D7FD0000
(1445275670.230704) can0 125#34D7D0C1E67EB7E5
(1445275670.232911) can0 008#80008000C5AC8199
(1445275670.233453) can0 010#F931B02F80000000
(1445275670.233636) can0 072#38A078003FFF00F0
(1445275670.233923) can0 210#4DA809ADA080E040
(1445275670.234136) can0 2A9#840000C0D300268C
(1445275670.238374) can0 1B0#EC00B0000000C000
(1445275670.238613) can0 1B5#EFFFE000000000FF
(1445275670.238860) can0 1D8#43E0303135303734
(1445275670.239168) can0 1E0#E017BD80C1CB0C00
(1445275670.239449) can0 2C3#505400FFFF012975
(1445275670.242952) can0 008#80008000B5BC8199
(1445275670.243259) can0 010#F831B02F80000000
(1445275670.243516) can0 1D0#61020A2BD2C5EC00
(1445275670.243756) can0 055#809C00B227F2F7F2
(1445275670.244046) can0 065#01F98E00F7F2E355
(1445275670.244291) can0 070#005BF1F9F8434000
(1445275670.244618) can0 075#585423098F99E900
(1445275670.244965) can0 080#802DF9F200804FDE
(1445275670.245302) can0 0B0#A352C1F9A2668352
(1445275670.245303) can0 145#211040FC85D0F2FD
(1445275670.245640) can0 0E0#00A28000D0017162
(1445275670.245959) can0 288#800000000FF0DFC4
(1445275670.245960) can0 2C0#E5B0001400000000
(1445275670.246211) can0 2C5#7000E000001BB700
(1445275670.248076) can0 072#388078003FFF00F0
(1445275670.248383) can0 3B0#00C4A8B93CB9D800
(1445275670.248670) can0 0F5#00127B7F80008000
(1445275670.248961) can0 120#8955FB7F80008000
(1445275670.249282) can0 130#11FF1300001DFFF7
(1445275670.249283) can0 150#C013F7E0E8000000
(1445275670.250703) can0 125#34D7D0C1E67EB7E5
(1445275670.252907) can0 008#80008000A5CC8199
(1445275670.253345) can0 010#F831B02F80000000
(1445275670.254190) can0 260#F0DC1749AA00FFD0
(1445275670.255319) can0 3C8#8E0024888E012975
(1445275670.258111) can0 210#45A809ADA080E040
(1445275670.258425) can0 1B0#EC00B0000000C000
(1445275670.258713) can0 1B5#EFFFE000000000FF
(1445275670.259018) can0 1D8#43E0303135303734
(1445275670.259266) can0 1E0#E017BD80C1BB1000
(1445275670.262958) can0 008#8000800095DC8199
(1445275670.263230) can0 010#F831B02F80000000
(1445275670.263516) can0 072#38A078003FFF00F0
(1445275670.263826) can0 1D0#61000A2BD2C5EC00
(1445275670.264157) can0 055#809C00B227EFF7EE
(1445275670.264157) can0 065#01F68E00F7F0E355
(1445275670.264444) can0 070#005BF1F6F8444000
(1445275670.264720) can0 075#585423098F99E900
(1445275670.265018) can0 080#802DF7F200804FD6
(1445275670.265323) can0 0B0#A352C1F6A2658352
(1445275670.265618) can0 145#A10040FC85D0F2FD
(1445275670.265619) can0 0E0#00828000D8017162
(1445275670.265939) can0 28C#8EBE300000004000
(1445275670.266208) can0 2B5#3B22A9B3722AA94B
(1445275670.268420) can0 0F5#00027F7F80008000
(1445275670.268693) can0 120#8955F87F80008000
(1445275670.268992) can0 130#11FF0300001DFFFF
(1445275670.269319) can0 150#C003F7E0F7FF0000
(1445275670.269606) can0 3CA#C000005400000000
(1445275670.270285) can0 288#80000000FF00DFC4
(1445275670.270687) can0 125#34D7D0C1E67EB7E5
(1445275670.272953) can0 008#8000800085EC8199
(1445275670.273440) can0 010#F831B02F80000000
(1445275670.273646) can0 2A9#840000C0CA00268C
(1445275670.278115) can0 072#388078003FFF00F0
(1445275670.278428) can0 1B0#EC00B0000000C000
(1445275670.278708) can0 1B5#EFFFE000000000FF
(1445275670.279016) can0 1D8#43E0303135303734
(1445275670.279017) can0 1E0#E017BD8081BB1000
(1445275670.279338) can0 2C3#505400FFFF012975
(1445275670.282952) can0 008#8000800075FC8199
(1445275670.283255) can0 010#F831B02F80000000
(1445275670.283512) can0 1D0#61080A2BD2C5EC00
(1445275670.283741) can0 210#4DA809ADA080E040
(1445275670.284031) can0 055#809C00B227F3F7F3
(1445275670.284315) can0 065#01F78E00F7EFE350
(1445275670.284657) can0 070#005BF1F9F8434000
(1445275670.284658) can0 075#585423098F99E900
(1445275670.284899) can0 080#802DF7F200804FD7
(1445275670.285141) can0 0B0#A352C1F7A2668352
(1445275670.285393) can0 145#211040FC85D0F2FD
(1445275670.285690) can0 0E0#00628000E0017162
(1445275670.285985) can0 260#F0DC1749AA00FFD0
(1445275670.286242) can0 370#3CD3437600900004
(1445275670.287034) can0 350#80000000000000A2
(1445275670.288418) can0 0F5#00F2437F80008000
(1445275670.288706) can0 120#8955FB7F80008000
(1445275670.288978) can0 130#11FFF300001DFF87
(1445275670.289227) can0 150#C0F3F7E007FD0000
(1445275670.290662) can0 125#34D7D0C1E67EB7E5
(1445275670.292927) can0 008#80008000650C8199
(1445275670.293441) can0 010#F831B02F80000000
(1445275670.293640) can0 072#38A078003FFF00F0
(1445275670.295343) can0 288#80000000FF00DFC8
(1445275670.298333) can0 1B0#EC00B0000000C000
(1445275670.298673) can0 1B5#EFFFE000000000FF
(1445275670.298907) can0 1D8#43E0303135303734
(1445275670.299136) can0 1E0#E017BD80C1AB1400
(1445275670.302951) can0 008#80008000551C8199
(1445275670.303261) can0 010#F831B02F80000000
(1445275670.303555) can0 1D0#61000A2BD2C5EC00
(1445275670.303814) can0 055#809C00B227F3F7F3
(1445275670.304057) can0 065#01F98E00F7F2E350
(1445275670.304315) can0 070#005BF1F9F8434000
(1445275670.304484) can0 075#585423098F99E900
(1445275670.304743) can0 080#802DF9F200804FDF
(1445275670.305016) can0 0B0#A352C1F9A2658352
(1445275670.305339) can0 145#211040FC85D0F2FD
(1445275670.305641) can0 0E0#00428000E8017162
(1445275670.305962) can0 28C#8DBE300000004000
(1445275670.305963) can0 2B5#3B22A9B3722AA94B
(1445275670.306236) can0 2C0#E5B0001400000000
(1445275670.306514) can0 2C5#7000E000001BB700
(1445275670.306765) can0 3AF#2000000000000000
(1445275670.308156) can0 072#388078003FFF00F0
(1445275670.308407) can0 0F5#00E2477F80008000
(1445275670.308656) can0 120#8955FA7F80008000
(1445275670.308908) can0 130#11FFE300001DFF8F
(1445275670.309158) can0 150#C0E3F7E017FF0000
(1445275670.309406) can0 210#4DA809AD2080E040
(1445275670.310662) can0 125#34D7D0C1E67EB7E5
(1445275670.312906) can0 008#80008000452C8199
(1445275670.313750) can0 010#F931B02F80000000
(1445275670.314014) can0 2A9#840000C0D300268C
(1445275670.314241) can0 260#F0DC1649AA00FFD0
(1445275670.318371) can0 1B0#EC00B0000000C000
(1445275670.318610) can0 1B5#EFFFE000000000FF
(1445275670.318887) can0 1D8#43E0303135303734
(1445275670.319141) can0 1E0#E017BD80C19B1800
(1445275670.319482) can0 2C3#505400FFFF012975
(1445275670.319660) can0 360#01A06EABD1012975
(1445275670.320364) can0 288#80000000FF00DFC4
(1445275670.322930) can0 008#80008000353C8199
(1445275670.323817) can0 055#809C00B227F0F7EE
(1445275670.324076) can0 065#01F68E00F7F1E355
(1445275670.324457) can0 010#F831B02F80000000
(1445275670.324766) can0 070#005BF1F7F8444000
(1445275670.324767) can0 072#38A078003FFF00F0
(1445275670.325014) can0 075#585423098F99E900
(1445275670.325339) can0 080#802DF9F200804FE0
(1445275670.325639) can0 0B0#A352C1F9A2668352
(1445275670.325959) can0 0E0#00228000F0017162
(1445275670.325960) can0 145#A10040FC85D0F2FD
(1445275670.326208) can0 1D0#61020A2BD2C5EC00
(1445275670.326464) can0 390#475722021405FFE4
(1445275670.328422) can0 0F5#00D24B7F80008000
(1445275670.328713) can0 120#8955FB7F80008000
(1445275670.328995) can0 130#11FFD300001DFF97
(1445275670.329242) can0 150#C0D3F7E027FF0000
(1445275670.330622) can0 125#34D7D0C1E67EB7E5
(1445275670.332873) can0 008#80008000254C8199
(1445275670.333335) can0 010#F831B02F80000000
(1445275670.333640) can0 210#45A809ADA080E040
(1445275670.333888) can0 3D0#C3800338006109A2
(1445275670.337929) can0 072#388078003FFF00F0
(1445275670.338330) can0 1B0#EC00B0000000C000
(1445275670.338672) can0 1B5#EFFFE000000000FF
(1445275670.338907) can0 1D8#43E0303135303734
(1445275670.339143) can0 1E0#E017BD80819B1800
(1445275670.342930) can0 008#80008000155C8199
(1445275670.343266) can0 010#F831B02F80000000
(1445275670.343555) can0 1D0#61000A2BD2C5EC00
(1445275670.343810) can0 055#809C00B227EFF7EF
(1445275670.344105) can0 065#01F78E00F7F0E34F
(1445275670.344417) can0 070#005BF1F7F8434000
(1445275670.344708) can0 075#585423098F99E900
(1445275670.345015) can0 080#802DF7F200804FD7
(1445275670.345016) can0 0B0#A352C1F7A2668352
(1445275670.345247) can0 145#211040FC85D0F2FD
(1445275670.345534) can0 0E0#00028000F8017162
(1445275670.345835) can0 260#F0DC17495500FFD0
(1445275670.346178) can0 288#80000000FF00DFC0
(1445275670.346473) can0 28C#8DBE300000004000
(1445275670.346474) can0 2B5#3E22A9B3722AA94B
(1445275670.348388) can0 0F5#00C24F7F80008000
(1445275670.348639) can0 120#8955F97F80008000
(1445275670.348907) can0 130#11FFC300001DFF9F
(1445275670.349154) can0 150#C0C3F7E037FC0000
(1445275670.350693) can0 125#34D7D0C1E67EB7E5
(1445275670.352925) can0 008#80008000056C8199
(1445275670.353357) can0 010#F831B02F80000000
(1445275670.353640) can0 072#38A078003FFF00F0
(1445275670.353889) can0 2A9#840000C0CA00268C
(1445275670.357929) can0 210#4DA809ADA080E040
(1445275670.358314) can0 1B0#EC00B0000000C000
(1445275670.358680) can0 1B5#EFFFE000000000FF
(1445275670.358956) can0 1D8#43E0303135303734
(1445275670.359291) can0 1E0#E017BD80C18B1C00
(1445275670.359293) can0 2C3#505400FFFF012975
(1445275670.362931) can0 008#80008000F57C8199
(1445275670.363204) can0 010#F831B02F80000000
(1445275670.363461) can0 1D0#61080A2BD2C5EC00
(1445275670.363735) can0 405#2200000000000000
(1445275670.364016) can0 055#809C00B227F3F7F3
(1445275670.364283) can0 065#01F98E00F7F1E34F
(1445275670.364641) can0 070#005BF1F9F8444000
(1445275670.364642) can0 075#585423098F99E900
(1445275670.364867) can0 080#802DF9F200804FE2
(1445275670.365154) can0 0B0#A352C1F9A2668352
(1445275670.365443) can0 145#211040FC85D0F2FD
(1445275670.365743) can0 0E0#00E28000C0017162
(1445275670.365744) can0 2C0#E5B0001400000000
(1445275670.366082) can0 2C5#7000E000001BB700
(1445275670.367854) can0 072#388078003FFF00F0
(1445275670.368072) can0 3B0#00C6A8B938B9D800
(1445275670.368427) can0 0F5#00B2537F80008000
(1445275670.368679) can0 120#8955FA7F80008000
(1445275670.368968) can0 130#11FFB300001DFFA7
(1445275670.369211) can0 150#C0B3F7E047FB0000
(1445275670.370328) can0 288#80000000EF10DFCC
(1445275670.370664) can0 125#34D7D0C1E67EB7E5
(1445275670.372927) can0 008#80008000E58C8199
(1445275670.373265) can0 010#F831B02F80000000
(1445275670.374209) can0 260#F0DC16495500FFD0
(1445275670.375369) can0 3C8#8E0024888E012975
(1445275670.377109) can0 350#80000000000000A2
(1445275670.378368) can0 1B0#EC00B0000000C000
(1445275670.378682) can0 1B5#EFFFE000000000FF
(1445275670.378967) can0 1D8#43E0303135303734
(1445275670.379208) can0 1E0#E017BD80C17B2000
(1445275670.382924) can0 008#80008000D59C8199
(1445275670.383185) can0 010#F831B02F80000000
(1445275670.383438) can0 072#38A078003FFF00F0
(1445275670.383736) can0 1D0#61000A2BD2C5EC00
(1445275670.384013) can0 055#809C00B227F4F7F3
(1445275670.384338) can0 065#01F98E00F7F3E354
(1445275670.384339) can0 070#005BF1F9F8434000
(1445275670.384675) can0 075#585423098F99E900
(1445275670.384977) can0 080#802DF9F200804FE0
(1445275670.385269) can0 0B0#A352C1F9A2658352
(1445275670.385270) can0 145#A10040FC85D0F2FD
(1445275670.385640) can0 0E0#00C28000C8017162
(1445275670.385948) can0 210#45A809ADA080E03C
(1445275670.385949) can0 28C#8DBE300000004000
(1445275670.386244) can0 2B5#3E22A9B3722AA94B
(1445275670.386491) can0 370#3CD3437600900004
(1445275670.388418) can0 0F5#00A2577F80008000
(1445275670.388695) can0 120#8955FC7F80008000
(1445275670.388989) can0 130#11FFA300001DFFAF
(1445275670.389312) can0 150#C0A3F7E057FF0000
(1445275670.389607) can0 3CA#C000005500000000
(1445275670.390618) can0 125#34D7D0C1E67EB7E5
(1445275670.392867) can0 008#80008000C5AC8199
(1445275670.393477) can0 010#F931B02F80000000
(1445275670.393688) can0 2A9#840000C0D300268C
(1445275670.395460) can0 288#80000000EF10DFD0
(1445275670.398228) can0 072#388078003FFF00F0
(1445275670.398516) can0 1B0#EC00B0000000C000
(1445275670.398802) can0 1B5#EFFFE000000000FF
