(1445275809.369051) can0 1D8#43E0303135303734
(1445275809.369303) can0 1E0#E017BD80C1EB0400
(1445275809.370378) can0 288#800000001FE0DFC0
(1445275809.370708) can0 008#80008000F57C8199
(1445275809.371965) can0 0E0#00C28000C8017162
(1445275809.373357) can0 260#F0DC1649AA00FFD0
(1445275809.374840) can0 010#F931B02F80000000
(1445275809.375066) can0 072#38A078003FFF00F0
(1445275809.377200) can0 125#34D7D0C1E67EB7E5
(1445275809.378570) can0 0F5#00426F7F80008000
(1445275809.378809) can0 120#8955FA7F80008000
(1445275809.379053) can0 130#11FF4300001DFFDF
(1445275809.379327) can0 150#C043F7E0B7FD0000
(1445275809.380642) can0 008#80008000E58C8199
(1445275809.380929) can0 055#809C00B227F3F7F3
(1445275809.381176) can0 065#01F98E00F7F3E354
(1445275809.381448) can0 070#005BF1F9F83F4000
(1445275809.381716) can0 075#585423098F99E900
(1445275809.381994) can0 080#802DF9F200804FE0
(1445275809.382316) can0 0B0#A352C1F9A2688352
(1445275809.382320) can0 145#211040FC85D0F2FD
(1445275809.382581) can0 28C#84BE300000004000
(1445275809.382829) can0 2B5#3822A9B3721F1F4B
(1445275809.383077) can0 2C0#E5B0001400000000
(1445275809.383321) can0 2C5#7000E000001CA700
(1445275809.383556) can0 370#3CD7437600900004
(1445275809.383800) can0 3AF#2000000000000000
(1445275809.384069) can0 3E0#8580984E18000000
(1445275809.385052) can0 010#F831B02F80000000
(1445275809.385306) can0 1D0#610A0A2BD2C5EC00
(1445275809.385595) can0 210#4DA709B3A080E025
(1445275809.385841) can0 3C8#8E0024888E012975
(1445275809.388612) can0 1B0#EC00B0000000C000
(1445275809.388906) can0 1B5#EFFFE000000000FF
(1445275809.389180) can0 1D8#43E0303135303734
(1445275809.389515) can0 072#388078003FFF00F0
(1445275809.389807) can0 1E0#E017BD80C1DB0800
(1445275809.389808) can0 2C3#505400FFFF012975
(1445275809.390616) can0 008#80008000D59C8199
(1445275809.391924) can0 0E0#00A28000D0017162
(1445275809.394701) can0 010#F831B02F80000000
(1445275809.394960) can0 2A9#840000C0CA00268C
(1445275809.395309) can0 288#800000001FE0DFC0
(1445275809.397138) can0 125#34D7D0C1E67EB7E5
(1445275809.398584) can0 0F5#0032737F80008000
(1445275809.398854) can0 120#8955FB7F80008000
(1445275809.399081) can0 130#11FF3300001DFFE7
(1445275809.399322) can0 150#C033F7E0C7FF0000
(1445275809.400661) can0 008#80008000C5AC8199
(1445275809.400931) can0 055#809C00B227F0F7EF
(1445275809.401204) can0 065#01F78E00F7F1E354
(1445275809.401478) can0 070#005BF1F7F83F4000
(1445275809.401731) can0 075#585423098F99E900
(1445275809.402000) can0 080#802DF8F200804FDA
(1445275809.402272) can0 0B0#A352C1F7A2688352
(1445275809.402511) can0 145#A10040FC85D0F2FD
(1445275809.403269) can0 260#F0DC15495500FFD0
(1445275809.404895) can0 010#F831B02F80000000
(1445275809.405167) can0 072#38A078003FFF00F0
(1445275809.405453) can0 1D0#61000A2BD2C5EC00
(1445275809.408588) can0 1B0#EC00B0000000C000
(1445275809.408857) can0 1B5#EFFFE000000000FF
(1445275809.409127) can0 1D8#43E0303135303734
(1445275809.409489) can0 1E0#E017BD8081DB0800
(1445275809.409743) can0 210#45A709B3A080E025
(1445275809.410690) can0 008#80008000B5BC8199
(1445275809.411937) can0 0E0#00828000D8017162
(1445275809.414813) can0 010#F831B02F80000000
(1445275809.417149) can0 125#34D7D0C1E67EB7E5
(1445275809.418632) can0 0F5#0022777F80008000
(1445275809.418846) can0 120#8955FA7F80008000
(1445275809.419084) can0 130#11FF2300001DFFEF
(1445275809.419331) can0 150#C023F7E0D7FD0000
(1445275809.419598) can0 072#388078003FFF00F0
(1445275809.419815) can0 360#01A06EA7D2012975
(1445275809.420366) can0 288#800000000FF0DFC0
(1445275809.420684) can0 350#80000000000000A2
(1445275809.420948) can0 008#80008000A5CC8199
(1445275809.421251) can0 055#809C00B227F1F7F0
(1445275809.421527) can0 065#01F78E01F7F0E352
(1445275809.421843) can0 070#005BF1F8F83F4000
(1445275809.422120) can0 075#585423098F99E900
(1445275809.422121) can0 080#802DF7F200804FD7
(1445275809.422365) can0 0B0#A352C1F7A2688352
(1445275809.422683) can0 145#211040FC85D0F2FD
(1445275809.422971) can0 28C#85BE310000004000
(1445275809.423182) can0 2B5#3822A9B3721F1F4B
(1445275809.424846) can0 010#F831B02F80000000
(1445275809.425082) can0 1D0#61000A2BD2C5EC00
(1445275809.425308) can0 390#67591A020005FFE4
(1445275809.428619) can0 1B0#EC00B0000000C000
(1445275809.428901) can0 1B5#EFFFE000000000FF
(1445275809.429188) can0 1D8#43E0303135303734
(1445275809.429513) can0 1E0#E017BD80C1CB0C00
(1445275809.429804) can0 2C3#505400FFFF012975
(1445275809.430683) can0 008#8000800095DC8199
(1445275809.431934) can0 0E0#00628000E0017162
(1445275809.433357) can0 260#F0DC16495500FFD0
(1445275809.434704) can0 010#F831B02F80000000
(1445275809.434958) can0 072#38A078003FFF00F0
(1445275809.435270) can0 210#45A809B3A080E025
(1445275809.435484) can0 2A9#840000C0D300268C
(1445275809.437176) can0 125#34D7D0C1E67EB7E5
(1445275809.438655) can0 0F5#00127B7F80008000
(1445275809.438871) can0 120#8955F87F80008000
(1445275809.439120) can0 130#11FF1300001DFFF7
(1445275809.439328) can0 150#C013F7E0E7FD0000
(1445275809.440706) can0 008#8000800085EC8199
(1445275809.440959) can0 055#809C00B227F1F7F0
(1445275809.441218) can0 065#01F88E01F7F0E352
(1445275809.441486) can0 070#005BF1F8F83F4000
(1445275809.441775) can0 075#585423098F99E900
(1445275809.442072) can0 080#802DF7F200804FD9
(1445275809.442339) can0 0B0#A352C1F7A2688352
(1445275809.442340) can0 145#211040FC85D0F2FD
(1445275809.442685) can0 2C0#E5B0001400000000
(1445275809.442933) can0 2C5#7000E000001CA700
(1445275809.444796) can0 010#F831B02F80000000
(1445275809.445075) can0 1D0#61000A2BD2C5EC00
(1445275809.445336) can0 288#800000000FF0DFCC
(1445275809.448597) can0 1B0#EC00B0000000C000
(1445275809.448883) can0 1B5#EFFFE000000000FF
(1445275809.449157) can0 1D8#43E0303135303734
(1445275809.449522) can0 1E0#E017BD80C1BB1000
(1445275809.449804) can0 072#388078003FFF00F0
(1445275809.449805) can0 3B0#00C6A4B93CB9D800
(1445275809.450649) can0 008#8000800075FC8199
(1445275809.451908) can0 0E0#00428000E8017162
(1445275809.454752) can0 010#F931B02F80000000
(1445275809.455016) can0 400#1B03020000020100
(1445275809.457134) can0 125#34D7D0C1E67EB7E5
(1445275809.458607) can0 0F5#00027F7F80008000
(1445275809.458822) can0 120#8955F97F80008000
(1445275809.459082) can0 130#11FF0300001DFFFF
(1445275809.459368) can0 150#C003F7E0F8000000
(1445275809.459578) can0 3CA#C000005200000000
(1445275809.459822) can0 210#4DA809B3A080E025
(1445275809.460594) can0 008#80008000650C8199
(1445275809.460928) can0 055#809C00B227EEF7EE
(1445275809.461179) can0 065#01F88E01F7F1E356
(1445275809.461471) can0 070#005BF1F6F83F4000
(1445275809.461748) can0 075#585423098F99E900
(1445275809.462056) can0 080#802DF8F200804FDA
(1445275809.462057) can0 0B0#A352C1F8A2688352
(1445275809.462344) can0 145#A10040FC85D0F2FD
(1445275809.462562) can0 28C#85BE310000004000
(1445275809.462810) can0 2B5#3622A9B3721F1F4B
(1445275809.463313) can0 260#F0DC16495500FFD0
(1445275809.464886) can0 010#F831B02F80000000
(1445275809.465143) can0 072#38A078003FFF00F0
(1445275809.465471) can0 1D0#610A0A2BD2C5EC00
(1445275809.468617) can0 1B0#EC00B0000000C000
(1445275809.468957) can0 1B5#EFFFE000000000FF
(1445275809.469234) can0 1D8#43E0303135303734
(1445275809.469524) can0 1E0#E017BD8081BB1000
(1445275809.469792) can0 2C3#505400FFFF012975
(1445275809.470363) can0 288#800000000FF0DFC4
(1445275809.470707) can0 008#80008000551C8199
(1445275809.471912) can0 0E0#00238000F0007162
(1445275809.474849) can0 010#F831B02F80000000
(1445275809.475109) can0 2A9#840000C0CA00268C
(1445275809.477100) can0 125#34D7D0C1E67EB7E5
(1445275809.478584) can0 0F5#00F2437F80008000
(1445275809.478824) can0 120#8955FA7F80008000
(1445275809.479069) can0 130#11FFF300001DFF87
(1445275809.479329) can0 150#C0F3F7E007FD0000
(1445275809.479578) can0 072#388078003FFF00F0
(1445275809.480694) can0 008#80008000452C8199
(1445275809.480956) can0 055#809C00B227EEF7EE
(1445275809.481219) can0 065#01F68E00F7EFE352
(1445275809.481466) can0 070#005BF1F6F83F4000
(1445275809.481722) can0 075#585423098F99E900
(1445275809.481998) can0 080#802DF6F200804FD3
(1445275809.482298) can0 0B0#A352C1F6A2698352
(1445275809.482644) can0 145#211040FC85D0F2FD
(1445275809.482645) can0 370#3CD3437600900004
(1445275809.484725) can0 010#F831B02F80000000
(1445275809.484992) can0 1D0#61000A2BD2C5EC00
(1445275809.485210) can0 210#45A809B32080E025
(1445275809.488629) can0 1B0#EC00B0000000C000
(1445275809.488846) can0 1B5#EFFFE000000000FF
(1445275809.489079) can0 1D8#43E0303135303734
(1445275809.489364) can0 1E0#E017BD80C1AB1400
(1445275809.490654) can0 008#80008000353C8199
(1445275809.491909) can0 0E0#00028000F8017162
(1445275809.493381) can0 260#F0DC1649AA00FFD0
(1445275809.494781) can0 010#F831B02F80000000
(1445275809.495022) can0 072#38A078003FFF00F0
(1445275809.495343) can0 288#800000000FF0DFCC
(1445275809.497148) can0 125#34D7D0C1E67EB7E5
(1445275809.498602) can0 0F5#00E2477F80008000
(1445275809.498823) can0 120#8955F97F80008000
(1445275809.499035) can0 130#11FFE300001DFF8F
(1445275809.499324) can0 150#C0E3F7E017FE0000
(1445275809.500679) can0 008#80008000254C8199
(1445275809.500944) can0 055#809C00B227F0F7F0
(1445275809.501248) can0 065#01F78E00F7EFE352
(1445275809.501554) can0 070#005BF1F7F83F4000
(1445275809.501840) can0 075#585423098F99E900
(1445275809.501841) can0 080#802DF8F200804FDA
(1445275809.502093) can0 0B0#A352C1F7A2698352
(1445275809.502337) can0 145#211040FC85D0F2FD
(1445275809.502558) can0 28C#85BE310000004000
(1445275809.502808) can0 2B5#3622A9B3721F1F4B
(1445275809.503058) can0 2C0#E5B0001400000000
(1445275809.503308) can0 2C5#7000E000001CA700
(1445275809.503556) can0 3AF#2000000000000000
(1445275809.504967) can0 010#F831B02F80000000
(1445275809.505260) can0 1D0#61000A2BD2C5EC00
(1445275809.505509) can0 3C8#8E0024888E012975
(1445275809.508612) can0 1B0#EC00B0000000C000
(1445275809.508930) can0 1B5#EFFFE000000000FF
(1445275809.509218) can0 1D8#43E0303135303734
(1445275809.509510) can0 1E0#E017BD80C19B1800
(1445275809.509810) can0 072#388078003FFF00F0
(1445275809.509811) can0 210#4DA709B3A080E025
(1445275809.510057) can0 2C3#505400FFFF012975
(1445275809.510597) can0 008#80008000155C8199
(1445275809.510842) can0 350#80000000000000A2
(1445275809.511872) can0 0E0#00E28000C0017162
(1445275809.514727) can0 010#F831B02F80000000
(1445275809.514952) can0 2A9#840000C0D300268C
(1445275809.517121) can0 125#34D7D0C1E67EB7E5
(1445275809.518566) can0 0F5#00D24B7F80008000
(1445275809.518826) can0 120#8955F87F80008000
(1445275809.519064) can0 130#11FFD300001DFF97
(1445275809.519327) can0 150#C0D3F7E028010000
(1445275809.519577) can0 360#01A06EA7D2012975
(1445275809.520373) can0 288#80000000FF00DFC4
(1445275809.520703) can0 008#80008000056C8199
(1445275809.520954) can0 055#809C00B227F1F7F0
(1445275809.521204) can0 065#01F78E00F7F0E356
(1445275809.521507) can0 070#005BF1F8F83F4000
(1445275809.521843) can0 075#585423098F99E900
(1445275809.521844) can0 080#802DF8F200804FDA
(1445275809.522122) can0 0B0#A352C1F8A2698352
(1445275809.522394) can0 145#A10040FC85D0F2FD
(1445275809.523346) can0 260#F0DC1649AA00FFD0
(1445275809.524862) can0 010#F831B02F80000000
(1445275809.525133) can0 072#38A078003FFF00F0
(1445275809.525354) can0 1D0#61000A2BD2C5EC00
(1445275809.525662) can0 390#47591A020005FFE4
(1445275809.528585) can0 1B0#EC00B0000000C000
(1445275809.528867) can0 1B5#EFFFE000000000FF
(1445275809.529122) can0 1D8#43E0303135303734
(1445275809.529333) can0 1E0#E017BD80819B1800
(1445275809.530686) can0 008#80008000F57C8199
(1445275809.531908) can0 0E0#00C28000C8017162
(1445275809.534580) can0 010#F931B02F80000000
(1445275809.534766) can0 210#4DA809B3A080E025
(1445275809.535037) can0 3D0#C3800338006109A4
(1445275809.537098) can0 125#34D7D0C1E67EB7E5
(1445275809.538606) can0 0F5#00C24F7F80008000
(1445275809.538823) can0 120#8955FB7F80008000
(1445275809.539085) can0 130#11FFC300001DFF9F
(1445275809.539369) can0 150#C0C3F7E037FE0000
(1445275809.539587) can0 072#388078003FFF00F0
(1445275809.540621) can0 008#80008000E58C8199
(1445275809.540929) can0 055#809C00B227EEF7ED
(1445275809.541201) can0 065#01F68E00F7EFE356
(1445275809.541491) can0 070#005BF1F6F83F4000
(1445275809.541774) can0 075#585423098F99E900
(1445275809.542083) can0 080#802DF6F200804FD4
(1445275809.542084) can0 0B0#A352C1F6A2698352
(1445275809.542331) can0 145#211040FC85D0F2FD
(1445275809.542582) can0 28C#85BE300000004000
(1445275809.542808) can0 2B5#3722A9B3721F1F4B
(1445275809.544898) can0 010#F831B02F80000000
(1445275809.545170) can0 1D0#610A0A2BD2C5EC00
(1445275809.545468) can0 288#80000000FF00DFC4
(1445275809.548537) can0 1B0#EC00B0000000C000
(1445275809.548830) can0 1B5#EFFFE000000000FF
(1445275809.549082) can0 1D8#43E0303135303734
(1445275809.549399) can0 1E0#E017BD80C18B1C00
(1445275809.549711) can0 2C3#505400FFFF012975
(1445275809.550624) can0 008#80008000D59C8199
(1445275809.551884) can0 0E0#00A38000D0007162
(1445275809.553381) can0 260#F0DC1649AA00FFD0
(1445275809.554733) can0 010#F831B02F80000000
(1445275809.555016) can0 072#38A078003FFF00F0
(1445275809.555284) can0 2A9#840000C0CA00268C
(1445275809.557123) can0 125#34D7D0C1E67EB7E5
(1445275809.558605) can0 0F5#00B2537F80008000
(1445275809.558822) can0 120#8955F87F80008000
(1445275809.559077) can0 130#11FFB300001DFFA7
(1445275809.559368) can0 150#C0B3F7E047FE0000
(1445275809.559561) can0 210#45A709B3A080E024
(1445275809.560647) can0 008#80008000C5AC8199
(1445275809.560935) can0 055#809C00B227F2F7F2
(1445275809.561181) can0 065#01F68E00F7EEE350
(1445275809.561492) can0 070#005BF1F8F83F4000
(1445275809.561792) can0 075#585423098F99E900
(1445275809.562084) can0 080#802DF6F200804FD3
(1445275809.562085) can0 0B0#A352C1F6A2698352
(1445275809.562330) can0 145#211040FC85D0F2FD
(1445275809.562552) can0 2C0#E5B0001400000000
(1445275809.562810) can0 2C5#7000E000001CA700
(1445275809.564930) can0 010#F831B02F80000000
(1445275809.565168) can0 1D0#61000A2BD2C5EC00
(1445275809.568595) can0 1B0#EC00B0000000C000
(1445275809.568890) can0 1B5#EFFFE000000000FF
(1445275809.569107) can0 1D8#43E0303135303734
(1445275809.569365) can0 1E0#E017BD80C17B2000
(1445275809.569581) can0 072#388078003FFF00F0
(1445275809.569895) can0 3B0#00C4A4B938B9D800
(1445275809.570412) can0 288#80000000FF00DFC0
(1445275809.570714) can0 008#80008000B5BC8199
(1445275809.571857) can0 0E0#00828000D8017162
(1445275809.574791) can0 010#F831B02F80000000
(1445275809.577099) can0 125#34D7D0C1E67EB7E5
(1445275809.578542) can0 0F5#00A2577F80008000
(1445275809.578827) can0 120#8955FA7F80008000
(1445275809.579104) can0 130#11FFA300001DFFAF
(1445275809.579312) can0 150#C0A3F7E057FE0000
(1445275809.579555) can0 3CA#C000005300000000
(1445275809.580652) can0 008#80008000A5CC8199
(1445275809.580961) can0 055#809C00B227F2F7F1
(1445275809.581250) can0 065#01F88E00F7F1E350
(1445275809.581506) can0 070#005BF1F8F83F4000
(1445275809.581784) can0 075#585423098F99E900
(1445275809.582082) can0 080#802DF8F200804FDC
(1445275809.582488) can0 0B0#A352C1F8A2688352
(1445275809.582490) can0 145#A10040FC85D0F2FD
(1445275809.582756) can0 28C#85BE300000004000
(1445275809.583094) can0 2B5#3722A9B3721F1F4B
(1445275809.583095) can0 370#3CD3437600900004
(1445275809.583467) can0 260#F0DC16495500FFD0
(1445275809.584925) can0 010#F831B02F80000000
(1445275809.585228) can0 072#38A078003FFF00F0
(1445275809.585504) can0 1D0#61000A2BD2C5EC00
(1445275809.585774) can0 210#4DA809B3A080E024
(1445275809.588587) can0 1B0#EC00B0000000C000
(1445275809.588868) can0 1B5#EFFFE000000000FF
(1445275809.589082) can0 1D8#43E0303135303734
(1445275809.589331) can0 1E0#E017BD80817B2000
(1445275809.589580) can0 2C3#505400FFFF012975
(1445275809.590641) can0 008#8000800095DC8199
(1445275809.591866) can0 0E0#00628000E0017162
(1445275809.594562) can0 010#F831B02F80000000
(1445275809.594825) can0 2A9#840000C0C200268C
(1445275809.595412) can0 288#80000000FF00DFC8
(1445275809.597095) can0 125#34D7D0C1E67EB7E5
(1445275809.598596) can0 0F5#00925B7F80008000
(1445275809.598843) can0 120#8955FA7F80008000
(1445275809.599081) can0 130#11FF9300001DFFB7
(1445275809.599338) can0 072#388078003FFF00F0
(1445275809.599585) can0 150#C093F7E067FF0000
(1445275809.600648) can0 008#8000800085EC8199
(1445275809.600906) can0 350#80000000000000A2
(1445275809.601206) can0 055#809C00B227F0F7EF
(1445275809.601519) can0 065#01F88DFFF7F2E353
(1445275809.601783) can0 070#005BF1F7F83F4000
(1445275809.602057) can0 075#585423098F99E900
(1445275809.602058) can0 080#802DF9F200804FDE
(1445275809.602304) can0 0B0#A352C1F8A2698352
(1445275809.602561) can0 145#211040FC85D0F2FD
(1445275809.604924) can0 010#F831B02F80000000
(1445275809.605186) can0 1D0#61000A2BD2C5EC00
(1445275809.608560) can0 1B0#EC00B0000000C000
(1445275809.608845) can0 1B5#EFFFE000000000FF
(1445275809.609127) can0 1D8#43E0303135303734
(1445275809.609394) can0 1E0#E017BD80C16B2400
(1445275809.610095) can0 210#45A809B3A080E024
(1445275809.610648) can0 008#8000800075FC8199
(1445275809.611854) can0 0E0#00428000E8017162
(1445275809.613405) can0 260#F0DC16495500FFD0
(1445275809.614757) can0 010#F931B02F80000000
(1445275809.614961) can0 072#38A078003FFF00F0
(1445275809.615209) can0 405#0000000000000000
(1445275809.617098) can0 125#34D7D0C1E67EB7E5
(1445275809.618631) can0 0F5#00825F7F80008000
(1445275809.618850) can0 120#8955F97F80008000
(1445275809.619113) can0 130#11FF8300001DFFBF
(1445275809.619331) can0 150#C083F7E077FF0000
(1445275809.619612) can0 360#01A06EA7D2012975
(1445275809.620518) can0 288#80000000EF10DFC4
(1445275809.620731) can0 008#80008000650C8199
(1445275809.621021) can0 055#809C00B227F0F7EF
(1445275809.621351) can0 065#01F78E00F7F0E350
(1445275809.621627) can0 070#005BF1F7F83F4000
(1445275809.621628) can0 075#585423098F99E900
(1445275809.621931) can0 080#802DF7F200804FD7
(1445275809.622184) can0 0B0#A352C1F7A2698352
(1445275809.622508) can0 145#211040FC85D0F2FD
(1445275809.622811) can0 28C#85BE300000004000
(1445275809.622812) can0 2B5#3722A9B3721F1F4B
(1445275809.623059) can0 2C0#E5B0001400000000
(1445275809.623307) can0 2C5#7000E000001CA700
(1445275809.623555) can0 3AF#2000000000000000
(1445275809.624846) can0 010#F831B02F80000000
(1445275809.625065) can0 1D0#610A0A2BD2C5EC00
(1445275809.625310) can0 390#475B12020005FFE4
(1445275809.625557) can0 3C8#8E0024888E012975
(1445275809.628587) can0 1B0#EC00B0000000C000
(1445275809.628843) can0 1B5#EFFFE000000000FF
(1445275809.629095) can0 1D8#43E0303135303734
(1445275809.629377) can0 1E0#E017BD80C15B2800
(1445275809.629718) can0 072#388078003FFF00F0
(1445275809.629966) can0 2C3#505400FFFF012975
(1445275809.630557) can0 008#80008000551C8199
(1445275809.631881) can0 0E0#00238000F0007162
(1445275809.634608) can0 010#F831B02F80000000
(1445275809.634825) can0 210#45A809B32080E024
(1445275809.635082) can0 2A9#840000C0DB00268C
(1445275809.637070) can0 125#34D7D0C1E67EB7E5
(1445275809.638629) can0 0F5#0072637F80008000
(1445275809.638818) can0 120#8955F97F80008000
(1445275809.639077) can0 130#11FF7300001DFFC7
(1445275809.639319) can0 150#C073F7E087FE0000
(1445275809.640652) can0 008#80008000452C8199
(1445275809.640920) can0 055#809C00B227F2F7F2
(1445275809.641203) can0 065#01F88E00F7F1E350
(1445275809.641490) can0 070#005BF1F8F83F4000
(1445275809.641774) can0 075#585423098F99E900
(1445275809.642081) can0 080#802DF8F200804FDE
(1445275809.642082) can0 0B0#A352C1F8A2698352
(1445275809.642307) can0 145#A10040FC85D0F2FD
(1445275809.643371) can0 260#F0DC17495500FFD0
(1445275809.644795) can0 010#F831B02F80000000
(1445275809.645058) can0 072#38A078003FFF00F0
(1445275809.645307) can0 1D0#61000A2BD2C5EC00
(1445275809.645558) can0 288#80000000EF10DFC8
(1445275809.648563) can0 1B0#EC00B0000000C000
(1445275809.648833) can0 1B5#EFFFE000000000FF
(1445275809.649052) can0 1D8#43E0303135303734
(1445275809.649332) can0 1E0#E017BD80815B2800
(1445275809.650604) can0 008#80008000353C8199
(1445275809.651859) can0 0E0#00028000F8017162
(1445275809.654761) can0 010#F831B02F80000000
(1445275809.657069) can0 125#34D7D0C1E67EB7E5
(1445275809.658605) can0 0F5#0062677F80008000
(1445275809.658886) can0 120#8955F97F80008000
(1445275809.659222) can0 130#11FF6300001DFFCF
(1445275809.659526) can0 150#C063F7E097FF0000
(1445275809.659527) can0 072#388078003FFF00F0
(1445275809.659827) can0 210#4DA809B3A080E024
(1445275809.660554) can0 008#80008000254C8199
(1445275809.660929) can0 055#809C00B227F2F7F2
(1445275809.661202) can0 065#01F88E00F7F2E350
(1445275809.661467) can0 070#005BF1F8F83F4000
(1445275809.661758) can0 075#585423098F99E900
(1445275809.662056) can0 080#802DF8F200804FDE
(1445275809.662057) can0 0B0#A352C1F8A2698352
(1445275809.662341) can0 145#211040FC85D0F2FD
(1445275809.662706) can0 28C#85BE300000004000
(1445275809.662955) can0 2B5#3622A9B3721F1F4B
(1445275809.664831) can0 010#F831B02F80000000
(1445275809.665072) can0 1D0#61000A2BD2C5EC00
(1445275809.668634) can0 1B0#EC00B0000000C000
(1445275809.668846) can0 1B5#EFFFE000000000FF
(1445275809.669083) can0 1D8#43E0303135303734
(1445275809.669341) can0 1E0#E017BD80C14B2C00
(1445275809.669577) can0 2C3#505400FFFF012975
(1445275809.670519) can0 288#80000000EF10DFC4
(1445275809.670701) can0 008#80008000155C8199
(1445275809.671834) can0 0E0#00E28000C0017162
(1445275809.673525) can0 260#F0DC16495500FFD0
(1445275809.674625) can0 010#F831B02F80000000
(1445275809.674879) can0 072#38A078003FFF00F0
(1445275809.675171) can0 2A9#840000C0C200268C
(1445275809.677067) can0 125#34D7D0C1E67EB7E5
(1445275809.678632) can0 0F5#00526B7F80008000
(1445275809.678846) can0 120#8955FA7F80008000
(1445275809.679119) can0 130#11FF5300001DFFD7
(1445275809.679339) can0 150#C053F7E0A7FD0000
(1445275809.680626) can0 008#80008000056C8199
(1445275809.680914) can0 055#809C00B227F3F7F2
(1445275809.681187) can0 065#01F98E00F7F2E350
(1445275809.681484) can0 070#005BF1F9F83F4000
(1445275809.681730) can0 075#585423098F99E900
(1445275809.682049) can0 080#802DF9F200804FDF
(1445275809.682375) can0 0B0#A352C1F9A2698352
(1445275809.682376) can0 145#211040FC85D0F2FD
(1445275809.682690) can0 2C0#E5B0001400000000
(1445275809.683035) can0 2C5#7000E000001CA700
(1445275809.683036) can0 370#3CD3437600900004
(1445275809.683306) can0 3E0#8580984E18000000
(1445275809.685126) can0 010#F831B02F80000000
(1445275809.685506) can0 1D0#61000A2BD2C5EC00
(1445275809.685703) can0 210#45A809B3A080E024
(1445275809.688629) can0 1B0#EC00B0000000C000
(1445275809.688844) can0 1B5#EFFFE000000000FF
(1445275809.689081) can0 1D8#43E0303135303734
(1445275809.689366) can0 1E0#E017BD80C13B3000
(1445275809.689577) can0 072#388078003FFF00F0
(1445275809.689823) can0 3B0#02C4A4B938B9D800
(1445275809.690566) can0 008#80008000F57C8199
(1445275809.690829) can0 350#80000000000000A2
(1445275809.691811) can0 0E0#00C28000C8017162
(1445275809.694943) can0 010#F931B02F80000000
(1445275809.695490) can0 288#80000000EF10DFC8
(1445275809.697016) can0 125#34D7D0C1E67EB7E5
(1445275809.698601) can0 0F5#00426F7F80008000
(1445275809.698815) can0 120#8955F97F80008000
(1445275809.699083) can0 130#11FF4300001DFFDF
(1445275809.699328) can0 150#C043F7E0B7FF0000
(1445275809.699618) can0 3CA#C000005400000000
(1445275809.700598) can0 008#80008000E58C8199
(1445275809.700916) can0 055#809C00B227F0F7F0
(1445275809.701202) can0 065#01F98E00F7F3E353
(1445275809.701397) can0 070#005BF1F7F83F4000
(1445275809.701674) can0 075#585423098F99E900
(1445275809.701937) can0 080#802DF9F200804FDF
(1445275809.702222) can0 0B0#A352C1F9A2698352
(1445275809.702513) can0 145#A10040FC85D0F2FD
(1445275809.702810) can0 28C#85BE300000004000
(1445275809.702811) can0 2B5#3622A9B3721F1F4B
(1445275809.703466) can0 260#F0DC1649AA00FFD0
(1445275809.704534) can0 581#8100FFFFFFFFFFFF
(1445275809.704831) can0 010#F831B02F80000000
(1445275809.705058) can0 072#38A078003FFF00F0
(1445275809.705303) can0 1D0#610A0A2BD2C5EC00
(1445275809.705554) can0 400#1C00010303000300
(1445275809.708589) can0 1B0#EC00B0000000C000
(1445275809.708864) can0 1B5#EFFFE000000000FF
(1445275809.709114) can0 1D8#43E0303135303734
(1445275809.709357) can0 1E0#E017BD80813B3000
(1445275809.709681) can0 210#4DA709B3A080E024
(1445275809.709932) can0 2C3#505400FFFF012975
(1445275809.710562) can0 008#80008000D59C8199
(1445275809.711813) can0 0E0#00A28000D0017162
(1445275809.714762) can0 010#F831B02F80000000
(1445275809.714932) can0 2A9#840000C0DB00268C
(1445275809.717044) can0 125#34D7D0C1E67EB7E5
(1445275809.718605) can0 0F5#0032737F80008000
(1445275809.718821) can0 120#8955F97F80008000
(1445275809.719081) can0 130#11FF3300001DFFE7
(1445275809.719362) can0 150#C033F7E0C7FF0000
(1445275809.719648) can0 072#388078003FFF00F0
(1445275809.719893) can0 360#01A06EA7D2012975
(1445275809.720484) can0 288#80000000DF20DFBC
(1445275809.720731) can0 008#80008000C5AC8199
(1445275809.720946) can0 055#809C00B227F0F7EF
(1445275809.721169) can0 065#01F78E00F7F0E353
(1445275809.721466) can0 070#005BF1F7F83F4000
(1445275809.721755) can0 075#585423098F99E900
(1445275809.722060) can0 080#802DF7F200804FD7
(1445275809.722403) can0 0B0#A352C1F7A2688352
(1445275809.722404) can0 145#211040FC85D0F2FD
(1445275809.724972) can0 010#F831B02F80000000
(1445275809.725217) can0 1D0#61000A2BD2C5EC00
(1445275809.725488) can0 390#475C0E020005FFE4
(1445275809.728602) can0 1B0#EC00B0000000C000
(1445275809.728890) can0 1B5#EFFFE000000000FF
(1445275809.729226) can0 1D8#43E0303135303734
(1445275809.729503) can0 1E0#E017BD80C12B3400
(1445275809.730602) can0 008#80008000B5BC8199
(1445275809.731830) can0 0E0#00828000D8017162
(1445275809.733435) can0 260#F0DC1649AA00FFD0
(1445275809.734715) can0 010#F831B02F80000000
(1445275809.734978) can0 072#38A078003FFF00F0
(1445275809.735191) can0 210#4DA809B3A080E024
(1445275809.735473) can0 3D0#C3800338006109A4
(1445275809.736991) can0 125#34D7D0C1E67EB7E5
(1445275809.738577) can0 0F5#0022777F80008000
(1445275809.738863) can0 120#8955FA7F80008000
(1445275809.739112) can0 130#11FF2300001DFFEF
(1445275809.739326) can0 150#C023F7E0D7FC0000
(1445275809.740597) can0 008#80008000A5CC8199
(1445275809.740932) can0 055#809C00B227F1F7F0
(1445275809.741185) can0 065#01F78E01F7F0E352
(1445275809.741469) can0 070#005BF1F8F83F4000
(1445275809.741751) can0 075#585423098F99E900
(1445275809.742047) can0 080#802DF7F200804FD8
(1445275809.742351) can0 0B0#A352C1F7A2698352
(1445275809.742352) can0 145#211040FC85D0F2FD
(1445275809.742697) can0 28C#8BBE300000004000
(1445275809.742989) can0 2B5#3622A9B3721F1F4B
(1445275809.743253) can0 2C0#E5B0001400000000
(1445275809.743526) can0 2C5#7000E000001CA700
(1445275809.743750) can0 3AF#2000000000000000
(1445275809.744937) can0 010#F831B02F80000000
(1445275809.745170) can0 1D0#61000A2BD2C5EC00
(1445275809.745488) can0 288#80000000DF20DFC0
(1445275809.745745) can0 3C8#8E0024888E012975
(1445275809.748569) can0 1B0#EC00B0000000C000
(1445275809.748825) can0 1B5#EFFFE000000000FF
(1445275809.749064) can0 1D8#43E0303135303734
(1445275809.749288) can0 1E0#E017BD80C11B3800
(1445275809.749513) can0 072#388078003FFF00F0
(1445275809.749731) can0 2C3#505400FFFF012975
(1445275809.750597) can0 008#8000800095DC8199
(1445275809.751836) can0 0E0#00628000E0017162
(1445275809.754552) can0 010#F831B02F80000000
(1445275809.754767) can0 2A9#840000C0C200268C
(1445275809.757015) can0 125#34D7D0C1E67EB7E5
(1445275809.758604) can0 0F5#00127B7F80008000
(1445275809.758821) can0 120#8955F87F80008000
(1445275809.759081) can0 130#11FF1300001DFFF7
(1445275809.759332) can0 150#C013F7E0E7FD0000
(1445275809.759616) can0 210#45A809B3A080E024
(1445275809.760621) can0 008#8000800085EC8199
(1445275809.760954) can0 055#809C00B227F1F7F0
(1445275809.761207) can0 065#01F88E01F7F1E352
(1445275809.761489) can0 070#005BF1F8F83F4000
(1445275809.761703) can0 075#585423098F99E900
(1445275809.761933) can0 080#802DF8F200804FDA
(1445275809.762253) can0 0B0#A352C1F8A2698352
(1445275809.762506) can0 145#A10040FC85D0F2FD
(1445275809.763438) can0 260#F0DC1549AA00FFD0
(1445275809.764780) can0 010#F831B02F80000000
(1445275809.764993) can0 072#38A078003FFF00F0
(1445275809.765240) can0 1D0#61000A2BD2C5EC00
(1445275809.768605) can0 1B0#EC00B0000000C000
(1445275809.768846) can0 1B5#EFFFE000000000FF
(1445275809.769078) can0 1D8#43E0303135303734
(1445275809.769333) can0 1E0#E017BD80811B3800
(1445275809.770525) can0 288#80000000DF20DFBC
(1445275809.770739) can0 008#8000800075FC8199
(1445275809.771805) can0 0E0#00438000E8007162
(1445275809.774759) can0 010#F931B02F80000000
(1445275809.776985) can0 125#34D7D0C1E67EB7E5
(1445275809.778575) can0 0F5#00027F7F80008000
(1445275809.778828) can0 120#8955F97F80008000
(1445275809.779113) can0 130#11FF0300001DFFFF
(1445275809.779324) can0 150#C003F7E0F7FC0000
(1445275809.779576) can0 072#388078003FFF00F0
(1445275809.780569) can0 008#80008000650C8199
(1445275809.780815) can0 350#80000000000000A2
(1445275809.781101) can0 055#809C00B227EEF7ED
(1445275809.781389) can0 065#01F68E01F7EFE355
(1445275809.781727) can0 070#005BF1F6F83F4000
(1445275809.781728) can0 075#585423098F99E900
(1445275809.782031) can0 080#802DF8F200804FDA
(1445275809.782259) can0 0B0#A352C1F8A2698352
(1445275809.782466) can0 145#211040FC85D0F2FD
(1445275809.782719) can0 28C#8BBE300000004000
(1445275809.782934) can0 2B5#3622A9B3721F1F4B
(1445275809.783182) can0 370#3CD3437600900004
(1445275809.785184) can0 010#F831B02F80000000
(1445275809.785487) can0 1D0#610A0A2BD2C5EC00
(1445275809.785727) can0 210#4DA809B32080E024
(1445275809.788602) can0 1B0#EC00B0000000C000
(1445275809.788914) can0 1B5#EFFFE000000000FF
(1445275809.789186) can0 1D8#43E0303135303734
(1445275809.789509) can0 1E0#E017BD80C10B3C00
(1445275809.789510) can0 2C3#505400FFFF012975
(1445275809.790574) can0 008#80008000551C8199
(1445275809.791803) can0 0E0#00228000F0017162
(1445275809.793518) can0 260#F0DC16495500FFD0
(1445275809.794859) can0 010#F831B02F80000000
(1445275809.795072) can0 072#38A078003FFF00F0
(1445275809.795326) can0 2A9#840000C0CA00268C
(1445275809.795578) can0 288#80000000DF20DFC4
(1445275809.797041) can0 125#34D7D0C1E67EB7E5
(1445275809.798603) can0 0F5#00F2437F80008000
(1445275809.798780) can0 120#8955F97F80008000
(1445275809.799054) can0 130#11FFF300001DFF87
(1445275809.799320) can0 150#C0F3F7E007FC0000
(1445275809.800601) can0 008#80008000452C8199
(1445275809.800930) can0 055#809C00B227EEF7EE
(1445275809.801219) can0 065#01F68E00F7EFE353
(1445275809.801503) can0 070#005BF1F6F83F4000
(1445275809.801814) can0 075#585423098F99E900
(1445275809.802082) can0 080#802DF6F200804FD4
(1445275809.802083) can0 0B0#A352C1F6A2688352
(1445275809.802308) can0 145#211040FC85D0F2FD
(1445275809.802556) can0 2C0#E5B0001400000000
(1445275809.802805) can0 2C5#7000E000001CA700
(1445275809.804855) can0 010#F831B02F80000000
(1445275809.805099) can0 1D0#61000A2BD2C5EC00
(1445275809.808558) can0 1B0#EC00B0000000C000
(1445275809.808809) can0 1B5#EFFFE000000000FF
(1445275809.809056) can0 1D8#43E0303135303734
(1445275809.809388) can0 1E0#E017BD80C1FB0000
(1445275809.809681) can0 072#388078003FFF00F0
(1445275809.810013) can0 210#45A809B3A080E024
(1445275809.810013) can0 3B0#00C4A4B938B9D800
(1445275809.810566) can0 008#80008000353C8199
(1445275809.811807) can0 0E0#00038000F8007162
(1445275809.814634) can0 010#F831B02F80000000
(1445275809.816963) can0 125#34D7D0C1E67EB7E5
(1445275809.818575) can0 0F5#00E2477F80008000
(1445275809.818831) can0 120#8955FB7F80008000
(1445275809.819119) can0 130#11FFE300001DFF8F
(1445275809.819311) can0 150#C0E3F7E017FE0000
(1445275809.819553) can0 360#01A06EA7D2012975
(1445275809.819825) can0 3CA#C000005500000000
(1445275809.820510) can0 288#80000000CF30DFD0
(1445275809.820770) can0 008#80008000254C8199
(1445275809.821057) can0 055#809C00B227EFF7EE
(1445275809.821333) can0 065#01F68E00F7EFE353
(1445275809.821637) can0 070#005BF1F6F83F4000
(1445275809.822010) can0 075#585423098F99E900
(1445275809.822011) can0 080#802DF6F200804FD5
(1445275809.822307) can0 0B0#A352C1F6A2688352
(1445275809.822645) can0 145#A10040FC85D0F2FD
(1445275809.822645) can0 28C#86BE300000004000
(1445275809.822912) can0 2B5#3622A9B372201F4B
(1445275809.823471) can0 260#F0DC16495500FFD0
(1445275809.824965) can0 010#F831B02F80000000
(1445275809.825251) can0 072#38A078003FFF00F0
(1445275809.825471) can0 1D0#61000A2BD2C5EC00
(1445275809.825720) can0 390#475D0A020005FFE4
(1445275809.828564) can0 1B0#EC00B0000000C000
(1445275809.828867) can0 1B5#EFFFE000000000FF
(1445275809.829113) can0 1D8#43E0303135303734
(1445275809.829340) can0 1E0#E017BD8081FB0000
(1445275809.829579) can0 2C3#505400FFFF012975
(1445275809.830531) can0 008#80008000155C8199
(1445275809.831760) can0 0E0#00E38000C0007162
(1445275809.834788) can0 010#F831B02F80000000
(1445275809.835002) can0 210#45A709B3A080E023
(1445275809.835220) can0 2A9#840000C0D300268C
(1445275809.837015) can0 125#34D7D0C1E67EB7E5
(1445275809.838577) can0 0F5#00D24B7F80008000
(1445275809.838832) can0 120#8955F87F80008000
(1445275809.839080) can0 130#11FFD300001DFF97
(1445275809.839366) can0 150#C0D3F7E028010000
(1445275809.839692) can0 072#388078003FFF00F0
(1445275809.840533) can0 008#80008000056C8199
(1445275809.840907) can0 055#809C00B227EFF7EE
(1445275809.841176) can0 065#01F68E00F7EFE353
(1445275809.841445) can0 070#005BF1F6F83F4000
(1445275809.841714) can0 075#585423098F99E900
(1445275809.842024) can0 080#802DF6F200804FD5
(1445275809.842342) can0 0B0#A352C1F6A2688352
(1445275809.842343) can0 145#211040FC85D0F2FD
(1445275809.844838) can0 010#F831B02F80000000
(1445275809.845051) can0 1D0#61000A2BD2C5EC00
(1445275809.845493) can0 288#80000000CF30DFC4
(1445275809.848580) can0 1B0#EC00B0000000C000
(1445275809.848822) can0 1B5#EFFFE000000000FF
(1445275809.849080) can0 1D8#43E0303135303734
(1445275809.849325) can0 1E0#E017BD80C1EB0400
(1445275809.850575) can0 008#80008000F57C8199
(1445275809.851752) can0 0E0#00C28000C8017162
(1445275809.853523) can0 260#F0DC16495500FFD0
(1445275809.854754) can0 010#F931B02F80000000
(1445275809.854969) can0 072#38A078003FFF00F0
(1445275809.856988) can0 125#34D7D0C1E67EB7E5
(1445275809.858577) can0 0F5#00C24F7F80008000
(1445275809.858839) can0 120#8955FB7F80008000
(1445275809.859082) can0 130#11FFC300001DFF9F
(1445275809.859361) can0 150#C0C3F7E037FE0000
(1445275809.859709) can0 210#4DA809B3A080E023
(1445275809.860544) can0 008#80008000E58C8199
(1445275809.860919) can0 055#809C00B227EEF7EE
(1445275809.861205) can0 065#01F68E00F7EEE353
(1445275809.861487) can0 070#005BF1F6F83F4000
(1445275809.861772) can0 075#585423098F99E900
(1445275809.862092) can0 080#802DF6F200804FD4
(1445275809.862094) can0 0B0#A352C1F6A2688352
(1445275809.862339) can0 145#211040FC85D0F2FD
(1445275809.862556) can0 28C#86BE300000004000
(1445275809.862801) can0 2B5#3422A9B372201F4B
(1445275809.863041) can0 2C0#E5B0001400000000
(1445275809.863308) can0 2C5#7000E000001CA700
(1445275809.863554) can0 3AF#2000000000000000
(1445275809.864810) can0 010#F831B02F80000000
(1445275809.865055) can0 1D0#610A0A2BD2C5EC00
(1445275809.865294) can0 405#016738B0FB8AF82A
(1445275809.865540) can0 3C8#8E0024888E012975
(1445275809.868560) can0 1B0#EC00B0000000C000
(1445275809.868842) can0 1B5#EFFFE000000000FF
(1445275809.869056) can0 1D8#43E0303135303734
(1445275809.869385) can0 1E0#E017BD80C1DB0800
(1445275809.869730) can0 072#388078003FFF00F0
(1445275809.869931) can0 2C3#505400FFFF012975
(1445275809.870522) can0 288#80000000CF30DFC4
(1445275809.870781) can0 008#80008000D59C8199
(1445275809.871022) can0 350#80000000000000A2
(1445275809.871753) can0 0E0#00A28000D0017162
(1445275809.874839) can0 010#F831B02F80000000
(1445275809.875054) can0 2A9#840000C0CA00268C
(1445275809.876964) can0 125#34D7D0C1E67EB7E5
(1445275809.878575) can0 0F5#00B2537F80008000
(1445275809.878791) can0 120#8955FC7F80008000
(1445275809.879056) can0 130#11FFB300001DFFA7
(1445275809.879327) can0 150#C0B3F7E047FF0000
(1445275809.880543) can0 008#80008000C5AC8199
(1445275809.880984) can0 055#809C00B227F1F7F0
(1445275809.881196) can0 065#01F68DFFF7EEE350
(1445275809.881457) can0 070#005BF1F8F83F4000
(1445275809.881751) can0 075#585423098F99E900
(1445275809.882044) can0 080#802DF6F200804FD4
(1445275809.882362) can0 0B0#A352C1F6A2688352
(1445275809.882364) can0 145#A10040FC85D0F2FD
(1445275809.882590) can0 370#3CD7437600900004
(1445275809.883483) can0 260#F0DC1649AA00FFD0
(1445275809.884923) can0 010#F831B02F80000000
(1445275809.885197) can0 072#38A078003FFF00F0
(1445275809.885487) can0 1D0#61000A2BD2C5EC00
(1445275809.885725) can0 210#45A809B3A080E023
(1445275809.888602) can0 1B0#EC00B0000000C000
(1445275809.888819) can0 1B5#EFFFE000000000FF
(1445275809.889075) can0 1D8#43E0303135303734
(1445275809.889328) can0 1E0#E017BD8081DB0800
(1445275809.890549) can0 008#80008000B5BC8199
(1445275809.891754) can0 0E0#00838000D8007162
(1445275809.894863) can0 010#F831B02F80000000
(1445275809.895540) can0 288#80000000CF30DFC4
(1445275809.896962) can0 125#34D7D0C1E67EB7E5
(1445275809.898572) can0 0F5#00A2577F80008000
(1445275809.898780) can0 120#8955F97F80008000
(1445275809.899037) can0 130#11FFA300001DFFAF
(1445275809.899295) can0 150#C0A3F7E057FC0000
(1445275809.899567) can0 072#388078003FFF00F0
(1445275809.900545) can0 008#80008000A5CC8199
(1445275809.900918) can0 055#809C00B227F1F7F0
(1445275809.901186) can0 065#01F78DFFF7F0E350
(1445275809.901481) can0 070#005BF1F8F83F4000
(1445275809.901768) can0 075#585423098F99E900
(1445275809.902053) can0 080#802DF7F200804FD8
(1445275809.902055) can0 0B0#A352C1F7A2688352
(1445275809.902374) can0 145#211040FC85D0F2FD
(1445275809.902692) can0 28C#86BE300000004000
(1445275809.902931) can0 2B5#3422A9B372201F4B
(1445275809.904760) can0 010#F831B02F80000000
(1445275809.905023) can0 1D0#61000A2BD2C5EC00
(1445275809.908583) can0 1B0#EC00B0000000C000
(1445275809.908868) can0 1B5#EFFFE000000000FF
(1445275809.909076) can0 1D8#43E0303135303734
(1445275809.909417) can0 1E0#E017BD80C1CB0C00
(1445275809.909704) can0 210#4DA809B3A080E023
(1445275809.909986) can0 2C3#505400FFFF012975
(1445275809.910524) can0 008#8000800095DC8199
(1445275809.911731) can0 0E0#00638000E0007162
(1445275809.913522) can0 260#F0DC1549AA00FFD0
(1445275809.914751) can0 010#F831B02F80000000
(1445275809.914986) can0 072#38A078003FFF00F0
(1445275809.915259) can0 2A9#840000C0D300268C
(1445275809.916986) can0 125#34D7D0C1E67EB7E5
(1445275809.918587) can0 0F5#00925B7F80008000
(1445275809.918829) can0 120#8955F97F80008000
(1445275809.919074) can0 130#11FF9300001DFFB7
(1445275809.919322) can0 150#C093F7E067FA0000
(1445275809.919612) can0 360#01A06EA7D2012975
(1445275809.920567) can0 288#80000000BF40DFC8
(1445275809.920803) can0 008#8000800085EC8199
(1445275809.921040) can0 055#809C00B227F1F7F0
(1445275809.921300) can0 065#01F88DFFF7F1E350
(1445275809.921548) can0 070#005BF1F8F83F4000
(1445275809.921818) can0 075#585423098F99E900
(1445275809.922144) can0 080#802DF8F200804FDA
(1445275809.922488) can0 0B0#A352C1F8A2698352
(1445275809.922489) can0 145#211040FC85D0F2FD
(1445275809.922700) can0 2C0#E5B0001400000000
(1445275809.922953) can0 2C5#7000E000001CA700
(1445275809.924975) can0 010#F831B02F80000000
(1445275809.925267) can0 1D0#61000A2BD2C5EC00
(1445275809.925542) can0 390#475E06020005FFE4
(1445275809.928632) can0 1B0#EC00B0000000C000
(1445275809.928847) can0 1B5#EFFFE000000000FF
(1445275809.929079) can0 1D8#43E0303135303734
(1445275809.929362) can0 1E0#E017BD80C1BB1000
(1445275809.929558) can0 072#388078003FFF00F0
(1445275809.929818) can0 3B0#00C4A4B938B9D800
(1445275809.930543) can0 008#8000800075FC8199
(1445275809.931751) can0 0E0#00428000E8017162
(1445275809.934810) can0 010#F931B02F80000000
(1445275809.935024) can0 210#4DA809B32080E023
(1445275809.935292) can0 3D0#C3800338006109A5
(1445275809.936934) can0 125#34D7D0C1E67EB7E5
(1445275809.938602) can0 0F5#00825F7F80008000
(1445275809.938818) can0 120#8955F87F80008000
(1445275809.939080) can0 130#11FF8300001DFFBF
(1445275809.939366) can0 150#C083F7E077FF0000
(1445275809.939738) can0 3CA#C000005600000000
(1445275809.939979) can0 430#C63000000028082A
(1445275809.940529) can0 008#80008000650C8199
(1445275809.940910) can0 055#809C00B227F1F7F1
(1445275809.941177) can0 065#01F88DFFF7F1E34F
(1445275809.941481) can0 070#005BF1F8F83F4000
(1445275809.941768) can0 075#585423098F99E900
(1445275809.942105) can0 080#802DF8F200804FDC
(1445275809.942106) can0 0B0#A352C1F8A2688352
(1445275809.942346) can0 145#A10040FC85D0F2FD
(1445275809.942580) can0 28C#84BE300000004000
(1445275809.942830) can0 2B5#3722A9B3721F1F4B
(1445275809.943505) can0 260#F0DC1649AA00FFD0
(1445275809.944935) can0 010#F831B02F80000000
(1445275809.945173) can0 072#38A078003FFF00F0
(1445275809.945487) can0 1D0#610A0A2BD2C5EC00
(1445275809.945743) can0 288#80000000BF40DFC8
(1445275809.948581) can0 1B0#EC00B0000000C000
(1445275809.948841) can0 1B5#EFFFE000000000FF
(1445275809.949063) can0 1D8#43E0303135303734
(1445275809.949308) can0 1E0#E017BD8081BB1000
(1445275809.949555) can0 2C3#505400FFFF012975
(1445275809.950467) can0 008#80008000551C8199
(1445275809.951735) can0 0E0#00228000F0017162
(1445275809.954636) can0 010#F831B02F80000000
(1445275809.954847) can0 2A9#840000C0CA00268C
(1445275809.955079) can0 400#1D01000101000301
(1445275809.956987) can0 125#34D7D0C1E67EB7E5
(1445275809.958573) can0 0F5#0072637F80008000
(1445275809.958833) can0 120#8955FA7F80008000
(1445275809.959079) can0 130#11FF7300001DFFC7
(1445275809.959366) can0 150#C073F7E087FF0000
(1445275809.959754) can0 072#388078003FFF00F0
(1445275809.959755) can0 210#45A709B3A080E023
(1445275809.960568) can0 008#80008000452C8199
(1445275809.960828) can0 350#80000000000000A2
(1445275809.961112) can0 055#809C00B227F2F7F2
(1445275809.961377) can0 065#01F98DFFF7F2E34F
(1445275809.961745) can0 070#005BF1F9F83F4000
(1445275809.961747) can0 075#585423098F99E900
(1445275809.962036) can0 080#802DF9F200804FDE
(1445275809.962326) can0 0B0#A352C1F9A2688352
(1445275809.962579) can0 145#211040FC85D0F2FD
(1445275809.964790) can0 010#F831B02F80000000
(1445275809.965060) can0 1D0#61000A2BD2C5EC00
(1445275809.968572) can0 1B0#EC00B0000000C000
(1445275809.968862) can0 1B5#EFFFE000000000FF
(1445275809.969093) can0 1D8#43E0303135303734
(1445275809.969338) can0 1E0#E017BD80C1AB1400
(1445275809.970476) can0 008#80008000353C8199
(1445275809.970746) can0 288#80000000BF40DFD0
(1445275809.971685) can0 0E0#00038000F8007162
(1445275809.973519) can0 260#F0DC1649AA00FFD0
(1445275809.974686) can0 010#F831B02F80000000
(1445275809.974989) can0 072#38A078003FFF00F0
(1445275809.976966) can0 125#34D7D0C1E67EB7E5
(1445275809.978576) can0 0F5#0062677F80008000
(1445275809.978793) can0 120#8955FB7F80008000
(1445275809.979059) can0 130#11FF6300001DFFCF
(1445275809.979329) can0 150#C063F7E098010000
(1445275809.980517) can0 008#80008000254C8199
(1445275809.980917) can0 055#809C00B227F2F7F2
(1445275809.981205) can0 065#01F98E00F7F2E350
(1445275809.981454) can0 070#005BF1F9F83F4000
(1445275809.981755) can0 075#585423098F99E900
(1445275809.982040) can0 080#802DF9F200804FDE
(1445275809.982343) can0 0B0#A352C1F9A2688352
(1445275809.982344) can0 145#211040FC85D0F2FD
(1445275809.982555) can0 28C#84BE300000004000
(1445275809.982828) can0 2B5#3722A9B3721F1F4B
(1445275809.983074) can0 2C0#E5B0001400000000
(1445275809.983296) can0 2C5#7000E000001CA700
(1445275809.983572) can0 370#3CD3437600900004
(1445275809.983871) can0 3AF#2000000000000000
(1445275809.984143) can0 3E0#8580984E18000000
(1445275809.985182) can0 010#F831B02F80000000
(1445275809.985487) can0 1D0#61000A2BD2C5EC00
(1445275809.985753) can0 210#4DA709B3A080E023
(1445275809.986026) can0 3C8#8E0024888E012975
(1445275809.988533) can0 1B0#EC00B0000000C000
(1445275809.988807) can0 1B5#EFFFE000000000FF
(1445275809.989091) can0 1D8#43E0303135303734
(1445275809.989372) can0 1E0#E017BD80C19B1800
(1445275809.989702) can0 072#388078003FFF00F0
(1445275809.989703) can0 2C3#505400FFFF012975
(1445275809.990512) can0 008#80008000155C8199
(1445275809.991680) can0 0E0#00E28000C0017162
(1445275809.994811) can0 010#F831B02F80000000
(1445275809.995022) can0 2A9#840000C0C200268C
(1445275809.995565) can0 288#80000000BF40DFC0
(1445275809.996935) can0 125#34D7D0C1E67EB7E5
(1445275809.998514) can0 0F5#00526B7F80008000
(1445275809.998803) can0 120#8955F97F80008000
(1445275809.999084) can0 130#11FF5300001DFFD7
(1445275809.999326) can0 150#C053F7E0A7FD0000
(1445275810.000521) can0 008#80008000056C8199
(1445275810.000945) can0 055#809C00B227F2F7F2
(1445275810.001205) can0 065#01F98E00F7F2E350
(1445275810.001524) can0 070#005BF1F9F83F4000
(1445275810.001826) can0 075#585423098F99E900
(1445275810.002196) can0 080#802DF9F200804FDE
(1445275810.002197) can0 0B0#A352C1F9A2688352
(1445275810.002488) can0 145#A10040FC85D0F2FD
(1445275810.003514) can0 260#F0DC16495500FFD0
(1445275810.004856) can0 010#F831B02F80000000
(1445275810.005089) can0 072#38A078003FFF00F0
(1445275810.005329) can0 1D0#61000A2BD2C5EC00
(1445275810.008598) can0 1B0#EC00B0000000C000
(1445275810.008814) can0 1B5#EFFFE000000000FF
(1445275810.009080) can0 1D8#43E0303135303734
(1445275810.009399) can0 1E0#E017BD80819B1800
(1445275810.009691) can0 210#45A709B3A080E023
(1445275810.010514) can0 008#80008000F57C8199
(1445275810.011726) can0 0E0#00C28000C8017162
(1445275810.014629) can0 010#F931B02F80000000
(1445275810.016912) can0 125#34D7D0C1E67EB7E5
(1445275810.018577) can0 0F5#00426F7F80008000
(1445275810.018808) can0 120#8955FA7F80008000
(1445275810.019078) can0 130#11FF4300001DFFDF
(1445275810.019362) can0 150#C043F7E0B7FD0000
(1445275810.019735) can0 072#388078003FFF00F0
(1445275810.019736) can0 360#01A06EA7D2012975
(1445275810.020515) can0 008#80008000E58C8199
(1445275810.020772) can0 288#80000000AF50DFC8
(1445275810.021074) can0 055#809C00B227F3F7F2
(1445275810.021384) can0 065#01F98E00F7F2E350
(1445275810.021794) can0 070#005BF1F9F83F4000
(1445275810.021795) can0 075#585423098F99E900
(1445275810.022079) can0 080#802DF9F200804FDE
(1445275810.022401) can0 0B0#A352C1F9A2688352
(1445275810.022402) can0 145#211040FC85D0F2FD
(1445275810.022734) can0 28C#84BE300000004000
(1445275810.022923) can0 2B5#3722A9B3721F1F4B
(1445275810.025002) can0 010#F831B02F80000000
(1445275810.025239) can0 1D0#610A0A2BD2C5EC00
(1445275810.025513) can0 390#675E06020005FFE4
(1445275810.028579) can0 1B0#EC00B0000000C000
(1445275810.028831) can0 1B5#EFFFE000000000FF
(1445275810.029154) can0 1D8#43E0303135303734
(1445275810.029488) can0 1E0#E017BD80C18B1C00
(1445275810.029746) can0 2C3#505400FFFF012975
(1445275810.030515) can0 008#80008000D59C8199
(1445275810.031703) can0 0E0#00A28000D0017162
(1445275810.033521) can0 260#F0DC16495500FFD0
(1445275810.034808) can0 010#F831B02F80000000
(1445275810.035022) can0 072#38A078003FFF00F0
(1445275810.035290) can0 210#45A809B3A080E023
(1445275810.035566) can0 2A9#840000C0DB00268C
(1445275810.036933) can0 125#34D7D0C1E67EB7E5
(1445275810.038576) can0 0F5#0032737F80008000
(1445275810.038796) can0 120#8955FB7F80008000
(1445275810.039051) can0 130#11FF3300001DFFE7
(1445275810.039334) can0 150#C033F7E0C7FF0000
(1445275810.040572) can0 008#80008000C5AC8199
(1445275810.040957) can0 055#809C00B227F3F7F2
(1445275810.041201) can0 065#01F98E00F7F2E350
(1445275810.041514) can0 070#005BF1F9F83F4000
(1445275810.041771) can0 075#585423098F99E900
(1445275810.042073) can0 080#802DF8F200804FDE
(1445275810.042401) can0 0B0#A352C1F8A2688352
(1445275810.042402) can0 145#211040FC85D0F2FD
(1445275810.042706) can0 2C0#E5B0001400000000
(1445275810.042952) can0 2C5#7000E000001CA700
(1445275810.044833) can0 010#F831B02F80000000
(1445275810.045087) can0 1D0#61000A2BD2C5EC00
(1445275810.045577) can0 288#80000000AF50DFC8
(1445275810.048565) can0 1B0#EC00B0000000C000
(1445275810.048811) can0 1B5#EFFFE000000000FF
(1445275810.049150) can0 1D8#43E0303135303734
(1445275810.049411) can0 1E0#E017BD80C17B2000
(1445275810.049756) can0 072#388078003FFF00F0
(1445275810.049757) can0 3B0#00C4A4B93CB9FC00
(1445275810.050509) can0 008#80008000B5BC8199
(1445275810.050767) can0 350#80000000000000A2
(1445275810.051720) can0 0E0#00838000D8007162
(1445275810.054758) can0 010#F831B02F80000000
(1445275810.056911) can0 125#34D7D0C1E67EB7E5
(1445275810.058549) can0 0F5#0022777F80008000
(1445275810.058828) can0 120#8955F87F80008000
(1445275810.059143) can0 130#11FF2300001DFFEF
(1445275810.059399) can0 150#C023F7E0D7FF0000
(1445275810.059747) can0 3CA#C000004000000000
(1445275810.059748) can0 210#4DA709B3A080E023
(1445275810.060518) can0 008#80008000A5CC8199
(1445275810.060935) can0 055#809C00B227F2F7F1
(1445275810.061201) can0 065#01F98E01F7F3E352
(1445275810.061542) can0 070#005BF1F8F83F4000
(1445275810.061849) can0 075#585423098F99E900
(1445275810.062162) can0 080#802DF9F200804FDF
(1445275810.062163) can0 0B0#A352C1F9A2688352
(1445275810.062488) can0 145#A10040FC85D0F2FD
(1445275810.062724) can0 28C#84BE300000004000
(1445275810.062970) can0 2B5#3922A9B3721F1F4B
(1445275810.063513) can0 260#F0DC16495500FFD0
(1445275810.064822) can0 010#F831B02F80000000
(1445275810.065078) can0 072#38A078003FFF00F0
(1445275810.065354) can0 1D0#61000A2BD2C5EC00
(1445275810.068577) can0 1B0#EC00B0000000C000
(1445275810.068830) can0 1B5#EFFFE000000000FF
(1445275810.069112) can0 1D8#43E0303135303734
(1445275810.069396) can0 1E0#E017BD80817B2000
(1445275810.069688) can0 2C3#505400FFFF012975
(1445275810.070517) can0 008#8000800095DC8199
(1445275810.070735) can0 288#80000000AF50DFC0
(1445275810.071671) can0 0E0#00628000E0017162
(1445275810.074808) can0 010#F831B02F80000000
(1445275810.074992) can0 2A9#840000C0C200268C
(1445275810.076909) can0 125#34D7D0C1E67EB7E5
(1445275810.078561) can0 0F5#00127B7F80008000
(1445275810.078825) can0 120#8955F97F80008000
(1445275810.079145) can0 130#11FF1300001DFFF7
(1445275810.079481) can0 150#C013F7E0E7FE0000
(1445275810.079727) can0 072#388078003FFF00F0
(1445275810.080514) can0 008#8000800085EC8199
(1445275810.080967) can0 055#809C00B227F2F7F1
(1445275810.081178) can0 065#01F88E01F7F2E354
(1445275810.081478) can0 070#005BF1F8F83F4000
(1445275810.081786) can0 075#585423098F99E900
(1445275810.082058) can0 080#802DF8F200804FDC
(1445275810.082406) can0 0B0#A352C1F8A2688352
(1445275810.082407) can0 145#211040FC85D0F2FD
(1445275810.082692) can0 370#3CD3437600900004
(1445275810.085094) can0 010#F831B02F80000000
(1445275810.085307) can0 1D0#61000A2BD2C5EC00
(1445275810.085573) can0 210#45A709B32080E023
(1445275810.088575) can0 1B0#EC00B0000000C000
(1445275810.088827) can0 1B5#EFFFE000000000FF
(1445275810.089140) can0 1D8#43E0303135303734
(1445275810.089354) can0 1E0#E017BD80C16B2400
(1445275810.090501) can0 008#8000800075FC8199
(1445275810.091698) can0 0E0#00428000E8017162
(1445275810.093548) can0 260#F0DC1649AA00FFD0
(1445275810.094916) can0 010#F931B02F80000000
(1445275810.095130) can0 072#38A078003FFF00F0
(1445275810.095577) can0 288#80000000AF50DFC4
(1445275810.096911) can0 125#34D7D0C1E67EB7E5
(1445275810.098514) can0 0F5#00027F7F80008000
(1445275810.098784) can0 120#8955FB7F80008000
(1445275810.099074) can0 130#11FF0300001DFFFF
(1445275810.099329) can0 150#C003F7E0F7FD0000
(1445275810.100518) can0 008#80008000650C8199
(1445275810.100915) can0 055#809C00B227F0F7EF
(1445275810.101205) can0 065#01F78E01F7F1E354
(1445275810.101487) can0 070#005BF1F7F83F4000
(1445275810.101770) can0 075#585423098F99E900
(1445275810.102078) can0 080#802DF7F200804FD7
(1445275810.102080) can0 0B0#A352C1F7A2688352
(1445275810.102303) can0 145#211040FC85D0F2FD
(1445275810.102554) can0 28C#85BE300000004000
(1445275810.102801) can0 2B5#3922A9B3721F204B
(1445275810.103051) can0 2C0#E5B0001400000000
(1445275810.103377) can0 2C5#7000E000001CA700
(1445275810.103667) can0 3AF#2000000000000000
(1445275810.104806) can0 010#F831B02F80000000
(1445275810.105056) can0 1D0#610A0A2BD2C5EC00
(1445275810.105551) can0 3C8#8E0024888E012975
(1445275810.108532) can0 1B0#EC00B0000000C000
(1445275810.108866) can0 1B5#EFFFE000000000FF
(1445275810.109048) can0 1D8#43E0303135303734
(1445275810.109316) can0 1E0#E017BD80C15B2800
(1445275810.109576) can0 2C3#505400FFFF012975
(1445275810.109861) can0 072#388078003FFF00F0
(1445275810.110111) can0 210#4DA709B3A080E025
(1445275810.110515) can0 008#80008000551C8199
(1445275810.111702) can0 0E0#00238000F0007162
(1445275810.114628) can0 010#F831B02F80000000
(1445275810.114881) can0 2A9#840000C0DB00268C
(1445275810.115140) can0 405#024134003A012975
(1445275810.116860) can0 125#34D7D0C1E67EB7E5
(1445275810.118520) can0 0F5#00F2437F80008000
(1445275810.118789) can0 120#8955F97F80008000
(1445275810.119029) can0 130#11FFF300001DFF87
(1445275810.119272) can0 150#C0F3F7E007FE0000
(1445275810.119519) can0 360#01A06EA7D2012975
(1445275810.120541) can0 008#80008000452C8199
(1445275810.120779) can0 288#800000009F60DFCC
(1445275810.121052) can0 055#809C00B227F0F7EF
(1445275810.121303) can0 065#01F78E01F7F0E355
(1445275810.121639) can0 070#005BF1F7F83F4000
(1445275810.121971) can0 075#585423098F99E900
(1445275810.121972) can0 080#802DF7F200804FD6
(1445275810.122280) can0 0B0#A352C1F7A2688352
(1445275810.122555) can0 145#A10040FC85D0F2FD
(1445275810.123530) can0 260#F0DC1549AA00FFD0
(1445275810.125020) can0 010#F831B02F80000000
(1445275810.125234) can0 072#38A078003FFF00F0
(1445275810.125487) can0 1D0#61000A2BD2C5EC00
(1445275810.125700) can0 390#47503E020005FFE4
(1445275810.128538) can0 1B0#EC00B0000000C000
(1445275810.128775) can0 1B5#EFFFE000000000FF
(1445275810.129019) can0 1D8#43E0303135303734
(1445275810.129263) can0 1E0#E017BD80815B2800
(1445275810.130457) can0 008#80008000353C8199
(1445275810.131648) can0 0E0#00028000F8017162
(1445275810.134681) can0 010#F831B02F80000000
(1445275810.134895) can0 210#4DA709B3A080E025
(1445275810.135161) can0 3D0#C3800338006109A5
(1445275810.136883) can0 125#34D7D0C1E67EB7E5
(1445275810.138576) can0 0F5#00E2477F80008000
(1445275810.138789) can0 120#8955F97F80008000
(1445275810.139036) can0 130#11FFE300001DFF8F
(1445275810.139273) can0 150#C0E3F7E018000000
(1445275810.139523) can0 072#388078003FFF00F0
(1445275810.140499) can0 008#80008000254C8199
(1445275810.140738) can0 350#80000000000000A2
(1445275810.140990) can0 055#809C00B227EFF7EE
(1445275810.141315) can0 065#01F68E01F7EFE355
(1445275810.141617) can0 070#005BF1F6F83F4000
(1445275810.141899) can0 075#585423098F99E900
(1445275810.141900) can0 080#802DF6F200804FD5
(1445275810.142170) can0 0B0#A352C1F6A2688352
(1445275810.142486) can0 145#211040FC85D0F2FD
(1445275810.142749) can0 28C#85BE300000004000
(1445275810.143016) can0 2B5#3622A9B3721F204B
(1445275810.145024) can0 010#F831B02F80000000
(1445275810.145268) can0 1D0#61000A2BD2C5EC00
(1445275810.145593) can0 288#800000009F60DFC0
(1445275810.148567) can0 1B0#EC00B0000000C000
(1445275810.148803) can0 1B5#EFFFE000000000FF
(1445275810.149092) can0 1D8#43E0303135303734
(1445275810.149340) can0 1E0#E017BD80C14B2C00
(1445275810.149576) can0 2C3#505400FFFF012975
(1445275810.150515) can0 008#80008000155C8199
(1445275810.151673) can0 0E0#00E28000C0017162
(1445275810.153547) can0 260#F0DC1549AA00FFD0
(1445275810.154704) can0 010#F831B02F80000000
(1445275810.154921) can0 072#38A078003FFF00F0
(1445275810.155183) can0 2A9#840000C0C200268C
(1445275810.156877) can0 125#34D7D0C1E67EB7E5
(1445275810.158575) can0 0F5#00D24B7F80008000
(1445275810.158791) can0 120#8955F87F80008000
(1445275810.159051) can0 130#11FFD300001DFF97
(1445275810.159320) can0 150#C0D3F7E027FD0000
(1445275810.159570) can0 210#45A709B3A080E025
(1445275810.160546) can0 008#80008000056C8199
(1445275810.160915) can0 055#809C00B227EFF7EE
(1445275810.161201) can0 065#01F68E00F7EFE354
(1445275810.161516) can0 070#005BF1F6F83F4000
(1445275810.161784) can0 075#585423098F99E900
(1445275810.162059) can0 080#802DF6F200804FD5
(1445275810.162060) can0 0B0#A352C1F6A2688352
(1445275810.162305) can0 145#211040FC85D0F2FD
(1445275810.162558) can0 2C0#E5B0001400000000
(1445275810.162805) can0 2C5#7000E000001CA700
(1445275810.164854) can0 010#F831B02F80000000
(1445275810.165081) can0 1D0#61000A2BD2C5EC00
(1445275810.168563) can0 1B0#EC00B0000000C000
(1445275810.168841) can0 1B5#EFFFE000000000FF
(1445275810.169122) can0 1D8#43E0303135303734
(1445275810.169467) can0 1E0#E017BD80C13B3000
(1445275810.169792) can0 072#388078003FFF00F0
(1445275810.169793) can0 3B0#00C4A4B938B9D800
(1445275810.170480) can0 008#80008000F57C8199
(1445275810.170726) can0 288#800000009F60DFC4
(1445275810.171673) can0 0E0#00C28000C8017162
(1445275810.174781) can0 010#F931B02F80000000
(1445275810.176857) can0 125#34D7D0C1E67EB7E5
(1445275810.178576) can0 0F5#00C24F7F80008000
(1445275810.178798) can0 120#8955F87F80008000
(1445275810.179052) can0 130#11FFC300001DFF9F
(1445275810.179324) can0 150#C0C3F7E037FF0000
(1445275810.179617) can0 3CA#C000005100000000
(1445275810.180516) can0 008#80008000E58C8199
(1445275810.180952) can0 055#809C00B227EFF7EE
(1445275810.181207) can0 065#01F68E00F7EFE354
(1445275810.181476) can0 070#005BF1F6F83F4000
(1445275810.181771) can0 075#585423098F99E900
(1445275810.182053) can0 080#802DF6F200804FD5
(1445275810.182401) can0 0B0#A352C1F6A2698352
(1445275810.182402) can0 145#A10040FC85D0F2FD
(1445275810.182703) can0 28C#85BE300000004000
(1445275810.183019) can0 2B5#3622A9B3721F204B
(1445275810.183268) can0 370#3CD3437600900004
(1445275810.183551) can0 260#F0DC16495500FFD0
(1445275810.184994) can0 010#F831B02F80000000
(1445275810.185266) can0 072#38A078003FFF00F0
(1445275810.185555) can0 1D0#610A0A2BD2C5EC00
(1445275810.185803) can0 210#4DA809B3A080E025
(1445275810.188557) can0 1B0#EC00B0000000C000
(1445275810.188839) can0 1B5#EFFFE000000000FF
(1445275810.189053) can0 1D8#43E0303135303734
(1445275810.189378) can0 1E0#E017BD80813B3000
(1445275810.189669) can0 2C3#505400FFFF012975
(1445275810.190463) can0 008#80008000D59C8199
(1445275810.191583) can0 0E0#00A28000D0017162
(1445275810.194709) can0 010#F831B02F80000000
(1445275810.194919) can0 2A9#840000C0CA00268C
(1445275810.195615) can0 288#800000009F60DFC0
(1445275810.196855) can0 125#34D7D0C1E67EB7E5
(1445275810.198509) can0 0F5#00B2537F80008000
(1445275810.198773) can0 120#8955FA7F80008000
(1445275810.199044) can0 130#11FFB300001DFFA7
(1445275810.199319) can0 072#388078003FFF00F0
(1445275810.199593) can0 150#C0B3F7E047FE0000
(1445275810.200518) can0 008#80008000C5AC8199
(1445275810.200898) can0 055#809C00B227EFF7EE
(1445275810.201193) can0 065#01F68E00F7EFE353
(1445275810.201509) can0 070#005BF1F6F83F4000
(1445275810.201751) can0 075#585423098F99E900
(1445275810.202053) can0 080#802DF6F200804FD5
(1445275810.202053) can0 0B0#A352C1F6A2698352
(1445275810.202363) can0 145#211040FC85D0F2FD
(1445275810.204818) can0 010#F831B02F80000000
(1445275810.205120) can0 1D0#61000A2BD2C5EC00
(1445275810.205383) can0 400#1E01000101020106
(1445275810.208605) can0 1B0#EC00B0000000C000
(1445275810.208834) can0 1B5#EFFFE000000000FF
(1445275810.209078) can0 1D8#43E0303135303734
(1445275810.209361) can0 1E0#E017BD80C12B3400
(1445275810.209689) can0 210#45A709B3A080E025
(1445275810.210518) can0 008#80008000B5BC8199
(1445275810.211645) can0 0E0#00828000D8017162
(1445275810.213575) can0 260#F0DC15495500FFD0
(1445275810.214792) can0 010#F831B02F80000000
(1445275810.215076) can0 072#38A078003FFF00F0
(1445275810.216854) can0 125#34D7D0C1E67EB7E5
(1445275810.218574) can0 0F5#00A2577F80008000
(1445275810.218827) can0 120#8955F97F80008000
(1445275810.219113) can0 130#11FFA300001DFFAF
(1445275810.219366) can0 150#C0A3F7E058000000
(1445275810.219690) can0 360#01A06EA7D2012975
(1445275810.220517) can0 008#80008000A5CC8199
(1445275810.220732) can0 288#800000008F70DFC4
(1445275810.220997) can0 055#809C00B227EDF7ED
(1445275810.221292) can0 065#01F58DFFF7EEE34F
(1445275810.221572) can0 070#005BF1F5F8404000
(1445275810.221894) can0 075#585423098F99E900
(1445275810.221895) can0 080#802DF5F200804FD1
(1445275810.222164) can0 0B0#A352C1F5A2688352
(1445275810.222484) can0 145#211040FC85D0F2FD
(1445275810.222810) can0 28C#89BE300000004000
(1445275810.222811) can0 2B5#3622A9B37224204B
(1445275810.223047) can0 2C0#E5B0001400000000
(1445275810.223303) can0 2C5#7000E000001CA700
(1445275810.223551) can0 3AF#2000000000000000
(1445275810.224993) can0 010#F831B02F80000000
(1445275810.225268) can0 1D0#61000A2BD2C5EC00
(1445275810.225554) can0 390#47503E020005FFE4
(1445275810.225804) can0 3C8#8E0024888E012975
(1445275810.228559) can0 1B0#EC00B0000000C000
(1445275810.228804) can0 1B5#EFFFE000000000FF
(1445275810.229049) can0 1D8#43E0303135303734
(1445275810.229302) can0 1E0#E017BD80C11B3800
(1445275810.229636) can0 072#388078003FFF00F0
(1445275810.229905) can0 2C3#505400FFFF012975
(1445275810.230465) can0 008#8000800095DC8199
(1445275810.230713) can0 350#80000000000000A2
(1445275810.231591) can0 0E0#00628000E0017162
(1445275810.234668) can0 010#F831B02F80000000
(1445275810.234952) can0 210#45A709B32080E025
(1445275810.235203) can0 2A9#840000C0D300268C
(1445275810.236855) can0 125#34D7D0C1E67EB7E5
(1445275810.238575) can0 0F5#00925B7F80008000
(1445275810.238788) can0 120#8955FA7F80008000
(1445275810.239043) can0 130#11FF9300001DFFB7
(1445275810.239313) can0 150#C093F7E067FF0000
(1445275810.240519) can0 008#8000800085EC8199
(1445275810.240908) can0 055#809C00B227F0F7EF
(1445275810.241196) can0 065#01F78DFFF7EEE34F
(1445275810.241489) can0 070#005BF1F7F8414000
(1445275810.241770) can0 075#585423098F99E900
(1445275810.242076) can0 080#802DF7F200804FD9
(1445275810.242077) can0 0B0#A352C1F7A2688352
(1445275810.242303) can0 145#A10040FC85D0F2FD
(1445275810.243557) can0 260#F0DC15495500FFD0
(1445275810.244853) can0 010#F831B02F80000000
(1445275810.245064) can0 072#38A078003FFF00F0
(1445275810.245321) can0 1D0#61000A2BD2C5EC00
(1445275810.245667) can0 288#800000008F70DFCC
(1445275810.248568) can0 1B0#EC00B0000000C000
(1445275810.248823) can0 1B5#EFFFE000000000FF
(1445275810.249109) can0 1D8#43E0303135303734
(1445275810.249326) can0 1E0#E017BD80811B3800
(1445275810.250518) can0 008#8000800075FC8199
(1445275810.251622) can0 0E0#00428000E8017162
(1445275810.254757) can0 010#F931B02F80000000
(1445275810.256833) can0 125#34D7D0C1E67EB7E5
(1445275810.258511) can0 0F5#00825F7F80008000
(1445275810.258753) can0 120#8955FA7F80008000
(1445275810.259022) can0 130#11FF8300001DFFBF
(1445275810.259266) can0 150#C083F7E078000000
(1445275810.259498) can0 072#388078003FFF00F0
(1445275810.259746) can0 210#4DA709B3A080E025
(1445275810.260449) can0 008#80008000650C8199
(1445275810.260876) can0 055#809C00B227F0F7F0
(1445275810.261166) can0 065#01F78DFFF7F0E34F
(1445275810.261464) can0 070#005BF1F7F8404000
(1445275810.261743) can0 075#585423098F99E900
(1445275810.262050) can0 080#802DF7F200804FD7
(1445275810.262051) can0 0B0#A352C1F7A2678352
(1445275810.262301) can0 145#211040FC85D0F2FD
(1445275810.262551) can0 28C#89BE300000004000
(1445275810.262802) can0 2B5#3522A9B37224204B
(1445275810.264804) can0 010#F831B02F80000000
(1445275810.265039) can0 1D0#610A0A2BD2C5EC00
(1445275810.268530) can0 1B0#EC00B0000000C000
(1445275810.268795) can0 1B5#EFFFE000000000FF
(1445275810.269087) can0 1D8#43E0303135303734
(1445275810.269344) can0 1E0#E017BD80C10B3C00
(1445275810.269686) can0 2C3#505400FFFF012975
(1445275810.270470) can0 008#80008000551C8199
(1445275810.270733) can0 288#800000008F70DFD0
(1445275810.271615) can0 0E0#00238000F0007162
(1445275810.273624) can0 260#F0DC16495500FFD0
(1445275810.274832) can0 010#F831B02F80000000
(1445275810.275051) can0 072#38A078003FFF00F0
(1445275810.275317) can0 2A9#840000C0CA00268C
(1445275810.276830) can0 125#34D7D0C1E67EB7E5
(1445275810.278575) can0 0F5#0072637F80008000
(1445275810.278789) can0 120#8955F97F80008000
(1445275810.279051) can0 130#11FF7300001DFFC7
(1445275810.279334) can0 150#C073F7E087FF0000
(1445275810.280516) can0 008#80008000452C8199
(1445275810.280929) can0 055#809C00B227F1F7F0
(1445275810.281142) can0 065#01F78DFFF7F0E34F
(1445275810.281395) can0 070#005BF1F8F8404000
(1445275810.281701) can0 075#585423098F99E900
(1445275810.281984) can0 080#802DF8F200804FDA
(1445275810.282268) can0 0B0#A352C1F7A2688352
(1445275810.282556) can0 145#211040FC85D0F2FD
(1445275810.282557) can0 2C0#E5B0001400000000
(1445275810.282803) can0 2C5#7000E000001CA700
(1445275810.283131) can0 370#3CD3437600900004
(1445275810.283403) can0 3E0#8980984E18000000
(1445275810.285048) can0 010#F831B02F80000000
(1445275810.285300) can0 1D0#61000A2BD2C5EC00
(1445275810.285556) can0 210#45A709B3A080E025
(1445275810.288520) can0 1B0#EC00B0000000C000
(1445275810.288802) can0 1B5#EFFFE000000000FF
(1445275810.289052) can0 1D8#43E0303135303734
(1445275810.289381) can0 1E0#E017BD80C1FB0000
(1445275810.289712) can0 072#388078003FFF00F0
(1445275810.289713) can0 3B0#00C4A4B938B9D800
(1445275810.290465) can0 008#80008000353C8199
(1445275810.291582) can0 0E0#00028000F8017162
(1445275810.294888) can0 010#F831B02F80000000
(1445275810.295675) can0 288#800000008F70DFCC
(1445275810.296804) can0 125#34D7D0C1E67EB7E5
(1445275810.298492) can0 0F5#0062677F80008000
(1445275810.298774) can0 120#8955FA7F80008000
(1445275810.299017) can0 130#11FF6300001DFFCF
(1445275810.299286) can0 150#C063F7E098010000
(1445275810.299575) can0 3CA#C000005200000000
(1445275810.300517) can0 008#80008000254C8199
(1445275810.300953) can0 055#809C00B227F3F7F2
(1445275810.301200) can0 065#01F78DFFF7F0E34D
(1445275810.301490) can0 070#005BF1F9F8404000
(1445275810.301751) can0 075#585423098F99E900
(1445275810.302047) can0 080#802DF8F200804FDA
(1445275810.302370) can0 0B0#A352C1F7A2678352
(1445275810.302371) can0 145#A10040FC85D0F2FD
(1445275810.302735) can0 28C#89BE300000004000
(1445275810.302963) can0 2B5#3522A9B37224204B
(1445275810.303554) can0 260#F0DC1649AA00FFD0
(1445275810.304805) can0 010#F831B02F80000000
(1445275810.305077) can0 072#38A078003FFF00F0
(1445275810.305325) can0 1D0#61000A2BD2C5EC00
(1445275810.308577) can0 1B0#EC00B0000000C000
(1445275810.308825) can0 1B5#EFFFE000000000FF
(1445275810.309116) can0 1D8#43E0303135303734
(1445275810.309406) can0 1E0#E017BD8081FB0000
(1445275810.309728) can0 2C3#505400FFFF012975
(1445275810.309730) can0 210#4DA709B3A080E025
(1445275810.310511) can0 008#80008000155C8199
(1445275810.311593) can0 0E0#00E28000C0017162
(1445275810.314589) can0 010#F831B02F80000000
(1445275810.314829) can0 2A9#840000C0D300268C
(1445275810.316774) can0 125#34D7D0C1E67EB7E5
(1445275810.318549) can0 0F5#00526B7F80008000
(1445275810.318810) can0 120#8955FA7F80008000
(1445275810.319148) can0 130#11FF5300001DFFD7
(1445275810.319486) can0 072#388078003FFF00F0
(1445275810.319769) can0 150#C053F7E0A8000000
(1445275810.319770) can0 360#01A06EA7D2012975
(1445275810.320517) can0 008#80008000056C8199
(1445275810.320731) can0 288#800000007F80DFC0
(1445275810.320988) can0 055#809C00B227F3F7F2
(1445275810.321230) can0 065#01F98DFFF7F2E34D
(1445275810.321477) can0 070#005BF1F9F8414000
(1445275810.321761) can0 075#585423098F99E900
(1445275810.322035) can0 080#802DF8F200804FDD
(1445275810.322342) can0 0B0#A352C1F8A2678352
(1445275810.322342) can0 145#211040FC85D0F2FD
(1445275810.322669) can0 350#80000000000000A2
(1445275810.324996) can0 010#F831B02F80000000
(1445275810.325305) can0 1D0#61000A2BD2C5EC00
(1445275810.325546) can0 390#475236020005FFE4
(1445275810.328577) can0 1B0#EC00B0000000C000
(1445275810.328826) can0 1B5#EFFFE000000000FF
(1445275810.329111) can0 1D8#43E0303135303734
(1445275810.329362) can0 1E0#E017BD80C1EB0400
(1445275810.330517) can0 008#80008000F57C8199
(1445275810.331595) can0 0E0#00C28000C8017162
(1445275810.333623) can0 260#F0DC1649AA00FFD0
(1445275810.334725) can0 010#F931B02F80000000
(1445275810.334942) can0 072#38A078003FFF00F0
(1445275810.335201) can0 210#4DA809B3A080E025
(1445275810.335487) can0 3D0#C3800338006109A5
(1445275810.336800) can0 125#34D7D0C1E67EB7E5
(1445275810.338538) can0 0F5#00426F7F80008000
(1445275810.338789) can0 120#8955F97F80008000
(1445275810.339061) can0 130#11FF4300001DFFDF
(1445275810.339325) can0 150#C043F7E0B7FD0000
(1445275810.340522) can0 008#80008000E58C8199
(1445275810.340956) can0 055#809C00B227F1F7F1
(1445275810.341192) can0 065#01F98E00F7F2E350
(1445275810.341485) can0 070#005BF1F8F8414000
(1445275810.341768) can0 075#585423098F99E900
(1445275810.342084) can0 080#802DF9F200804FDF
(1445275810.342361) can0 0B0#A352C1F9A2678352
(1445275810.342362) can0 145#211040FC85D0F2FD
(1445275810.342742) can0 28C#88BE300000004000
(1445275810.342994) can0 2B5#3B22A9B37224204B
(1445275810.343313) can0 2C0#E5B0001400000000
(1445275810.343315) can0 2C5#7000E000001CA700
(1445275810.343575) can0 3AF#2000000000000000
(1445275810.345022) can0 010#F831B02F80000000
(1445275810.345294) can0 1D0#610A0A2BD2C5EC00
(1445275810.345659) can0 288#800000007F80DFBC
(1445275810.345948) can0 3C8#8E0024888E012975
(1445275810.348563) can0 1B0#EC00B0000000C000
(1445275810.348807) can0 1B5#EFFFE000000000FF
(1445275810.349147) can0 1D8#43E0303135303734
(1445275810.349417) can0 1E0#E017BD80C1DB0800
(1445275810.349734) can0 072#388078003FFF00F0
(1445275810.349735) can0 2C3#505400FFFF012975
(1445275810.350512) can0 008#80008000D59C8199
(1445275810.351592) can0 0E0#00A28000D0017162
(1445275810.354689) can0 010#F831B02F80000000
(1445275810.354949) can0 2A9#840000C0CA00268C
(1445275810.356806) can0 125#34D7D0C1E67EB7E5
(1445275810.358546) can0 0F5#0032737F80008000
(1445275810.358783) can0 120#8955FB7F80008000
(1445275810.359069) can0 130#11FF3300001DFFE7
(1445275810.359326) can0 150#C033F7E0C7FC0000
(1445275810.359577) can0 210#45A709B3A080E025
(1445275810.360429) can0 008#80008000C5AC8199
(1445275810.360962) can0 055#809C00B227F1F7F1
(1445275810.361198) can0 065#01F88E00F7F1E350
(1445275810.361516) can0 070#005BF1F8F8414000
(1445275810.361768) can0 075#585423098F99E900
(1445275810.362073) can0 080#802DF8F200804FDB
(1445275810.362399) can0 0B0#A352C1F8A2678352
(1445275810.362400) can0 145#A10040FC85D0F2FD
(1445275810.363627) can0 260#F0DC1649AA00FFD0
(1445275810.364909) can0 010#F831B02F80000000
(1445275810.365113) can0 072#38A078003FFF00F0
(1445275810.365384) can0 1D0#61000A2BD2C5EC00
(1445275810.365688) can0 405#050000000000078F
(1445275810.368577) can0 1B0#EC00B0000000C000
(1445275810.368830) can0 1B5#EFFFE000000000FF
(1445275810.369139) can0 1D8#43E0303135303734
(1445275810.369352) can0 1E0#E017BD8081DB0800
(1445275810.370516) can0 008#80008000B5BC8199
(1445275810.370737) can0 288#800000007F80DFBC
(1445275810.371545) can0 0E0#00828000D8017162
(1445275810.374755) can0 010#F831B02F80000000
(1445275810.376777) can0 125#34D7D0C1E67EB7E5
(1445275810.378546) can0 0F5#0022777F80008000
(1445275810.378764) can0 120#8955FA7F80008000
(1445275810.379026) can0 130#11FF2300001DFFEF
(1445275810.379365) can0 150#C023F7E0D8000000
(1445275810.379572) can0 072#388078003FFF00F0
(1445275810.380429) can0 008#80008000A5CC8199
(1445275810.380937) can0 055#809C00B227F1F7F1
(1445275810.381149) can0 065#01F88E01F7F1E350
(1445275810.381395) can0 070#005BF1F8F8414000
(1445275810.381693) can0 075#585423098F99E900
(1445275810.381986) can0 080#802DF8F200804FDB
(1445275810.382242) can0 0B0#A352C1F8A2678352
(1445275810.382507) can0 145#211040FC85D0F2FD
(1445275810.382806) can0 28C#88BE300000004000
(1445275810.382807) can0 2B5#3B22A9B37224204B
(1445275810.383050) can0 370#3CD7437600900004
(1445275810.385150) can0 010#F831B02F80000000
(1445275810.385464) can0 1D0#61000A2BD2C5EC00
(1445275810.385715) can0 210#4DA709B32080E025
(1445275810.388531) can0 1B0#EC00B0000000C000
(1445275810.388804) can0 1B5#EFFFE000000000FF
(1445275810.389049) can0 1D8#43E0303135303734
(1445275810.389338) can0 1E0#E017BD80C1CB0C00
(1445275810.389552) can0 2C3#505400FFFF012975
(1445275810.390395) can0 008#8000800095DC8199
(1445275810.391529) can0 0E0#00638000E0007162
(1445275810.393625) can0 260#F0DC16495500FFD0
(1445275810.394829) can0 010#F831B02F80000000
(1445275810.395068) can0 072#38A078003FFF00F0
(1445275810.395351) can0 2A9#840000C0C200268C
(1445275810.395698) can0 288#800000007F80DFCC
(1445275810.396803) can0 125#34D7D0C1E67EB7E5
(1445275810.398482) can0 0F5#00127B7F80008000
(1445275810.398779) can0 120#8955FA7F80008000
(1445275810.399018) can0 130#11FF1300001DFFF7
(1445275810.399304) can0 150#C013F7E0E8000000
(1445275810.400515) can0 008#8000800085EC8199
(1445275810.400910) can0 055#809C00B227F2F7F1
(1445275810.401154) can0 065#01F88E01F7F1E353
(1445275810.401506) can0 070#005BF1F8F8414000
(1445275810.401767) can0 075#585423098F99E900
(1445275810.402101) can0 080#802DF8F200804FDC
(1445275810.402102) can0 0B0#A352C1F8A2678352
(1445275810.402305) can0 145#211040FC85D0F2FD
(1445275810.402556) can0 2C0#E5B0001400000000
(1445275810.402795) can0 2C5#7000E000001CA700
(1445275810.404841) can0 010#F831B02F80000000
(1445275810.405149) can0 1D0#61000A2BD2C5EC00
(1445275810.408577) can0 1B0#EC00B0000000C000
(1445275810.408791) can0 1B5#EFFFE000000000FF
(1445275810.409055) can0 1D8#43E0303135303734
(1445275810.409324) can0 1E0#E017BD80C1BB1000
(1445275810.409609) can0 072#388078003FFF00F0
(1445275810.409897) can0 210#45A709B3A080E025
(1445275810.410170) can0 3B0#00C6A4B938B9D800
(1445275810.410483) can0 008#8000800075FC8199
(1445275810.410681) can0 350#80000000000000A2
(1445275810.411528) can0 0E0#00438000E8007162
(1445275810.414563) can0 010#F931B02F80000000
(1445275810.416753) can0 125#34D7D0C1E67EB7E5
(1445275810.418547) can0 0F5#00027F7F80008000
(1445275810.418768) can0 120#8955F97F80008000
(1445275810.419020) can0 130#11FF0300001DFFFF
(1445275810.419291) can0 150#C003F7E0F8000000
(1445275810.419612) can0 3CA#C000005300000000
(1445275810.419826) can0 360#01A06EA7D2012975
(1445275810.420402) can0 008#80008000650C8199
(1445275810.420696) can0 288#800000006F90DFCC
(1445275810.420955) can0 055#809C00B227F1F7F0
(1445275810.421180) can0 065#01F88E01F7F2E353
(1445275810.421461) can0 070#005BF1F8F83F4000
(1445275810.421742) can0 075#585423098F99E900
(1445275810.422038) can0 080#802DF8F200804FDB
(1445275810.422348) can0 0B0#A352C1F8A2688352
(1445275810.422349) can0 145#A10040FC85D0F2FD
(1445275810.422678) can0 28C#84BE300000004000
(1445275810.422925) can0 2B5#3B22A9B3721F204B
(1445275810.423590) can0 260#F0DC16495500FFD0
(1445275810.424979) can0 010#F831B02F80000000
(1445275810.425286) can0 072#38A078003FFF00F0
(1445275810.425553) can0 1D0#610A0A2BD2C5EC00
(1445275810.425803) can0 390#475332020005FFE4
(1445275810.428557) can0 1B0#EC00B0000000C000
(1445275810.428829) can0 1B5#EFFFE000000000FF
(1445275810.429144) can0 1D8#43E0303135303734
(1445275810.429486) can0 1E0#E017BD8081BB1000
(1445275810.429682) can0 2C3#505400FFFF012975
(1445275810.430421) can0 008#80008000551C8199
(1445275810.431573) can0 0E0#00228000F0017162
(1445275810.434731) can0 010#F831B02F80000000
(1445275810.435008) can0 210#45A709B3A080E025
(1445275810.435258) can0 2A9#840000C0DB00268C
(1445275810.436720) can0 125#34D7D0C1E67EB7E5
(1445275810.438542) can0 0F5#00F2437F80008000
(1445275810.438813) can0 120#8955FB7F80008000
(1445275810.439095) can0 130#11FFF300001DFF87
(1445275810.439312) can0 150#C0F3F7E008000000
(1445275810.439574) can0 072#388078003FFF00F0
(1445275810.440513) can0 008#80008000452C8199
(1445275810.440898) can0 055#809C00B227F1F7F0
(1445275810.441196) can0 065#01F88E01F7F1E355
(1445275810.441485) can0 070#005BF1F8F83F4000
(1445275810.441773) can0 075#585423098F99E900
(1445275810.442112) can0 080#802DF8F200804FDB
(1445275810.442113) can0 0B0#A352C1F8A2688352
(1445275810.442322) can0 145#211040FC85D0F2FD
(1445275810.444860) can0 010#F831B02F80000000
(1445275810.445068) can0 1D0#61000A2BD2C5EC00
(1445275810.445700) can0 288#800000006F90DFC4
(1445275810.448558) can0 1B0#EC00B0000000C000
(1445275810.448821) can0 1B5#EFFFE000000000FF
(1445275810.449142) can0 1D8#43E0303135303734
(1445275810.449427) can0 1E0#E017BD80C1AB1400
(1445275810.450406) can0 008#80008000353C8199
(1445275810.451569) can0 0E0#00028000F8017162
(1445275810.453649) can0 260#F0DC16495500FFD0
(1445275810.454751) can0 010#F831B02F80000000
(1445275810.455004) can0 072#38A078003FFF00F0
(1445275810.455290) can0 400#1F02030100020501
(1445275810.456781) can0 125#34D7D0C1E67EB7E5
(1445275810.458572) can0 0F5#00E2477F80008000
(1445275810.458802) can0 120#8955FB7F80008000
(1445275810.459077) can0 130#11FFE300001DFF8F
(1445275810.459360) can0 150#C0E3F7E017FE0000
(1445275810.459699) can0 210#4DA709B3A080E025
(1445275810.460512) can0 008#80008000254C8199
(1445275810.460910) can0 055#809C00B227EFF7EF
(1445275810.461181) can0 065#01F78E01F7F0E355
(1445275810.461485) can0 070#005BF1F7F83F4000
(1445275810.461767) can0 075#585423098F99E900
(1445275810.462055) can0 080#802DF6F200804FD4
(1445275810.462055) can0 0B0#A352C1F6A2688352
(1445275810.462301) can0 145#211040FC85D0F2FD
(1445275810.462553) can0 28C#84BE300000004000
(1445275810.462802) can0 2B5#3A22A9B3721F204B
(1445275810.463054) can0 2C0#E5B0001400000000
(1445275810.463379) can0 2C5#7000E000001CA700
(1445275810.463665) can0 3AF#2000000000000000
(1445275810.464841) can0 010#F831B02F80000000
(1445275810.465080) can0 1D0#61000A2BD2C5EC00
(1445275810.465682) can0 3C8#8E0024888E012975
(1445275810.468530) can0 1B0#EC00B0000000C000
(1445275810.468818) can0 1B5#EFFFE000000000FF
(1445275810.469120) can0 1D8#43E0303135303734
(1445275810.469415) can0 1E0#E017BD80C19B1800
(1445275810.469753) can0 072#388078003FFF00F0
(1445275810.469754) can0 2C3#505400FFFF012975
(1445275810.470484) can0 008#80008000155C8199
(1445275810.470769) can0 288#800000006F90DFC4
(1445275810.471557) can0 0E0#00E38000C0007162
(1445275810.474807) can0 010#F831B02F80000000
(1445275810.475022) can0 2A9#840000C0C200268C
(1445275810.476749) can0 125#34D7D0C1E67EB7E5
(1445275810.478573) can0 0F5#00D24B7F80008000
(1445275810.478790) can0 120#8955FA7F80008000
(1445275810.479055) can0 130#11FFD300001DFF97
(1445275810.479324) can0 150#C0D3F7E028010000
(1445275810.480518) can0 008#80008000056C8199
(1445275810.480915) can0 055#809C00B227EFF7EF
(1445275810.481185) can0 065#01F78E01F7EFE354
(1445275810.481477) can0 070#005BF1F7F83F4000
(1445275810.481769) can0 075#585423098F99E900
(1445275810.482108) can0 080#802DF7F200804FD6
(1445275810.482113) can0 0B0#A352C1F7A2688352
(1445275810.482309) can0 145#A10040FC85D0F2FD
(1445275810.482577) can0 370#3CD3437600900004
(1445275810.483646) can0 260#F0DC1649AA00FFD0
(1445275810.485090) can0 010#F831B02F80000000
(1445275810.485304) can0 072#38A078003FFF00F0
(1445275810.485571) can0 1D0#61000A2BD2C5EC00
(1445275810.485823) can0 210#45A709B3A080E025
(1445275810.488571) can0 1B0#EC00B0000000C000
(1445275810.488825) can0 1B5#EFFFE000000000FF
(1445275810.489110) can0 1D8#43E0303135303734
(1445275810.489359) can0 1E0#E017BD80819B1800
(1445275810.490516) can0 008#80008000F57C8199
(1445275810.491543) can0 0E0#00C28000C8017162
(1445275810.494914) can0 010#F931B02F80000000
(1445275810.495746) can0 288#800000006F90DFC0
(1445275810.496747) can0 125#34D7D0C1E67EB7E5
(1445275810.498456) can0 0F5#00C24F7F80008000
(1445275810.498747) can0 120#8955F97F80008000
(1445275810.499016) can0 130#11FFC300001DFF9F
(1445275810.499352) can0 150#C0C3F7E037FC0000
(1445275810.499563) can0 072#388078003FFF00F0
(1445275810.500404) can0 008#80008000E58C8199
(1445275810.500684) can0 350#80000000000000A2
(1445275810.500963) can0 055#809C00B227EFF7EF
(1445275810.501256) can0 065#01F78E01F7EFE354
(1445275810.501588) can0 070#005BF1F7F83F4000
(1445275810.501927) can0 075#585423098F99E900
(1445275810.501928) can0 080#802DF6F200804FD5
(1445275810.502208) can0 0B0#A352C1F6A2688352
(1445275810.502486) can0 145#211040FC85D0F2FD
(1445275810.502773) can0 28C#84BE300000004000
(1445275810.502775) can0 2B5#3A22A9B3721F204B
(1445275810.504804) can0 010#F831B02F80000000
(1445275810.505052) can0 1D0#610A0A2BD2C5EC00
(1445275810.508501) can0 1B0#EC00B0000000C000
(1445275810.508771) can0 1B5#EFFFE000000000FF
(1445275810.509052) can0 1D8#43E0303135303734
(1445275810.509381) can0 1E0#E017BD80C18B1C00
(1445275810.509732) can0 2C3#505400FFFF012975
(1445275810.509733) can0 210#4DA709B3A080E025
(1445275810.510463) can0 008#80008000D59C8199
(1445275810.511542) can0 0E0#00A28000D0017162
(1445275810.513647) can0 260#F0DC1649AA00FFD0
(1445275810.514612) can0 010#F831B02F80000000
(1445275810.514901) can0 072#38A078003FFF00F0
(1445275810.515169) can0 2A9#840000C0DB00268C
(1445275810.516692) can0 125#34D7D0C1E67EB7E5
(1445275810.518547) can0 0F5#00B2537F80008000
(1445275810.518807) can0 120#8955FB7F80008000
(1445275810.519077) can0 130#11FFB300001DFFA7
(1445275810.519386) can0 150#C0B3F7E047FD0000
(1445275810.519687) can0 360#01A06EA7D2012975
(1445275810.520462) can0 008#80008000C5AC8199
(1445275810.520786) can0 288#800000005FA0DFC4
(1445275810.521023) can0 055#809C00B227EEF7ED
(1445275810.521292) can0 065#01F68E00F7EFE356
(1445275810.521612) can0 070#005BF1F6F83F4000
(1445275810.521874) can0 075#585423098F99E900
(1445275810.522198) can0 080#802DF7F200804FD7
(1445275810.522199) can0 0B0#A352C1F7A2698352
(1445275810.522466) can0 145#211040FC85D0F2FD
(1445275810.522752) can0 2C0#E5B0001400000000
(1445275810.523015) can0 2C5#7000E000001CA700
(1445275810.524994) can0 010#F831B02F80000000
(1445275810.525262) can0 1D0#61000A2BD2C5EC00
(1445275810.525527) can0 390#47542E020005FFE4
(1445275810.528502) can0 1B0#EC00B0000000C000
(1445275810.528794) can0 1B5#EFFFE000000000FF
(1445275810.529085) can0 1D8#43E0303135303734
(1445275810.529344) can0 1E0#E017BD80C17B2000
(1445275810.529719) can0 072#388078003FFF00F0
(1445275810.529720) can0 3B0#00C4A4B938B9D800
(1445275810.530460) can0 008#80008000B5BC8199
(1445275810.531476) can0 0E0#00838000D8007162
(1445275810.534707) can0 010#F831B02F80000000
(1445275810.534922) can0 210#4DA709B32080E025
(1445275810.535183) can0 3D0#C3800338006109A5
(1445275810.536718) can0 125#34D7D0C1E67EB7E5
(1445275810.538519) can0 0F5#00A2577F80008000
(1445275810.538807) can0 120#8955F97F80008000
(1445275810.539142) can0 130#11FFA300001DFFAF
(1445275810.539477) can0 150#C0A3F7E057FF0000
(1445275810.539765) can0 3CA#C000005400000000
(1445275810.539766) can0 430#C630000000280828
(1445275810.540362) can0 008#80008000A5CC8199
(1445275810.540912) can0 055#809C00B227EEF7ED
(1445275810.541155) can0 065#01F68E00F7EEE350
(1445275810.541484) can0 070#005BF1F6F83F4000
(1445275810.541766) can0 075#585423098F99E900
(1445275810.542108) can0 080#802DF6F200804FD3
(1445275810.542109) can0 0B0#A352C1F6A2698352
(1445275810.542320) can0 145#A10040FC85D0F2FD
(1445275810.542593) can0 28C#8BBE300000004000
(1445275810.542820) can0 2B5#3522A9B3721F204B
(1445275810.543634) can0 260#F0DC1649AA00FFD0
(1445275810.545066) can0 010#F831B02F80000000
(1445275810.545300) can0 072#38A078003FFF00F0
(1445275810.545550) can0 1D0#61000A2BD2C5EC00
(1445275810.545825) can0 288#800000005FA0DFC0
(1445275810.548563) can0 1B0#EC00B0000000C000
(1445275810.548804) can0 1B5#EFFFE000000000FF
(1445275810.549072) can0 1D8#43E0303135303734
(1445275810.549357) can0 1E0#E017BD80817B2000
(1445275810.549684) can0 2C3#505400FFFF012975
(1445275810.550514) can0 008#8000800095DC8199
(1445275810.551513) can0 0E0#00628000E0017162
(1445275810.554704) can0 010#F831B02F80000000
(1445275810.554916) can0 2A9#840000C0C200268C
(1445275810.556722) can0 125#34D7D0C1E67EB7E5
(1445275810.558544) can0 0F5#00925B7F80008000
(1445275810.558761) can0 120#8955FA7F80008000
(1445275810.559032) can0 130#11FF9300001DFFB7
(1445275810.559303) can0 150#C093F7E067FD0000
(1445275810.559615) can0 072#388078003FFF00F0
(1445275810.559797) can0 210#45A709B3A080E025
(1445275810.560423) can0 008#8000800085EC8199
(1445275810.560904) can0 055#809C00B227F2F7F2
(1445275810.561170) can0 065#01F88E00F7F0E350
(1445275810.561513) can0 070#005BF1F9F83F4000
(1445275810.561768) can0 075#585423098F99E900
(1445275810.562076) can0 080#802DF9F200804FDE
(1445275810.562077) can0 0B0#A352C1F8A2698352
(1445275810.562321) can0 145#211040FC85D0F2FD
(1445275810.564877) can0 010#F831B02F80000000
(1445275810.565084) can0 1D0#61000A2BD2C5EC00
(1445275810.568549) can0 1B0#EC00B0000000C000
(1445275810.568759) can0 1B5#EFFFE000000000FF
(1445275810.569009) can0 1D8#43E0303135303734
(1445275810.569201) can0 1E0#E017BD80C16B2400
(1445275810.570396) can0 008#8000800075FC8199
(1445275810.570744) can0 288#800000005FA0DFD5
(1445275810.571453) can0 0E0#00428000E8017162
(1445275810.573655) can0 260#F0DC1549AA00FFD0
(1445275810.574710) can0 010#F931B02F80000000
(1445275810.574986) can0 072#38A078003FFF00F0
(1445275810.576723) can0 125#34D7D0C1E67EB7E5
(1445275810.578544) can0 0F5#00825F7F80008000
(1445275810.578764) can0 120#8955FA7F80008000
(1445275810.579054) can0 130#11FF8300001DFFBF
(1445275810.579326) can0 150#C083F7E078000000
(1445275810.580397) can0 008#80008000650C8199
(1445275810.580902) can0 055#809C00B227F2F7F2
(1445275810.581142) can0 065#01F88DFFF7F2E353
(1445275810.581391) can0 070#005BF1F9F83F4000
(1445275810.581726) can0 075#585423098F99E900
(1445275810.581965) can0 080#802DF9F200804FDE
(1445275810.582235) can0 0B0#A352C1F9A2698352
(1445275810.582537) can0 145#211040FC85D0F2FD
(1445275810.582825) can0 28C#8BBE300000004000
(1445275810.582826) can0 2B5#3522A9B3721F204B
(1445275810.583073) can0 2C0#E5B0001400000000
(1445275810.583315) can0 2C5#7000E000001CA700
(1445275810.583708) can0 370#3CD3437600900004
(1445275810.583709) can0 3AF#2000000000000000
(1445275810.583989) can0 3E0#8B80984E18000000
(1445275810.584961) can0 010#F831B02F80000000
(1445275810.585237) can0 1D0#610A0A2BD2C5EC00
(1445275810.585464) can0 210#4DA709B3A080E025
(1445275810.585746) can0 3C8#8E0024888E012975
(1445275810.588507) can0 1B0#EC00B0000000C000
(1445275810.588822) can0 1B5#EFFFE000000000FF
(1445275810.589125) can0 1D8#43E0303135303734
(1445275810.589415) can0 1E0#E017BD80C15B2800
(1445275810.589754) can0 2C3#505400FFFF012975
(1445275810.589756) can0 072#388078003FFF00F0
(1445275810.590368) can0 008#80008000551C8199
(1445275810.590690) can0 350#80000000000000A2
(1445275810.591508) can0 0E0#00228000F0017162
(1445275810.594806) can0 010#F831B02F80000000
(1445275810.595018) can0 2A9#840000C0CA00268C
(1445275810.595797) can0 288#800000005FA0DFC8
(1445275810.596696) can0 125#34D7D0C1E67EB7E5
(1445275810.598481) can0 0F5#0072637F80008000
(1445275810.598779) can0 120#8955FB7F80008000
(1445275810.599037) can0 130#11FF7300001DFFC7
(1445275810.599304) can0 150#C073F7E088000000
(1445275810.600428) can0 008#80008000452C8199
(1445275810.600936) can0 055#809C00B227F0F7EF
(1445275810.601137) can0 065#01F78DFFF7F0E353
(1445275810.601484) can0 070#005BF1F7F83F4000
(1445275810.601767) can0 075#585423098F99E900
(1445275810.602076) can0 080#802DF7F200804FD8
(1445275810.602077) can0 0B0#A352C1F7A2698352
(1445275810.602325) can0 145#A10040FC85D0F2FD
(1445275810.603702) can0 260#F0DC16495500FFD0
(1445275810.604877) can0 010#F831B02F80000000
(1445275810.605136) can0 072#38A078003FFF00F0
(1445275810.605406) can0 1D0#61000A2BD2C5EC00
(1445275810.608549) can0 1B0#EC00B0000000C000
(1445275810.608809) can0 1B5#EFFFE000000000FF
(1445275810.609112) can0 1D8#43E0303135303734
(1445275810.609357) can0 1E0#E017BD80815B2800
(1445275810.609947) can0 210#45A709B3A080E025
(1445275810.610413) can0 008#80008000353C8199
(1445275810.611518) can0 0E0#00038000F8007162
(1445275810.614532) can0 010#F831B02F80000000
(1445275810.614797) can0 405#114D563834383144
(1445275810.616701) can0 125#34D7D0C1E67EB7E5
(1445275810.618544) can0 0F5#0062677F80008000
(1445275810.618779) can0 120#8955F97F80008000
(1445275810.619091) can0 130#11FF6300001DFFCF
(1445275810.619383) can0 150#C063F7E098000000
(1445275810.619732) can0 072#388078003FFF00F0
(1445275810.619737) can0 360#01A06EA7D2012975
(1445275810.620419) can0 008#80008000254C8199
(1445275810.620788) can0 288#800000004FB0DFC8
(1445275810.621059) can0 055#809C00B227F1F7F1
(1445275810.621345) can0 065#01F68DFFF7EFE34E
(1445275810.621582) can0 070#005BF1F8F8404000
(1445275810.621885) can0 075#585423098F99E900
(1445275810.622143) can0 080#802DF6F200804FD3
(1445275810.622464) can0 0B0#A352C1F6A2688352
(1445275810.622465) can0 145#211040FC85D0F2FD
(1445275810.622713) can0 28C#8BBE310000004000
(1445275810.622959) can0 2B5#3522A9B37224204B
(1445275810.624991) can0 010#F831B02F80000000
(1445275810.625295) can0 1D0#61000A2BD2C5EC00
(1445275810.625557) can0 390#67552A020005FFE4
(1445275810.628550) can0 1B0#EC00B0000000C000
(1445275810.628809) can0 1B5#EFFFE000000000FF
(1445275810.629147) can0 1D8#43E0303135303734
(1445275810.629514) can0 1E0#E017BD80C14B2C00
(1445275810.629754) can0 2C3#505400FFFF012975
(1445275810.630410) can0 008#80008000155C8199
(1445275810.631518) can0 0E0#00E28000C0017162
(1445275810.633700) can0 260#F0DC16495500FFD0
(1445275810.634750) can0 010#F831B02F80000000
(1445275810.634961) can0 072#38A078003FFF00F0
(1445275810.635198) can0 210#45A809B3A080E025
(1445275810.635469) can0 2A9#840000C0D300268C
(1445275810.636699) can0 125#34D7D0C1E67EB7E5
(1445275810.638574) can0 0F5#00526B7F80008000
(1445275810.638757) can0 120#8955FA7F80008000
(1445275810.639041) can0 130#11FF5300001DFFD7
(1445275810.639282) can0 150#C053F7E0A7FF0000
(1445275810.640425) can0 008#80008000056C8199
(1445275810.640961) can0 055#809C00B227F1F7F1
(1445275810.641196) can0 065#01F88DFFF7F1E34E
(1445275810.641512) can0 070#005BF1F8F8404000
(1445275810.641766) can0 075#585423098F99E900
(1445275810.642074) can0 080#802DF8F200804FDC
(1445275810.642482) can0 0B0#A352C1F8A2688352
(1445275810.642483) can0 145#211040FC85D0F2FD
(1445275810.642781) can0 2C0#E5B0001400000000
(1445275810.643006) can0 2C5#7000E000001CA700
(1445275810.644803) can0 010#F831B02F80000000
(1445275810.645109) can0 1D0#61000A2BD2C5EC00
(1445275810.645797) can0 288#800000004FB0DFC8
(1445275810.648513) can0 1B0#EC00B0000000C000
(1445275810.648811) can0 1B5#EFFFE000000000FF
(1445275810.649053) can0 1D8#43E0303135303734
(1445275810.649324) can0 1E0#E017BD80C13B3000
(1445275810.649606) can0 072#388078003FFF00F0
(1445275810.649818) can0 3B0#00C4A4B93CB9FC00
(1445275810.650358) can0 008#80008000F57C8199
(1445275810.651519) can0 0E0#00C28000C8017162
(1445275810.654784) can0 010#F931B02F80000000
(1445275810.656672) can0 125#34D7D0C1E67EB7E5
(1445275810.658518) can0 0F5#00426F7F80008000
(1445275810.658734) can0 120#8955FA7F80008000
(1445275810.658984) can0 130#11FF4300001DFFDF
(1445275810.659232) can0 150#C043F7E0B7FF0000
(1445275810.659483) can0 3CA#C000005500000000
(1445275810.659739) can0 210#4DA709B3A080E025
(1445275810.660365) can0 008#80008000E58C8199
(1445275810.660975) can0 055#809C00B227EFF7ED
(1445275810.661187) can0 065#01F68E00F7EFE353
(1445275810.661482) can0 070#005BF1F7F8404000
(1445275810.661766) can0 075#585423098F99E900
(1445275810.662065) can0 080#802DF8F200804FDC
(1445275810.662369) can0 0B0#A352C1F8A2688352
(1445275810.662370) can0 145#A10040FC85D0F2FD
(1445275810.662756) can0 28C#8BBE310000004000
(1445275810.662984) can0 2B5#3622A9B37224204B
(1445275810.663660) can0 260#F0DC16495500FFD0
(1445275810.664852) can0 010#F831B02F80000000
(1445275810.665057) can0 072#38A078003FFF00F0
(1445275810.665304) can0 1D0#610A0A2BD2C5EC00
(1445275810.668519) can0 1B0#EC00B0000000C000
(1445275810.668783) can0 1B5#EFFFE000000000FF
(1445275810.669055) can0 1D8#43E0303135303734
(1445275810.669324) can0 1E0#E017BD80813B3000
(1445275810.669573) can0 2C3#505400FFFF012975
(1445275810.670411) can0 008#80008000D59C8199
(1445275810.670795) can0 288#800000004FB0DFC4
(1445275810.671510) can0 0E0#00A28000D0017162
(1445275810.674835) can0 010#F831B02F80000000
(1445275810.675048) can0 2A9#840000C0CA00268C
(1445275810.676674) can0 125#34D7D0C1E67EB7E5
(1445275810.678545) can0 0F5#0032737F80008000
(1445275810.678780) can0 120#8955F97F80008000
(1445275810.679067) can0 130#11FF3300001DFFE7
(1445275810.679355) can0 150#C033F7E0C7FD0000
(1445275810.679573) can0 072#388078003FFF00F0
(1445275810.680407) can0 008#80008000C5AC8199
(1445275810.680687) can0 350#80000000000000A2
(1445275810.680994) can0 055#809C00B227EEF7ED
(1445275810.681182) can0 065#01F68E00F7EEE34E
(1445275810.681475) can0 070#005BF1F6F8404000
(1445275810.681767) can0 075#585423098F99E900
(1445275810.682045) can0 080#802DF6F200804FD2
(1445275810.682349) can0 0B0#A352C1F6A2688352
(1445275810.682350) can0 145#211040FC85D0F2FD
(1445275810.682669) can0 370#3CD7437600900004
(1445275810.684917) can0 010#F831B02F80000000
(1445275810.685220) can0 1D0#61000A2BD2C5EC00
(1445275810.685499) can0 210#45A709B32080E025
(1445275810.688529) can0 1B0#EC00B0000000C000
(1445275810.688796) can0 1B5#EFFFE000000000FF
(1445275810.689085) can0 1D8#43E0303135303734
(1445275810.689335) can0 1E0#E017BD80C12B3400
(1445275810.690335) can0 008#80008000B5BC8199
(1445275810.691518) can0 0E0#00828000D8017162
(1445275810.693723) can0 260#F0DC1649AA00FFD0
(1445275810.694879) can0 010#F831B02F80000000
(1445275810.695137) can0 072#38A078003FFF00F0
(1445275810.695810) can0 288#800000004FB0DFC4
(1445275810.696674) can0 125#34D7D0C1E67EB7E5
(1445275810.698504) can0 0F5#0022777F80008000
(1445275810.698771) can0 120#8955FA7F80008000
(1445275810.699037) can0 130#11FF2300001DFFEF
(1445275810.699306) can0 150#C023F7E0D7FD0000
(1445275810.700394) can0 008#80008000A5CC8199
(1445275810.700910) can0 055#809C00B227F0F7F0
(1445275810.701168) can0 065#01F78E00F7EFE34E
(1445275810.701511) can0 070#005BF1F7F8414000
(1445275810.701766) can0 075#585423098F99E900
(1445275810.702073) can0 080#802DF8F200804FDB
(1445275810.702074) can0 0B0#A352C1F8A2688352
(1445275810.702325) can0 145#211040FC85D0F2FD
(1445275810.702576) can0 28C#82BE310000004000
(1445275810.702801) can0 2B5#3622A9B37224204B
(1445275810.703129) can0 2C0#E5B0001400000000
(1445275810.703465) can0 2C5#7000E000001CA700
(1445275810.703677) can0 3AF#2000000000000000
(1445275810.704550) can0 581#8100FFFFFFFFFFFF
(1445275810.704863) can0 010#F831B02F80000000
(1445275810.705090) can0 1D0#61000A2BD2C5EC00
(1445275810.705344) can0 400#2002020100020102
(1445275810.705787) can0 3C8#8E0024888E012975
(1445275810.708501) can0 1B0#EC00B0000000C000
(1445275810.708810) can0 1B5#EFFFE000000000FF
(1445275810.709047) can0 1D8#43E0303135303734
(1445275810.709324) can0 1E0#E017BD80C11B3800
(1445275810.709654) can0 2C3#505400FFFF012975
(1445275810.709949) can0 072#388078003FFF00F0
(1445275810.709950) can0 210#4DA709B3A080E025
(1445275810.710420) can0 008#8000800095DC8199
(1445275810.711509) can0 0E0#00628000E0017162
(1445275810.714587) can0 010#F831B02F80000000
(1445275810.714850) can0 2A9#840000C0D300268C
(1445275810.716674) can0 125#34D7D0C1E67EB7E5
(1445275810.718540) can0 0F5#00127B7F80008000
(1445275810.718784) can0 120#8955FA7F80008000
(1445275810.719095) can0 130#11FF1300001DFFF7
(1445275810.719387) can0 150#C013F7E0E7FF0000
(1445275810.719686) can0 360#01A06EA7D2012975
(1445275810.720372) can0 008#8000800085EC8199
(1445275810.720824) can0 288#800000003FC0DFC0
(1445275810.721076) can0 055#809C00B227F1F7F0
(1445275810.721324) can0 065#01F88E00F7F0E351
(1445275810.721646) can0 070#005BF1F8F8404000
(1445275810.721923) can0 075#585423098F99E900
(1445275810.722270) can0 080#802DF7F200804FD9
(1445275810.722271) can0 0B0#A352C1F7A2678352
(1445275810.722564) can0 145#A10040FC85D0F2FD
(1445275810.723677) can0 260#F0DC1549AA00FFD0
(1445275810.725007) can0 010#F831B02F80000000
(1445275810.725265) can0 072#38A078003FFF00F0
(1445275810.725508) can0 1D0#61000A2BD2C5EC00
(1445275810.725780) can0 390#47552A020005FFE4
(1445275810.728549) can0 1B0#EC00B0000000C000
(1445275810.728805) can0 1B5#EFFFE000000000FF
(1445275810.729073) can0 1D8#43E0303135303734
(1445275810.729324) can0 1E0#E017BD80811B3800
(1445275810.730396) can0 008#8000800075FC8199
(1445275810.731434) can0 0E0#00428000E8017162
(1445275810.734631) can0 010#F931B02F80000000
(1445275810.734892) can0 210#4DA709B3A080E025
(1445275810.735165) can0 3D0#C3800338006109A5
(1445275810.736642) can0 125#34D7D0C1E67EB7E5
(1445275810.738539) can0 0F5#00027F7F80008000
(1445275810.738756) can0 120#8955F97F80008000
(1445275810.739017) can0 130#11FF0300001DFFFF
(1445275810.739288) can0 150#C003F7E0F7FD0000
(1445275810.739550) can0 072#388078003FFF00F0
(1445275810.740359) can0 008#80008000650C8199
(1445275810.740926) can0 055#809C00B227F0F7EF
(1445275810.741173) can0 065#01F78E00F7F0E351
(1445275810.741510) can0 070#005BF1F7F8404000
(1445275810.741768) can0 075#585423098F99E900
(1445275810.742108) can0 080#802DF7F200804FD7
(1445275810.742109) can0 0B0#A352C1F7A2678352
(1445275810.742316) can0 145#211040FC85D0F2FD
(1445275810.742560) can0 28C#82BE300000004000
(1445275810.742823) can0 2B5#3922A9B37224204B
(1445275810.745035) can0 010#F831B02F80000000
(1445275810.745267) can0 1D0#610A0A2BD2C5EC00
(1445275810.745823) can0 288#800000003FC0DFC0
(1445275810.748531) can0 1B0#EC00B0000000C000
(1445275810.748792) can0 1B5#EFFFE000000000FF
(1445275810.749059) can0 1D8#43E0303135303734
(1445275810.749329) can0 1E0#E017BD80C10B3C00
(1445275810.749571) can0 2C3#505400FFFF012975
(1445275810.750378) can0 008#80008000551C8199
(1445275810.751425) can0 0E0#00228000F0017162
(1445275810.753724) can0 260#F0DC1649AA00FFD0
(1445275810.754749) can0 010#F831B02F80000000
(1445275810.754960) can0 072#38A078003FFF00F0
(1445275810.755197) can0 2A9#840000C0CA00268C
(1445275810.756645) can0 125#34D7D0C1E67EB7E5
(1445275810.758543) can0 0F5#00F2437F80008000
(1445275810.758760) can0 120#8955F97F80008000
(1445275810.759016) can0 130#11FFF300001DFF87
(1445275810.759291) can0 150#C0F3F7E007FD0000
(1445275810.759563) can0 210#45A709B3A080E025
(1445275810.760395) can0 008#80008000452C8199
(1445275810.760908) can0 055#809C00B227F1F7F1
(1445275810.761179) can0 065#01F78E00F7F0E34F
(1445275810.761504) can0 070#005BF1F8F8404000
(1445275810.761765) can0 075#585423098F99E900
(1445275810.762084) can0 080#802DF7F200804FD7
(1445275810.762085) can0 0B0#A352C1F7A2678352
(1445275810.762350) can0 145#211040FC85D0F2FD
(1445275810.762614) can0 2C0#E5B0001400000000
(1445275810.762826) can0 2C5#7000E000001CA700
(1445275810.764848) can0 010#F831B02F80000000
(1445275810.765114) can0 1D0#61000A2BD2C5EC00
(1445275810.768540) can0 1B0#EC00B0000000C000
(1445275810.768774) can0 1B5#EFFFE000000000FF
(1445275810.769047) can0 1D8#43E0303135303734
(1445275810.769358) can0 1E0#E017BD80C1FB0000
(1445275810.769627) can0 072#388078003FFF00F0
(1445275810.769898) can0 3B0#02C4A4B938B9D800
(1445275810.770366) can0 008#80008000353C8199
(1445275810.770609) can0 350#80000000000000A2
(1445275810.770887) can0 288#800000003FC0DFCC
(1445275810.771415) can0 0E0#00028000F8017162
(1445275810.774754) can0 010#F831B02F80000000
(1445275810.776622) can0 125#34D7D0C1E67EB7E5
(1445275810.778516) can0 0F5#00E2477F80008000
(1445275810.778736) can0 120#8955F87F80008000
(1445275810.778982) can0 130#11FFE300001DFF8F
(1445275810.779229) can0 150#C0E3F7E017FF0000
(1445275810.779483) can0 3CA#C000005600000000
(1445275810.780357) can0 008#80008000254C8199
(1445275810.780975) can0 055#809C00B227F1F7F0
(1445275810.781159) can0 065#01F88E00F7F0E34F
(1445275810.781473) can0 070#005BF1F8F8414000
(1445275810.781697) can0 075#585423098F99E900
(1445275810.781946) can0 080#802DF8F200804FDA
(1445275810.782270) can0 0B0#A352C1F8A2678352
(1445275810.782574) can0 145#A10040FC85D0F2FD
(1445275810.782877) can0 28C#82BE300000004000
(1445275810.782878) can0 2B5#3922A9B37224204B
(1445275810.783147) can0 370#3CD3437600900004
(1445275810.783715) can0 260#F0DC15495500FFD0
(1445275810.785019) can0 010#F831B02F80000000
(1445275810.785312) can0 072#38A078003FFF00F0
(1445275810.785552) can0 1D0#61000A2BD2C5EC00
(1445275810.785801) can0 210#4DA709B3A080E025
(1445275810.788501) can0 1B0#EC00B0000000C000
(1445275810.788821) can0 1B5#EFFFE000000000FF
(1445275810.789128) can0 1D8#43E0303135303734
(1445275810.789388) can0 1E0#E017BD8081FB0000
(1445275810.789689) can0 2C3#505400FFFF012975
(1445275810.790303) can0 008#80008000155C8199
(1445275810.791428) can0 0E0#00E28000C0017162
(1445275810.794678) can0 010#F831B02F80000000
(1445275810.794891) can0 2A9#840000C0C200268C
(1445275810.795876) can0 288#800000003FC0DFC4
(1445275810.796638) can0 125#34D7D0C1E67EB7E5
(1445275810.798466) can0 0F5#00D24B7F80008000
(1445275810.798722) can0 120#8955FC7F80008000
(1445275810.798984) can0 130#11FFD300001DFF97
(1445275810.799228) can0 150#C0D3F7E027FF0000
(1445275810.799484) can0 072#388078003FFF00F0
(1445275810.800384) can0 008#80008000056C8199
(1445275810.800888) can0 055#809C00B227F1F7F1
(1445275810.801182) can0 065#01F88E00F7F1E350
(1445275810.801507) can0 070#005BF1F8F8404000
(1445275810.801766) can0 075#585423098F99E900
(1445275810.802071) can0 080#802DF8F200804FDC
(1445275810.802072) can0 0B0#A352C1F8A2678352
(1445275810.802301) can0 145#211040FC85D0F2FD
(1445275810.804840) can0 010#F831B02F80000000
(1445275810.805112) can0 1D0#61000A2BD2C5EC00
(1445275810.808520) can0 1B0#EC00B0000000C000
(1445275810.808824) can0 1B5#EFFFE000000000FF
(1445275810.809134) can0 1D8#43E0303135303734
(1445275810.809391) can0 1E0#E017BD80C1EB0400
(1445275810.809687) can0 210#45A809B3A080E025
(1445275810.810301) can0 008#80008000F57C8199
