(1445276006.639393) can0 288#80000000DF20DFBC
(1445276006.639636) can0 125#34D7D0C1E68003E5
(1445276006.641404) can0 072#388078003FFF00F0
(1445276006.643641) can0 008#80008000F4BC805B
(1445276006.645177) can0 0F5#00C24F7F80008000
(1445276006.645449) can0 120#8955F97F80008000
(1445276006.645730) can0 130#11FFC300001DFF9F
(1445276006.645983) can0 150#C0C3F7FC37FF0000
(1445276006.646905) can0 010#F831B02F80000000
(1445276006.647151) can0 1D0#61000A2BD2C5EC00
(1445276006.649875) can0 260#F0DC15495500FFD0
(1445276006.653620) can0 008#80008000E4CC805B
(1445276006.654016) can0 0E0#00438000E8007162
(1445276006.655041) can0 1B0#EC00B0000000C000
(1445276006.655311) can0 1B5#EFFFE000000000FF
(1445276006.655554) can0 1D8#43E0303135303734
(1445276006.655798) can0 1E0#E017BD80C1DB0800
(1445276006.656016) can0 2C3#505400FFFF012975
(1445276006.656544) can0 010#F831B02F80000000
(1445276006.656814) can0 072#38A078003FFF00F0
(1445276006.657119) can0 055#809C00B227F4F7F4
(1445276006.657389) can0 065#01FA8E00F7F4E351
(1445276006.657659) can0 070#005BF1FAF82E4000
(1445276006.657929) can0 075#585423098F99E900
(1445276006.658223) can0 080#802DFAF200804FE3
(1445276006.658224) can0 0B0#E352C1FAA2738352
(1445276006.658465) can0 145#211040FC80D0F2FD
(1445276006.658710) can0 28C#88BE300000004000
(1445276006.658951) can0 2B5#2622A9B37219B64B
(1445276006.659197) can0 2C0#E5B0000000000000
(1445276006.659412) can0 125#34D7D0C1E68003E5
(1445276006.659654) can0 2C5#7038E000001F9700
(1445276006.659898) can0 3AF#2000000000000000
(1445276006.661718) can0 210#460B09AAA080E01C
(1445276006.663671) can0 008#80008000D4DC805B
(1445276006.664336) can0 288#80000000DF20DFC0
(1445276006.665154) can0 0F5#00B2537F80008000
(1445276006.665374) can0 120#8955FB7F80008000
(1445276006.665619) can0 130#11FFB300001DFFA7
(1445276006.665844) can0 150#C0B3F7FC47FB0000
(1445276006.666723) can0 010#F831B02F80000000
(1445276006.666994) can0 1D0#61000A2BD2C5EC00
(1445276006.671366) can0 072#388078003FFF00F0
(1445276006.673652) can0 008#80008000C4EC805B
(1445276006.674075) can0 0E0#00238000F0007162
(1445276006.675075) can0 1B0#EC00B0000000C000
(1445276006.675344) can0 1B5#EFFFE000000000FF
(1445276006.675584) can0 1D8#43E0303135303734
(1445276006.675823) can0 1E0#E017BD8081DB0800
(1445276006.676828) can0 010#F831B02F80000000
(1445276006.677154) can0 055#809C00B227F4F7F4
(1445276006.677425) can0 065#01FA8E00F7F4E353
(1445276006.677696) can0 070#005BF1FAF82E4000
(1445276006.677947) can0 075#585423098F99E900
(1445276006.678232) can0 080#802DFAF200804FE3
(1445276006.678233) can0 0B0#E352C1FAA2738352
(1445276006.678478) can0 145#A10040FC80D0F2FD
(1445276006.678697) can0 2A9#840000C0D300268C
(1445276006.678942) can0 370#3CD7437800900004
(1445276006.679334) can0 125#34D7D0C1E68003E5
(1445276006.679944) can0 260#F0DC15495500FFD0
(1445276006.683622) can0 008#80008000B4FC805B
(1445276006.685154) can0 0F5#00A2577F80008000
(1445276006.685398) can0 120#8955F97F80008000
(1445276006.685646) can0 130#11FFA300001DFFAF
(1445276006.685899) can0 150#C0A3F7FC58000000
(1445276006.686933) can0 010#F931B02F80000000
(1445276006.687204) can0 072#38A078003FFF00F0
(1445276006.687450) can0 1D0#61020A2BD2C5EC00
(1445276006.687699) can0 210#4E0B09AAA080E01C
(1445276006.688310) can0 350#80000000000000A2
(1445276006.689310) can0 288#80000000CF30DFCC
(1445276006.693647) can0 008#80008000A40C805B
(1445276006.694051) can0 0E0#00038000F8007162
(1445276006.695073) can0 1B0#EC00B0000000C000
(1445276006.695345) can0 1B5#EFFFE000000000FF
(1445276006.695564) can0 1D8#43E0303135303734
(1445276006.695811) can0 1E0#E017BD80C1CB0C00
(1445276006.696058) can0 2C3#505400FFFF012975
(1445276006.696862) can0 010#F831B02F80000000
(1445276006.697154) can0 055#809C00B227F2F7F2
(1445276006.697375) can0 065#01F98E00F7F3E353
(1445276006.697596) can0 070#005BF1F9F82E4000
(1445276006.697837) can0 075#585423098F99E900
(1445276006.698128) can0 080#802DF9F200804FDE
(1445276006.698400) can0 0B0#E352C1F9A2738352
(1445276006.698692) can0 145#211040FC80D0F2FD
(1445276006.698967) can0 28C#88BE300000004000
(1445276006.698968) can0 2B5#2622A9B37219B64B
(1445276006.699334) can0 125#34D7D0C1E68003E5
(1445276006.701440) can0 072#388078003FFF00F0
(1445276006.703623) can0 008#80008000941C805B
(1445276006.705128) can0 0F5#00925B7F80008000
(1445276006.705400) can0 120#8955F97F80008000
(1445276006.705646) can0 130#11FF9300001DFFB7
(1445276006.705859) can0 150#C093F7FC68000000
(1445276006.706718) can0 581#8100FFFFFFFFFFFF
(1445276006.707050) can0 010#F831B02F80000000
(1445276006.707344) can0 1D0#61080A2BD2C5EC00
(1445276006.707578) can0 400#1801010201000101
(1445276006.709899) can0 260#F0DC15495500FFD0
(1445276006.711300) can0 210#460B09AAA080E01C
(1445276006.713647) can0 008#80008000842C805B
(1445276006.714025) can0 0E0#00E38000C0007162
(1445276006.714335) can0 288#80000000CF30DFC8
(1445276006.715074) can0 1B0#EC00B0000000C000
(1445276006.715372) can0 1B5#EFFFE000000000FF
(1445276006.715587) can0 1D8#43E0303135303734
(1445276006.715841) can0 1E0#E017BD80C1BB1000
(1445276006.716802) can0 010#F831B02F80000000
(1445276006.717051) can0 055#809C00B227F2F7F1
(1445276006.717368) can0 065#01F98E01F7F3E353
(1445276006.717642) can0 070#005BF1F8F82E4000
(1445276006.717915) can0 072#38A078003FFF00F0
(1445276006.718205) can0 075#585423098F99E900
(1445276006.718206) can0 080#802DF9F200804FDE
(1445276006.718451) can0 0B0#E352C1F9A2738352
(1445276006.718706) can0 145#211040FC80D0F2FD
(1445276006.718915) can0 2A9#840000C0CA00268C
(1445276006.719180) can0 2C0#E5B0000000000000
(1445276006.719400) can0 125#34D7D0C1E68003E5
(1445276006.719644) can0 2C5#7038E000001F9700
(1445276006.721596) can0 360#01A05BA7D2012975
(1445276006.723626) can0 008#80008000743C805B
(1445276006.725128) can0 0F5#00825F7F80008000
(1445276006.725400) can0 120#8955F87F80008000
(1445276006.725647) can0 130#11FF8300001DFFBF
(1445276006.725892) can0 150#C083F7FC77FF0000
(1445276006.726154) can0 3CA#C000005100000000
(1445276006.726948) can0 010#F831B02F80000000
(1445276006.727203) can0 1D0#61000A2BD2C5EC00
(1445276006.727449) can0 390#675236020305EF80
(1445276006.731361) can0 072#388078003FFF00F0
(1445276006.731607) can0 3B0#02C4A4B93CB9D800
(1445276006.733622) can0 008#80008000644C805B
(1445276006.734023) can0 0E0#00C38000C8007162
(1445276006.734335) can0 3C8#8E0024888E012975
(1445276006.735155) can0 1B0#EC00B0000000C000
(1445276006.735375) can0 1B5#EFFFE000000000FF
(1445276006.735620) can0 1D8#43E0303135303734
(1445276006.735864) can0 1E0#E017BD8081BB1000
(1445276006.736154) can0 2C3#505400FFFF012975
(1445276006.736920) can0 055#809C00B227F2F7F1
(1445276006.737180) can0 010#F831B02F80000000
(1445276006.737426) can0 065#01F88E01F7F2E353
(1445276006.737622) can0 070#005BF1F8F82E4000
(1445276006.737866) can0 075#585423098F99E900
(1445276006.738128) can0 080#802DF8F200804FDD
(1445276006.738346) can0 0B0#E352C1F8A2738352
(1445276006.738596) can0 145#A10040FC80D0F2FD
(1445276006.738836) can0 210#4E0B09AA2080E01C
(1445276006.739060) can0 28C#88BE300000004000
(1445276006.739350) can0 2B5#2622A9B37219B64B
(1445276006.739616) can0 125#34D7D0C1E68003E5
(1445276006.739883) can0 288#80000000CF30DFC8
(1445276006.740157) can0 3D0#C3800338006109A1
(1445276006.740399) can0 260#F0DC1549AA00FFD0
(1445276006.741544) can0 430#8630000000280828
(1445276006.743622) can0 008#80008000545C805B
(1445276006.745133) can0 0F5#0072637F80008000
(1445276006.745400) can0 120#8955F97F80008000
(1445276006.745648) can0 130#11FF7300001DFFC7
(1445276006.745869) can0 150#C073F7FC87FF0000
(1445276006.746882) can0 010#F831B02F80000000
(1445276006.747154) can0 072#38A078003FFF00F0
(1445276006.747399) can0 1D0#61000A2BD2C5EC00
(1445276006.753648) can0 008#80008000446C805B
(1445276006.754023) can0 0E0#00A38000D0007162
(1445276006.755065) can0 1B0#EC00B0000000C000
(1445276006.755371) can0 1B5#EFFFE000000000FF
(1445276006.755643) can0 1D8#43E0303135303734
(1445276006.755860) can0 1E0#E017BD80C1AB1400
(1445276006.756698) can0 010#F831B02F80000000
(1445276006.756946) can0 055#809C00B227F0F7EF
(1445276006.757203) can0 065#01F78E01F7F1E356
(1445276006.757426) can0 070#005BF1F7F82E4000
(1445276006.757674) can0 075#585423098F99E900
(1445276006.757869) can0 080#802DF8F200804FDD
(1445276006.758120) can0 0B0#E352C1F8A2738352
(1445276006.758364) can0 145#211040FC80D0F2FD
(1445276006.758644) can0 2A9#840000C0D300268C
(1445276006.759335) can0 125#34D7D0C1E68003E5
(1445276006.761359) can0 072#388078003FFF00F0
(1445276006.761603) can0 210#4E0B09AAA080E01C
(1445276006.763649) can0 008#80008000347C805B
(1445276006.764359) can0 288#80000000CF30DFC8
(1445276006.765151) can0 0F5#0062677F80008000
(1445276006.765400) can0 120#8955F87F80008000
(1445276006.765622) can0 130#11FF6300001DFFCF
(1445276006.765867) can0 150#C063F7FC97FF0000
(1445276006.766779) can0 010#F931B02F80000000
(1445276006.767050) can0 1D0#61020A2BD2C5EC00
(1445276006.769959) can0 260#F0DC1649AA00FFD0
(1445276006.773623) can0 008#80008000248C805B
(1445276006.773998) can0 0E0#00838000D8007162
(1445276006.775064) can0 1B0#EC00B0000000C000
(1445276006.775396) can0 1B5#EFFFE000000000FF
(1445276006.775668) can0 1D8#43E0303135303734
(1445276006.775941) can0 1E0#E017BD80C19B1800
(1445276006.776180) can0 2C3#505400FFFF012975
(1445276006.776817) can0 010#F831B02F80000000
(1445276006.777153) can0 055#809C00B227F0F7EF
(1445276006.777427) can0 065#01F78E01F7F0E354
(1445276006.777699) can0 070#005BF1F7F82E4000
(1445276006.777945) can0 072#38A078003FFF00F0
(1445276006.778258) can0 075#585423098F99E900
(1445276006.778258) can0 080#802DF7F200804FD7
(1445276006.778504) can0 0B0#E352C1F7A2738352
(1445276006.778724) can0 145#211040FC80D0F2FD
(1445276006.778976) can0 28C#88BE300000004000
(1445276006.779205) can0 2B5#2622A9B37219B64B
(1445276006.779449) can0 125#34D7D0C1E68003E5
(1445276006.779695) can0 2C0#E5B0000000000000
(1445276006.779941) can0 2C5#7038E000001F9700
(1445276006.780179) can0 350#80000000000000A2
(1445276006.780426) can0 370#3CD7437700900004
(1445276006.780671) can0 3AF#2000000000000000
(1445276006.780917) can0 3E0#8880984F18000000
(1445276006.783602) can0 008#80008000149C805B
(1445276006.785130) can0 0F5#00526B7F80008000
(1445276006.785370) can0 120#8955FA7F80008000
(1445276006.785588) can0 130#11FF5300001DFFD7
(1445276006.785838) can0 150#C053F7FCA7FF0000
(1445276006.786830) can0 010#F831B02F80000000
(1445276006.787154) can0 1D0#61080A2BD2C5EC00
(1445276006.787373) can0 210#460B09AAA080E01C
(1445276006.789385) can0 288#80000000BF40DFD9
(1445276006.791518) can0 072#388078003FFF00F0
(1445276006.793621) can0 008#8000800004AC805B
(1445276006.793998) can0 0E0#00638000E0007162
(1445276006.795065) can0 1B0#EC00B0000000C000
(1445276006.795320) can0 1B5#EFFFE000000000FF
(1445276006.795588) can0 1D8#43E0303135303734
(1445276006.795835) can0 1E0#E017BD80819B1800
(1445276006.796933) can0 010#F831B02F80000000
(1445276006.797179) can0 055#809C00B227F1F7F0
(1445276006.797426) can0 065#01F78E01F7F0E354
(1445276006.797671) can0 070#005BF1F7F82E4000
(1445276006.797892) can0 075#585423098F99E900
(1445276006.798127) can0 080#802DF7F200804FD9
(1445276006.798373) can0 0B0#E352C1F7A2738352
(1445276006.798625) can0 145#A10040FC80D0F2FD
(1445276006.798866) can0 2A9#840000C0CA00268C
(1445276006.799288) can0 125#34D7D0C1E68003E5
(1445276006.799974) can0 260#F0DC1549AA00FFD0
(1445276006.803594) can0 008#80008000F4BC805B
(1445276006.805153) can0 0F5#00426F7F80008000
(1445276006.805374) can0 120#8955F97F80008000
(1445276006.805619) can0 130#11FF4300001DFFDF
(1445276006.805865) can0 150#C043F7FCB8050000
(1445276006.806704) can0 010#F831B02F80000000
(1445276006.806969) can0 072#38A078003FFF00F0
(1445276006.807203) can0 1D0#61000A2BD2C5EC00
(1445276006.811258) can0 210#4E0B09AAA080E01C
(1445276006.813618) can0 008#80008000E4CC805B
(1445276006.813995) can0 0E0#00438000E8007162
(1445276006.814387) can0 288#80000000BF40DFC0
(1445276006.815046) can0 1B0#EC00B0000000C000
(1445276006.815340) can0 1B5#EFFFE000000000FF
(1445276006.815637) can0 1D8#43E0303135303734
(1445276006.815906) can0 1E0#E017BD80C18B1C00
(1445276006.816149) can0 2C3#505400FFFF012975
(1445276006.816806) can0 010#F831B02F80000000
(1445276006.817149) can0 055#809C00B227F0F7F0
(1445276006.817417) can0 065#01F78E00F7F0E353
(1445276006.817704) can0 070#005BF1F7F82E4000
(1445276006.817937) can0 075#585423098F99E900
(1445276006.818231) can0 080#802DF7F200804FD9
(1445276006.818232) can0 0B0#E352C1F7A2738352
(1445276006.818478) can0 145#211040FC80D0F2FD
(1445276006.818725) can0 28C#88BE300000004000
(1445276006.818971) can0 2B5#2622A9B3721AB64B
(1445276006.819281) can0 125#34D7D0C1E68003E5
(1445276006.821524) can0 072#388078003FFF00F0
(1445276006.821762) can0 360#01A05CA7D2012975
(1445276006.823595) can0 008#80008000D4DC805B
(1445276006.825132) can0 0F5#0032737F80008000
(1445276006.825400) can0 120#8955F87F80008000
(1445276006.825647) can0 130#11FF3300001DFFE7
(1445276006.825869) can0 150#C033F7FCC7FD0000
(1445276006.826935) can0 010#F831B02F80000000
(1445276006.827203) can0 1D0#61000A2BD2C5EC00
(1445276006.827449) can0 390#475332020305EF80
(1445276006.829982) can0 260#F0DC1549AA00FFD0
(1445276006.833621) can0 008#80008000C4EC805B
(1445276006.833972) can0 0E0#00238000F0007162
(1445276006.835152) can0 1B0#EC00B0000000C000
(1445276006.835426) can0 1B5#EFFFE000000000FF
(1445276006.835699) can0 1D8#43E0303135303734
(1445276006.835946) can0 1E0#E017BD80C17B2000
(1445276006.836908) can0 010#F831B02F80000000
(1445276006.837179) can0 055#809C00B227F0F7F0
(1445276006.837425) can0 065#01F78E00F7F0E353
(1445276006.837645) can0 070#005BF1F7F82E4000
(1445276006.837867) can0 072#38A078003FFF00F0
(1445276006.838127) can0 075#585423098F99E900
(1445276006.838373) can0 080#802DF7F200804FD9
(1445276006.838650) can0 0B0#E352C1F7A2738352
(1445276006.838914) can0 145#211040FC80D0F2FD
(1445276006.839179) can0 210#460B09AAA080E01C
(1445276006.839450) can0 2A9#840000C0C200268C
(1445276006.839749) can0 125#34D7D0C1E68003E5
(1445276006.839750) can0 288#80000000BF40DFC4
(1445276006.839995) can0 2C0#E5B0000000000000
(1445276006.840231) can0 2C5#7038E000001F9700
(1445276006.843595) can0 008#80008000B4FC805B
(1445276006.845127) can0 0F5#0022777F80008000
(1445276006.845371) can0 120#8955F97F80008000
(1445276006.845618) can0 130#11FF2300001DFFEF
(1445276006.845864) can0 150#C023F7FCD8000000
(1445276006.846152) can0 3CA#C000005200000000
(1445276006.846946) can0 010#F931B02F80000000
(1445276006.847205) can0 1D0#61020A2BD2C5EC00
(1445276006.851699) can0 072#388078003FFF00F0
(1445276006.851970) can0 3B0#00C4A4B938B9D800
(1445276006.853595) can0 008#80008000A40C805B
(1445276006.853997) can0 0E0#00038000F8007162
(1445276006.854387) can0 3C8#8E0024888E012975
(1445276006.855048) can0 1B0#EC00B0000000C000
(1445276006.855344) can0 1B5#EFFFE000000000FF
(1445276006.855561) can0 1D8#43E0303135303734
(1445276006.855806) can0 1E0#E017BD80817B2000
(1445276006.856056) can0 2C3#505400FFFF012975
(1445276006.856681) can0 010#F831B02F80000000
(1445276006.856953) can0 055#809C00B227F1F7F0
(1445276006.857202) can0 065#01F78DFFF7F0E352
(1445276006.857426) can0 070#005BF1F8F82E4000
(1445276006.857672) can0 075#585423098F99E900
(1445276006.857918) can0 080#802DF7F200804FD9
(1445276006.858203) can0 0B0#E352C1F7A2738352
(1445276006.858476) can0 145#A10040FC80D0F2FD
(1445276006.858749) can0 28C#88BE300000004000
(1445276006.858969) can0 2B5#2422A9B3721AB64B
(1445276006.859257) can0 125#34D7D0C1E68003E5
(1445276006.859971) can0 260#F0DC15495500FFD0
(1445276006.861309) can0 210#460B09AAA080E01C
(1445276006.863600) can0 008#80008000941C805B
(1445276006.864382) can0 288#80000000BF40DFC0
(1445276006.865146) can0 0F5#00127B7F80008000
(1445276006.865389) can0 120#8955F87F80008000
(1445276006.865605) can0 130#11FF1300001DFFF7
(1445276006.865856) can0 150#C013F7FCE7FF0000
(1445276006.866882) can0 010#F831B02F80000000
(1445276006.867152) can0 072#38A078003FFF00F0
(1445276006.867401) can0 1D0#61080A2BD2C5EC00
(1445276006.867656) can0 405#016738B1033D07D5
(1445276006.868314) can0 350#80000000000000A2
(1445276006.873594) can0 008#80008000842C805B
(1445276006.873968) can0 0E0#00E38000C0007162
(1445276006.875038) can0 1B0#EC00B0000000C000
(1445276006.875320) can0 1B5#EFFFE000000000FF
(1445276006.875616) can0 1D8#43E0303135303734
(1445276006.875862) can0 1E0#E017BD80C16B2400
(1445276006.876776) can0 010#F831B02F80000000
(1445276006.877047) can0 055#809C00B227F1F7F0
(1445276006.877396) can0 065#01F88DFFF7F1E352
(1445276006.877666) can0 070#005BF1F8F82E4000
(1445276006.877965) can0 075#585423098F99E900
(1445276006.877966) can0 080#802DF8F200804FDA
(1445276006.878202) can0 0B0#E352C1F8A2738352
(1445276006.878449) can0 145#211040FC80D0F2FD
(1445276006.878674) can0 2A9#840000C0DB00268C
(1445276006.878920) can0 370#3CD3437800900004
(1445276006.879257) can0 125#34D7D0C1E68003E5
(1445276006.881522) can0 072#388078003FFF00F0
(1445276006.883596) can0 008#80008000743C805B
(1445276006.885152) can0 0F5#00027F7F80008000
(1445276006.885374) can0 120#8955F87F80008000
(1445276006.885620) can0 130#11FF0300001DFFFF
(1445276006.885868) can0 150#C003F7FCF7FF0000
(1445276006.886881) can0 010#F831B02F80000000
(1445276006.887152) can0 1D0#61000A2BD2C5EC00
(1445276006.887398) can0 210#4E0B09AA2080E01C
(1445276006.889412) can0 288#80000000AF50DFC8
(1445276006.890024) can0 260#F0DC15495500FFD0
(1445276006.893597) can0 008#80008000644C805B
(1445276006.893971) can0 0E0#00C38000C8007162
(1445276006.895037) can0 1B0#EC00B0000000C000
(1445276006.895396) can0 1B5#EFFFE000000000FF
(1445276006.895668) can0 1D8#43E0303135303734
(1445276006.895941) can0 1E0#E017BD80C15B2800
(1445276006.896178) can0 2C3#505400FFFF012975
(1445276006.896685) can0 010#F831B02F80000000
(1445276006.896961) can0 055#809C00B227F3F7F2
(1445276006.897179) can0 065#01F88DFFF7F1E350
(1445276006.897449) can0 070#005BF1F9F82E4000
(1445276006.897673) can0 072#38A078003FFF00F0
(1445276006.897944) can0 075#585423098F99E900
(1445276006.898210) can0 080#802DF8F200804FDA
(1445276006.898477) can0 0B0#E352C1F8A2738352
(1445276006.898750) can0 145#211040FC80D0F2FD
(1445276006.899048) can0 28C#87BE300000004000
(1445276006.899049) can0 2B5#2422A9B37219B64B
(1445276006.899318) can0 125#34D7D0C1E68003E5
(1445276006.899564) can0 2C0#E5B0000000000000
(1445276006.899810) can0 2C5#7038E000001F9700
(1445276006.900031) can0 3AF#2000000000000000
(1445276006.903561) can0 008#80008000545C805B
(1445276006.905152) can0 0F5#00F2437F80008000
(1445276006.905400) can0 120#8955FB7F80008000
(1445276006.905647) can0 130#11FFF300001DFF87
(1445276006.905894) can0 150#C0F3F7FC07FF0000
(1445276006.906799) can0 010#F831B02F80000000
(1445276006.907039) can0 1D0#61000A2BD2C5EC00
(1445276006.911310) can0 072#388078003FFF00F0
(1445276006.911580) can0 210#460B09AAA080E01C
(1445276006.913594) can0 008#80008000446C805B
(1445276006.913971) can0 0E0#00A38000D0007162
(1445276006.914409) can0 288#80000000AF50DFC4
(1445276006.915047) can0 1B0#EC00B0000000C000
(1445276006.915341) can0 1B5#EFFFE000000000FF
(1445276006.915591) can0 1D8#43E0303135303734
(1445276006.915838) can0 1E0#E017BD80815B2800
(1445276006.916803) can0 010#F831B02F80000000
(1445276006.917051) can0 055#809C00B227F3F7F2
(1445276006.917370) can0 065#01F98E00F7F2E352
(1445276006.917642) can0 070#005BF1F9F82E4000
(1445276006.917885) can0 075#585423098F99E900
(1445276006.918179) can0 080#802DF9F200804FDF
(1445276006.918179) can0 0B0#E352C1F9A2738352
(1445276006.918451) can0 145#A10040FC80D0F2FD
(1445276006.918696) can0 2A9#840000C0C200268C
(1445276006.919235) can0 125#34D7D0C1E68003E5
(1445276006.920002) can0 260#F0DC15495500FFD0
(1445276006.921671) can0 360#01A05CA7D2012975
(1445276006.923589) can0 008#80008000347C805B
(1445276006.925148) can0 0F5#00E2477F80008000
(1445276006.925391) can0 120#8955FA7F80008000
(1445276006.925631) can0 130#11FFE300001DFF8F
(1445276006.925876) can0 150#C0E3F7FC17FF0000
(1445276006.926960) can0 010#F931B02F80000000
(1445276006.927203) can0 072#38A078003FFF00F0
(1445276006.927448) can0 1D0#61020A2BD2C5EC00
(1445276006.927670) can0 390#47542E020305EF80
(1445276006.933569) can0 008#80008000248C805B
(1445276006.933919) can0 0E0#00838000D8007162
(1445276006.935038) can0 1B0#EC00B0000000C000
(1445276006.935395) can0 1B5#EFFFE000000000FF
(1445276006.935669) can0 1D8#43E0303135303734
(1445276006.935940) can0 1E0#E017BD80C14B2C00
(1445276006.936179) can0 2C3#505400FFFF012975
(1445276006.936894) can0 055#809C00B227F2F7F1
(1445276006.937178) can0 010#F831B02F80000000
(1445276006.937400) can0 065#01F88E00F7F2E352
(1445276006.937646) can0 070#005BF1F8F82E4000
(1445276006.937868) can0 075#585423098F99E900
(1445276006.938127) can0 080#802DF8F200804FDC
(1445276006.938399) can0 0B0#E352C1F8A2738352
(1445276006.938672) can0 145#211040FC80D0F2FD
(1445276006.938943) can0 210#4E0B09AAA080E01C
(1445276006.939256) can0 28C#87BE300000004000
(1445276006.939257) can0 125#34D7D0C1E68003E5
(1445276006.939529) can0 288#80000000AF50DFC4
(1445276006.939748) can0 2B5#2722A9B37219B64B
(1445276006.939993) can0 3D0#C3800338006109A1
(1445276006.941517) can0 072#388078003FFF00F0
(1445276006.943568) can0 008#80008000149C805B
(1445276006.945125) can0 0F5#00D24B7F80008000
(1445276006.945371) can0 120#8955FB7F80008000
(1445276006.945619) can0 130#11FFD300001DFF97
(1445276006.945865) can0 150#C0D3F7FC28000000
(1445276006.946960) can0 010#F831B02F80000000
(1445276006.947202) can0 1D0#61080A2BD2C5EC00
(1445276006.950011) can0 260#F0DC1549AA00FFD0
(1445276006.953595) can0 008#8000800004AC805B
(1445276006.953944) can0 0E0#00638000E0007162
(1445276006.955037) can0 1B0#EC00B0000000C000
(1445276006.955393) can0 1B5#EFFFE000000000FF
(1445276006.955669) can0 1D8#43E0303135303734
(1445276006.955889) can0 1E0#E017BD80C13B3000
(1445276006.956672) can0 010#F831B02F80000000
(1445276006.956945) can0 055#809C00B227F2F7F1
(1445276006.957178) can0 065#01F88E00F7F2E34F
(1445276006.957424) can0 070#005BF1F8F82E4000
(1445276006.957644) can0 072#38A078003FFF00F0
(1445276006.957866) can0 075#585423098F99E900
(1445276006.958126) can0 080#802DF8F200804FDC
(1445276006.958398) can0 0B0#E352C1F8A2738352
(1445276006.958671) can0 145#211040FC80D0F2FD
(1445276006.958942) can0 2A9#840000C0DB00268C
(1445276006.959229) can0 2C0#E5B0000000000000
(1445276006.959528) can0 125#34D7D0C1E68003E5
(1445276006.959529) can0 2C5#7038E000001F9700
(1445276006.959802) can0 350#80000000000000A2
(1445276006.959996) can0 400#1901000000010101
(1445276006.961367) can0 210#4E0B09AAA080E01A
(1445276006.963595) can0 008#80008000F4BC805B
(1445276006.964439) can0 288#80000000AF50DFC0
(1445276006.965152) can0 0F5#00C24F7F80008000
(1445276006.965399) can0 120#8955FA7F80008000
(1445276006.965647) can0 130#11FFC300001DFF9F
(1445276006.965893) can0 150#C0C3F7FC37FD0000
(1445276006.966152) can0 3CA#C000005300000000
(1445276006.966788) can0 010#F831B02F80000000
(1445276006.967025) can0 1D0#61000A2BD2C5EC00
(1445276006.971439) can0 072#388078003FFF00F0
(1445276006.971684) can0 3B0#00C4A4B938B9D800
(1445276006.973568) can0 008#80008000E4CC805B
(1445276006.973943) can0 0E0#00438000E8007162
(1445276006.974412) can0 3C8#8E0024888E012975
(1445276006.975051) can0 1B0#EC00B0000000C000
(1445276006.975343) can0 1B5#EFFFE000000000FF
(1445276006.975616) can0 1D8#43E0303135303734
(1445276006.975889) can0 1E0#E017BD80813B3000
(1445276006.976153) can0 2C3#505400FFFF012975
(1445276006.976864) can0 010#F831B02F80000000
(1445276006.977152) can0 055#809C00B227F4F7F3
(1445276006.977425) can0 065#01FA8E00F7F3E34F
(1445276006.977672) can0 070#005BF1FAF82E4000
(1445276006.977942) can0 075#585423098F99E900
(1445276006.978256) can0 080#802DFAF200804FE2
(1445276006.978257) can0 0B0#E352C1FAA2738352
(1445276006.978500) can0 145#A10040FC80D0F2FD
(1445276006.978748) can0 28C#87BE300000004000
(1445276006.978994) can0 2B5#2722A9B37219B64B
(1445276006.979230) can0 370#3CD3437800900004
(1445276006.979476) can0 125#34D7D0C1E68003E5
(1445276006.980032) can0 260#F0DC1549AA00FFD0
(1445276006.983543) can0 008#80008000D4DC805B
(1445276006.985131) can0 0F5#00B2537F80008000
(1445276006.985399) can0 120#8955FC7F80008000
(1445276006.985646) can0 130#11FFB300001DFFA7
(1445276006.985867) can0 150#C0B3F7FC47FF0000
(1445276006.986802) can0 010#F831B02F80000000
(1445276006.987049) can0 072#38A078003FFF00F0
(1445276006.987369) can0 1D0#61000A2BD2C5EC00
(1445276006.987587) can0 210#460B09AAA080E01A
(1445276006.989438) can0 288#800000009F60DFCC
(1445276006.993607) can0 008#80008000C4EC805B
(1445276006.993976) can0 0E0#00238000F0007162
(1445276006.995113) can0 1B0#EC00B0000000C000
(1445276006.995348) can0 1B5#EFFFE000000000FF
(1445276006.995542) can0 1D8#43E0303135303734
(1445276006.995824) can0 1E0#E017BD80C12B3400
(1445276006.996926) can0 010#F831B02F80000000
(1445276006.997160) can0 055#809C00B227F2F7F0
(1445276006.997422) can0 065#01FA8E00F7F4E353
(1445276006.997685) can0 070#005BF1F8F82E4000
(1445276006.997970) can0 075#585423098F99E900
(1445276006.998258) can0 080#802DFAF200804FE2
(1445276006.998585) can0 0B0#E352C1FAA2738352
(1445276006.998586) can0 145#211040FC80D0F2FD
(1445276006.998852) can0 2A9#840000C0C200268C
(1445276006.999257) can0 125#34D7D0C1E68003E5
(1445276007.001614) can0 072#388078003FFF00F0
(1445276007.003577) can0 008#80008000B4FC805B
(1445276007.005201) can0 0F5#00A2577F80008000
(1445276007.005437) can0 120#8955FB7F80008000
(1445276007.005759) can0 130#11FFA300001DFFAF
(1445276007.006006) can0 150#C0A3F7FC58000000
(1445276007.006923) can0 010#F931B02F80000000
(1445276007.007181) can0 1D0#61020A2BD2C5EC00
(1445276007.010085) can0 260#F0DC1549AA00FFD0
(1445276007.011457) can0 210#4E0B09AAA080E01A
(1445276007.013616) can0 008#80008000A40C805B
(1445276007.013954) can0 0E0#00038000F8007162
(1445276007.014463) can0 288#800000009F60DFCC
(1445276007.015053) can0 1B0#EC00B0000000C000
(1445276007.015380) can0 1B5#EFFFE000000000FF
(1445276007.015698) can0 1D8#43E0303135303734
(1445276007.016005) can0 1E0#E017BD80C11B3800
(1445276007.016006) can0 2C3#505400FFFF012975
(1445276007.016854) can0 010#F831B02F80000000
(1445276007.017099) can0 055#809C00B227F1F7F0
(1445276007.017373) can0 065#01F88E00F7F2E353
(1445276007.017686) can0 070#005BF1F8F82E4000
(1445276007.017923) can0 072#38A078003FFF00F0
(1445276007.018232) can0 075#585423098F99E900
(1445276007.018233) can0 080#802DF8F200804FDA
(1445276007.018507) can0 0B0#E352C1F8A2738352
(1445276007.018757) can0 145#211040FC80D0F2FD
(1445276007.019005) can0 28C#88BE300000004000
(1445276007.019309) can0 2B5#2722A9B37219B64B
(1445276007.019605) can0 125#34D7D0C1E68003E5
(1445276007.019970) can0 2C0#E5B0000000000000
(1445276007.019971) can0 2C5#7038E000001F9700
(1445276007.020202) can0 3AF#2000000000000000
(1445276007.021640) can0 360#01A05CA7D2012975
(1445276007.023615) can0 008#80008000941C805B
(1445276007.025200) can0 0F5#00925B7F80008000
(1445276007.025435) can0 120#8955F97F80008000
(1445276007.025685) can0 130#11FF9300001DFFB7
(1445276007.025974) can0 150#C093F7FC68000000
(1445276007.027008) can0 010#F831B02F80000000
(1445276007.027219) can0 1D0#61080A2BD2C5EC00
(1445276007.027472) can0 390#47552A020305EF80
(1445276007.031421) can0 072#388078003FFF00F0
(1445276007.033608) can0 008#80008000842C805B
(1445276007.033955) can0 0E0#00E38000C0007162
(1445276007.035086) can0 1B0#EC00B0000000C000
(1445276007.035381) can0 1B5#EFFFE000000000FF
(1445276007.035666) can0 1D8#43E0303135303734
(1445276007.035915) can0 1E0#E017BD80811B3800
(1445276007.036950) can0 010#F831B02F80000000
(1445276007.037181) can0 055#809C00B227F3F7F3
(1445276007.037430) can0 065#01F88E00F7F1E350
(1445276007.037743) can0 070#005BF1F9F82E4000
(1445276007.038008) can0 075#585423098F99E900
(1445276007.038354) can0 080#802DF8F200804FDA
(1445276007.038355) can0 0B0#E352C1F8A2738352
(1445276007.038592) can0 145#A10040FC80D0F2FD
(1445276007.038862) can0 210#460B09AA2080E01A
(1445276007.039166) can0 2A9#840000C0CA00268C
(1445276007.039448) can0 125#34D7D0C1E68003E5
(1445276007.039718) can0 288#800000009F60DFD5
(1445276007.040087) can0 260#F0DC15495500FFD0
(1445276007.043619) can0 008#80008000743C805B
(1445276007.045201) can0 0F5#00825F7F80008000
(1445276007.045436) can0 120#8955F97F80008000
(1445276007.045735) can0 130#11FF8300001DFFBF
(1445276007.046005) can0 150#C083F7FC77FF0000
(1445276007.047058) can0 010#F831B02F80000000
(1445276007.047334) can0 072#38A078003FFF00F0
(1445276007.047610) can0 1D0#61000A2BD2C5EC00
(1445276007.048290) can0 350#80000000000000A2
(1445276007.053615) can0 008#80008000644C805B
(1445276007.053916) can0 0E0#00C38000C8007162
(1445276007.055086) can0 1B0#EC00B0000000C000
(1445276007.055381) can0 1B5#EFFFE000000000FF
(1445276007.055722) can0 1D8#43E0303135303734
(1445276007.056009) can0 1E0#E017BD80C10B3C00
(1445276007.056010) can0 2C3#505400FFFF012975
(1445276007.056708) can0 010#F831B02F80000000
(1445276007.056943) can0 055#809C00B227F3F7F3
(1445276007.057228) can0 065#01F98E00F7F3E355
(1445276007.057501) can0 070#005BF1F9F82E4000
(1445276007.057822) can0 075#585423098F99E900
(1445276007.058192) can0 080#802DF9F200804FE0
(1445276007.058194) can0 0B0#E352C1F9A2738352
(1445276007.058376) can0 145#211040FC80D0F2FD
(1445276007.058633) can0 28C#88BE300000004000
(1445276007.058881) can0 2B5#2422A9B37219B64B
(1445276007.059229) can0 125#34D7D0C1E68003E5
(1445276007.061355) can0 072#388078003FFF00F0
(1445276007.061590) can0 210#460B09AAA080E01A
(1445276007.063618) can0 008#80008000545C805B
(1445276007.064449) can0 288#800000009F60DFC4
(1445276007.065192) can0 0F5#0072637F80008000
(1445276007.065375) can0 120#8955F97F80008000
(1445276007.065624) can0 130#11FF7300001DFFC7
(1445276007.065881) can0 150#C073F7FC88030000
(1445276007.066902) can0 010#F831B02F80000000
(1445276007.067180) can0 1D0#61000A2BD2C5EC00
(1445276007.070083) can0 260#F0DC15495500FFD0
(1445276007.073615) can0 008#80008000446C805B
(1445276007.073875) can0 0E0#00A38000D0007162
(1445276007.075078) can0 1B0#EC00B0000000C000
(1445276007.075365) can0 1B5#EFFFE000000000FF
(1445276007.075633) can0 1D8#43E0303135303734
(1445276007.075883) can0 1E0#E017BD80C1FB0000
(1445276007.076846) can0 010#F831B02F80000000
(1445276007.077092) can0 055#809C00B227F0F7EF
(1445276007.077419) can0 065#01F78E00F7F1E355
(1445276007.077693) can0 070#005BF1F7F82E4000
(1445276007.078006) can0 072#38A078003FFF00F0
(1445276007.078008) can0 075#585423098F99E900
(1445276007.078253) can0 080#802DF8F200804FDA
(1445276007.078507) can0 0B0#E352C1F7A2738352
(1445276007.078828) can0 145#211040FC80D0F2FD
(1445276007.079165) can0 2A9#840000C0D300268C
(1445276007.079491) can0 2C0#E5B0000000000000
(1445276007.079492) can0 125#34D7D0C1E68003E5
(1445276007.079734) can0 2C5#7038E000001F9700
(1445276007.080043) can0 370#3CD3437800900004
(1445276007.080370) can0 3E0#8880984F18000000
(1445276007.083604) can0 008#80008000347C805B
(1445276007.085200) can0 0F5#0062677F80008000
(1445276007.085463) can0 120#8955FA7F80008000
(1445276007.085774) can0 130#11FF6300001DFFCF
(1445276007.086014) can0 150#C063F7FC97FD0000
(1445276007.086254) can0 3CA#C000005400000000
(1445276007.086878) can0 010#F931B02F80000000
(1445276007.087166) can0 1D0#61020A2BD2C5EC00
(1445276007.087431) can0 210#4E0B09AAA080E01A
(1445276007.089537) can0 288#800000008F70DFD5
(1445276007.091516) can0 072#388078003FFF00F0
(1445276007.091729) can0 3B0#00C4A4B938B9D800
(1445276007.093613) can0 008#80008000248C805B
(1445276007.093879) can0 0E0#00838000D8007162
(1445276007.094490) can0 3C8#8E0024888E012975
(1445276007.095093) can0 1B0#EC00B0000000C000
(1445276007.095384) can0 1B5#EFFFE000000000FF
(1445276007.095632) can0 1D8#43E0303135303734
(1445276007.095949) can0 1E0#E017BD8081FB0000
(1445276007.096225) can0 2C3#505400FFFF012975
(1445276007.096728) can0 010#F831B02F80000000
(1445276007.097004) can0 055#809C00B227F0F7EF
(1445276007.097292) can0 065#01F78E00F7F0E350
(1445276007.097596) can0 070#005BF1F7F82E4000
(1445276007.097841) can0 075#585423098F99E900
(1445276007.098165) can0 080#802DF7F200804FD7
(1445276007.098165) can0 0B0#E352C1F7A2738352
(1445276007.098404) can0 145#A10040FC80D0F2FD
(1445276007.098664) can0 28C#88BE300000004000
(1445276007.098924) can0 2B5#2422A9B37219B64B
(1445276007.099208) can0 125#34D7D0C1E68003E5
(1445276007.100056) can0 260#F0DC15495500FFD0
(1445276007.103618) can0 008#80008000149C805B
(1445276007.105197) can0 0F5#00526B7F80008000
(1445276007.105491) can0 120#8955F97F80008000
(1445276007.105793) can0 130#11FF5300001DFFD7
(1445276007.106043) can0 150#C053F7FCA8030000
(1445276007.106931) can0 010#F831B02F80000000
(1445276007.107178) can0 072#38A078003FFF00F0
(1445276007.107465) can0 1D0#61080A2BD2C5EC00
(1445276007.111716) can0 210#460B09AAA080E01A
(1445276007.113611) can0 008#8000800004AC805B
(1445276007.113910) can0 0E0#00638000E0007162
(1445276007.114506) can0 288#800000008F70DFC8
(1445276007.115043) can0 1B0#EC00B0000000C000
(1445276007.115434) can0 1B5#EFFFE000000000FF
(1445276007.115696) can0 1D8#43E0303135303734
(1445276007.115969) can0 1E0#E017BD80C1EB0400
(1445276007.116653) can0 010#F831B02F80000000
(1445276007.116954) can0 2A9#840000C0CA00268C
(1445276007.117163) can0 055#809C00B227F3F7F3
(1445276007.117421) can0 065#01F98E00F7F1E350
(1445276007.117673) can0 070#005BF1F9F82E4000
(1445276007.117932) can0 075#585423098F99E900
(1445276007.118178) can0 080#802DF9F200804FE0
(1445276007.118475) can0 0B0#E352C1F9A2738352
(1445276007.118792) can0 145#211040FC80D0F2FD
(1445276007.118793) can0 405#023F34003A012975
(1445276007.119228) can0 125#34D7D0C1E68003E5
(1445276007.121593) can0 072#388078003FFF00F0
(1445276007.121832) can0 360#01A05CA7D2012975
(1445276007.123589) can0 008#80008000F4BC805B
(1445276007.125201) can0 0F5#00426F7F80008000
(1445276007.125487) can0 120#8955FB7F80008000
(1445276007.125786) can0 130#11FF4300001DFFDF
(1445276007.126001) can0 150#C043F7FCB7FF0000
(1445276007.126979) can0 010#F831B02F80000000
(1445276007.127231) can0 1D0#61000A2BD2C5EC00
(1445276007.127518) can0 390#475626020305EF80
(1445276007.130201) can0 260#F0DC15495500FFD0
(1445276007.133589) can0 008#80008000E4CC805B
(1445276007.133880) can0 0E0#00438000E8007162
(1445276007.135039) can0 1B0#EC00B0000000C000
(1445276007.135395) can0 1B5#EFFFE000000000FF
(1445276007.135660) can0 1D8#43E0303135303734
(1445276007.135928) can0 1E0#E017BD80C1DB0800
(1445276007.136173) can0 2C3#505400FFFF012975
(1445276007.136727) can0 010#F831B02F80000000
(1445276007.136977) can0 055#809C00B227F3F7F3
(1445276007.137207) can0 065#01F98E00F7F3E354
(1445276007.137448) can0 070#005BF1F9F82E4000
(1445276007.137695) can0 072#38A078003FFF00F0
(1445276007.137933) can0 075#585423098F99E900
(1445276007.138180) can0 080#802DF9F200804FE0
(1445276007.138450) can0 0B0#E352C1F9A2738352
(1445276007.138738) can0 145#211040FC80D0F2FD
(1445276007.139061) can0 210#4E0B09AAA080E01A
(1445276007.139391) can0 28C#88BE300000004000
(1445276007.139392) can0 125#34D7D0C1E68003E5
(1445276007.139615) can0 288#800000008F70DFC4
(1445276007.139856) can0 2B5#2322A9B3721AB64B
(1445276007.140146) can0 2C0#E5B0000000000000
(1445276007.140426) can0 2C5#7038E000001F9700
(1445276007.140730) can0 350#80000000000000A2
(1445276007.141079) can0 3AF#2000000000000000
(1445276007.141080) can0 3D0#C3800338006109A1
(1445276007.143528) can0 008#80008000D4DC805B
(1445276007.145154) can0 0F5#0032737F80008000
(1445276007.145502) can0 120#8955FA7F80008000
(1445276007.145770) can0 130#11FF3300001DFFE7
(1445276007.145980) can0 150#C033F7FCC7FB0000
(1445276007.147039) can0 010#F831B02F80000000
(1445276007.147368) can0 1D0#61000A2BD2C5EC00
(1445276007.151456) can0 072#388078003FFF00F0
(1445276007.153590) can0 008#80008000C4EC805B
(1445276007.153880) can0 0E0#00238000F0007162
(1445276007.155081) can0 1B0#EC00B0000000C000
(1445276007.155418) can0 1B5#EFFFE000000000FF
(1445276007.155676) can0 1D8#43E0303135303734
(1445276007.155892) can0 1E0#E017BD8081DB0800
(1445276007.156817) can0 010#F831B02F80000000
(1445276007.157072) can0 055#809C00B227F0F7F0
(1445276007.157379) can0 065#01F78E00F7F1E354
(1445276007.157711) can0 070#005BF1F7F82E4000
(1445276007.158084) can0 075#585423098F99E900
(1445276007.158085) can0 080#802DF8F200804FDA
(1445276007.158419) can0 0B0#E352C1F7A2738352
(1445276007.158721) can0 145#A10040FC80D0F2FD
(1445276007.158722) can0 2A9#840000C0D300268C
(1445276007.159166) can0 125#34D7D0C1E68003E5
(1445276007.160120) can0 260#F0DC1549AA00FFD0
(1445276007.161559) can0 210#4E0B09AAA080E01A
(1445276007.163592) can0 008#80008000B4FC805B
(1445276007.164556) can0 288#800000008F70DFC8
(1445276007.165155) can0 0F5#0022777F80008000
(1445276007.165344) can0 120#8955F77F80008000
(1445276007.165617) can0 130#11FF2300001DFFEF
(1445276007.165881) can0 150#C023F7FCD8020000
(1445276007.166922) can0 010#F931B02F80000000
(1445276007.167181) can0 072#38A078003FFF00F0
(1445276007.167447) can0 1D0#61020A2BD2C5EC00
(1445276007.173592) can0 008#80008000A40C805B
(1445276007.173896) can0 0E0#00038000F8007162
(1445276007.175057) can0 1B0#EC00B0000000C000
(1445276007.175332) can0 1B5#EFFFE000000000FF
(1445276007.175630) can0 1D8#43E0303135303734
(1445276007.175916) can0 1E0#E017BD80C1CB0C00
(1445276007.176162) can0 2C3#505400FFFF012975
(1445276007.176931) can0 055#809C00B227F3F7F3
(1445276007.177200) can0 010#F831B02F80000000
(1445276007.177505) can0 065#01F78E00F7F0E350
(1445276007.177833) can0 070#005BF1F9F82E4000
(1445276007.178165) can0 075#585423098F99E900
(1445276007.178166) can0 080#802DF7F200804FD8
(1445276007.178377) can0 0B0#E352C1F7A2738352
(1445276007.178619) can0 145#211040FC80D0F2FD
(1445276007.178830) can0 28C#88BE300000004000
(1445276007.179069) can0 2B5#2322A9B3721AB64B
(1445276007.179364) can0 125#34D7D0C1E68003E5
(1445276007.179606) can0 370#3CD3437800900004
(1445276007.181638) can0 072#388078003FFF00F0
(1445276007.183582) can0 008#80008000941C805B
(1445276007.185198) can0 0F5#00127B7F80008000
(1445276007.185475) can0 120#8955F97F80008000
(1445276007.185745) can0 130#11FF1300001DFFF7
(1445276007.186004) can0 150#C013F7FCE7FD0000
(1445276007.186882) can0 010#F831B02F80000000
(1445276007.187190) can0 1D0#61080A2BD2C5EC00
(1445276007.187406) can0 210#460B09AA2080E01A
(1445276007.189559) can0 288#800000007F80DFCC
(1445276007.190194) can0 260#F0DC1549AA00FFD0
(1445276007.193591) can0 008#80008000842C805B
(1445276007.193869) can0 0E0#00E38000C0007162
(1445276007.195077) can0 1B0#EC00B0000000C000
(1445276007.195369) can0 1B5#EFFFE000000000FF
(1445276007.195680) can0 1D8#43E0303135303734
(1445276007.195835) can0 1E0#E017BD80C1BB1000
(1445276007.196897) can0 010#F831B02F80000000
(1445276007.197172) can0 055#809C00B227F3F7F3
(1445276007.197495) can0 065#01F98E00F7F2E350
(1445276007.197827) can0 070#005BF1F9F82E4000
(1445276007.197829) can0 072#38A078003FFF00F0
(1445276007.198149) can0 075#585423098F99E900
(1445276007.198448) can0 080#802DF9F200804FE0
(1445276007.198778) can0 0B0#E352C1F9A2738352
(1445276007.198780) can0 145#211040FC80D0F2FD
(1445276007.199047) can0 2A9#840000C0CA00268C
(1445276007.199359) can0 125#34D7D0C1E68003E5
(1445276007.199681) can0 2C0#E5B0000000000000
(1445276007.199956) can0 2C5#7038E000001F9700
(1445276007.203532) can0 008#80008000743C805B
(1445276007.205155) can0 0F5#00027F7F80008000
(1445276007.205452) can0 120#8955F97F80008000
(1445276007.205736) can0 130#11FF0300001DFFFF
(1445276007.206056) can0 150#C003F7FCF8000000
(1445276007.206057) can0 3CA#C000005500000000
(1445276007.206691) can0 010#F831B02F80000000
(1445276007.206982) can0 1D0#61000A2BD2C5EC00
(1445276007.207254) can0 400#1A05040201000101
(1445276007.211595) can0 072#388078003FFF00F0
(1445276007.211808) can0 210#4E0B09AAA080E01A
(1445276007.212073) can0 3B0#00C4A4B938B9D800
(1445276007.213587) can0 008#80008000644C805B
(1445276007.213873) can0 0E0#00C38000C8007162
(1445276007.214560) can0 288#800000007F80DFC4
(1445276007.214765) can0 3C8#8E0024888E012975
(1445276007.215063) can0 1B0#EC00B0000000C000
(1445276007.215361) can0 1B5#EFFFE000000000FF
(1445276007.215661) can0 1D8#43E0303135303734
(1445276007.215917) can0 1E0#E017BD8081BB1000
(1445276007.216164) can0 2C3#505400FFFF012975
(1445276007.216839) can0 010#F831B02F80000000
(1445276007.217054) can0 055#809C00B227F3F7F3
(1445276007.217434) can0 065#01F98E00F7F3E351
(1445276007.217692) can0 070#005BF1F9F82E4000
(1445276007.218012) can0 075#585423098F99E900
(1445276007.218013) can0 080#802DF9F200804FE1
(1445276007.218254) can0 0B0#E352C1F9A2738352
(1445276007.218501) can0 145#A10040FC80D0F2FD
(1445276007.218791) can0 28C#87BE300000004000
(1445276007.219073) can0 2B5#2322A9B37219B64B
(1445276007.219367) can0 125#34D7D0C1E68003E5
(1445276007.220146) can0 260#F0DC1549AA00FFD0
(1445276007.221894) can0 360#01A05CA7D2012975
(1445276007.223492) can0 008#80008000545C805B
(1445276007.225199) can0 0F5#00F2437F80008000
(1445276007.225461) can0 120#8955FC7F80008000
(1445276007.225758) can0 130#11FFF300001DFF87
(1445276007.226043) can0 150#C0F3F7FC07FF0000
(1445276007.226846) can0 010#F831B02F80000000
(1445276007.227081) can0 072#38A078003FFF00F0
(1445276007.227378) can0 1D0#61000A2BD2C5EC00
(1445276007.227624) can0 390#47581E020305EF80
(1445276007.228303) can0 350#80000000000000A2
(1445276007.233560) can0 008#80008000446C805B
(1445276007.233841) can0 0E0#00A38000D0007162
(1445276007.235108) can0 1B0#EC00B0000000C000
(1445276007.235347) can0 1B5#EFFFE000000000FF
(1445276007.235630) can0 1D8#43E0303135303734
(1445276007.235913) can0 1E0#E017BD80C1AB1400
(1445276007.236741) can0 010#F831B02F80000000
(1445276007.236982) can0 055#809C00B227F3F7F3
(1445276007.237252) can0 065#01F98E00F7F3E350
(1445276007.237539) can0 070#005BF1F9F82E4000
(1445276007.237822) can0 075#585423098F99E900
(1445276007.238154) can0 080#802DF9F200804FE0
(1445276007.238155) can0 0B0#E352C1F9A2738352
(1445276007.238383) can0 145#211040FC80D0F2FD
(1445276007.238651) can0 210#460B09AAA080E01D
(1445276007.238872) can0 2A9#840000C0C200268C
(1445276007.239158) can0 125#34D7D0C1E68003E5
(1445276007.239540) can0 288#800000007F80DFC0
(1445276007.241421) can0 072#388078003FFF00F0
(1445276007.243518) can0 008#80008000347C805B
(1445276007.245196) can0 0F5#00E2477F80008000
(1445276007.245453) can0 120#8955F87F80008000
(1445276007.245753) can0 130#11FFE300001DFF8F
(1445276007.246001) can0 150#C0E3F7FC18020000
(1445276007.247056) can0 010#F931B02F80000000
(1445276007.247288) can0 1D0#61020A2BD2C5EC00
(1445276007.250201) can0 260#F0DC14495500FFD0
(1445276007.253564) can0 008#80008000248C805B
(1445276007.253843) can0 0E0#00838000D8007162
(1445276007.255077) can0 1B0#EC00B0000000C000
(1445276007.255367) can0 1B5#EFFFE000000000FF
(1445276007.255634) can0 1D8#43E0303135303734
(1445276007.255914) can0 1E0#E017BD80C19B1800
(1445276007.256165) can0 2C3#505400FFFF012975
(1445276007.256884) can0 010#F831B02F80000000
(1445276007.257164) can0 055#809C00B227F4F7F4
(1445276007.257428) can0 065#01FA8E00F7F4E350
(1445276007.257730) can0 070#005BF1FAF82E4000
(1445276007.258080) can0 072#38A078003FFF00F0
(1445276007.258081) can0 075#585423098F99E900
(1445276007.258357) can0 080#802DFAF200804FE3
(1445276007.258687) can0 0B0#E352C1FAA2738352
(1445276007.259004) can0 145#211040FC80D0F2FD
(1445276007.259005) can0 28C#87BE300000004000
(1445276007.259332) can0 125#34D7D0C1E68003E5
(1445276007.259609) can0 2B5#2722A9B37219B64B
(1445276007.259955) can0 2C0#E5B0000000000000
(1445276007.259956) can0 2C5#7038E000001F9700
(1445276007.260233) can0 3AF#2000000000000000
(1445276007.261441) can0 210#460B09AAA080E01D
(1445276007.263524) can0 008#80008000149C805B
(1445276007.264529) can0 288#800000007F80DFD0
(1445276007.265167) can0 0F5#00D24B7F80008000
(1445276007.265399) can0 120#8955F97F80008000
(1445276007.265651) can0 130#11FFD300001DFF97
(1445276007.265930) can0 150#C0D3F7FC27FB0000
(1445276007.266898) can0 010#F831B02F80000000
(1445276007.267173) can0 1D0#61080A2BD2C5EC00
(1445276007.271516) can0 072#388078003FFF00F0
(1445276007.273560) can0 008#8000800004AC805B
(1445276007.273867) can0 0E0#00638000E0007162
(1445276007.275106) can0 1B0#EC00B0000000C000
(1445276007.275364) can0 1B5#EFFFE000000000FF
(1445276007.275667) can0 1D8#43E0303135303734
(1445276007.275913) can0 1E0#E017BD80819B1800
(1445276007.276948) can0 010#F831B02F80000000
(1445276007.277221) can0 055#809C00B227F4F7F4
(1445276007.277429) can0 065#01FA8E00F7F4E354
(1445276007.277695) can0 070#005BF1FAF82E4000
(1445276007.277993) can0 075#585423098F99E900
(1445276007.278254) can0 080#802DFAF200804FE3
(1445276007.278582) can0 0B0#E352C1FAA2738352
(1445276007.278583) can0 145#A10040FC80D0F2FD
(1445276007.278852) can0 2A9#840000C0DB00268C
(1445276007.279164) can0 370#3CD3437800900004
(1445276007.279437) can0 125#34D7D0C1E68003E5
(1445276007.280189) can0 260#F0DC15495500FFD0
(1445276007.283498) can0 008#80008000F4BC805B
(1445276007.285158) can0 0F5#00C24F7F80008000
(1445276007.285474) can0 120#8955FA7F80008000
(1445276007.285790) can0 130#11FFC300001DFF9F
(1445276007.286042) can0 150#C0C3F7FC37FF0000
(1445276007.287104) can0 010#F831B02F80000000
(1445276007.287347) can0 072#38A078003FFF00F0
(1445276007.287624) can0 1D0#61000A2BD2C5EC00
(1445276007.287874) can0 210#4E0B09AAA080E01D
(1445276007.289586) can0 288#800000006F90DFD5
(1445276007.293564) can0 008#80008000E4CC805B
(1445276007.293842) can0 0E0#00438000E8007162
(1445276007.295079) can0 1B0#EC00B0000000C000
(1445276007.295380) can0 1B5#EFFFE000000000FF
(1445276007.295693) can0 1D8#43E0303135303734
(1445276007.296003) can0 1E0#E017BD80C18B1C00
(1445276007.296004) can0 2C3#505400FFFF012975
(1445276007.296951) can0 055#809C00B227F1F7F1
(1445276007.297200) can0 010#F831B02F80000000
(1445276007.297475) can0 065#01F88E00F7F2E354
(1445276007.297733) can0 070#005BF1F8F82E4000
(1445276007.298055) can0 075#585423098F99E900
(1445276007.298357) can0 080#802DF8F200804FDD
(1445276007.298357) can0 0B0#E352C1F8A2738352
(1445276007.298680) can0 145#211040FC80D0F2FD
(1445276007.298980) can0 28C#87BE300000004000
(1445276007.299293) can0 2B5#2722A9B37219B64B
(1445276007.299294) can0 125#34D7D0C1E68003E5
(1445276007.301481) can0 072#388078003FFF00F0
(1445276007.303495) can0 008#80008000D4DC805B
(1445276007.305066) can0 0F5#00B2537F80008000
(1445276007.305363) can0 120#8955F87F80008000
(1445276007.305624) can0 130#11FFB300001DFFA7
(1445276007.305874) can0 150#C0B3F7FC48030000
(1445276007.307055) can0 010#F831B02F80000000
(1445276007.307288) can0 1D0#61000A2BD2C5EC00
(1445276007.310198) can0 260#F0DC15495500FFD0
(1445276007.311512) can0 210#460B09AAA080E01D
(1445276007.313534) can0 008#80008000C4EC805B
(1445276007.313826) can0 0E0#00238000F0007162
(1445276007.314532) can0 288#800000006F90DFC8
(1445276007.315033) can0 1B0#EC00B0000000C000
(1445276007.315378) can0 1B5#EFFFE000000000FF
(1445276007.315718) can0 1D8#43E0303135303734
(1445276007.315963) can0 1E0#E017BD80C17B2000
(1445276007.316816) can0 010#F831B02F80000000
(1445276007.317055) can0 055#809C00B227F2F7F2
(1445276007.317379) can0 065#01F88E01F7F1E352
(1445276007.317702) can0 070#005BF1F9F82E4000
(1445276007.318004) can0 072#38A078003FFF00F0
(1445276007.318005) can0 075#585423098F99E900
(1445276007.318317) can0 080#802DF8F200804FDB
(1445276007.318575) can0 0B0#E352C1F8A2738352
(1445276007.318874) can0 145#211040FC80D0F2FD
(1445276007.318875) can0 2A9#840000C0C200268C
(1445276007.319162) can0 125#34D7D0C1E68003E5
(1445276007.319419) can0 2C0#E5B0000000000000
(1445276007.319657) can0 2C5#7038E000001F9700
(1445276007.319899) can0 350#80000000000000A2
(1445276007.321676) can0 360#01A05BA7D2012975
(1445276007.323493) can0 008#80008000B4FC805B
(1445276007.325155) can0 0F5#00A2577F80008000
(1445276007.325472) can0 120#8955FB7F80008000
(1445276007.325753) can0 130#11FFA300001DFFAF
(1445276007.326163) can0 150#C0A3F7FC57FF0000
(1445276007.326164) can0 3CA#C000005600000000
(1445276007.326909) can0 010#F931B02F80000000
(1445276007.327178) can0 1D0#61020A2BD2C5EC00
(1445276007.327447) can0 390#67581E020105EF80
(1445276007.331480) can0 072#388078003FFF00F0
(1445276007.331674) can0 3B0#00C6A4B93CB9FC00
(1445276007.333533) can0 008#80008000A40C805B
(1445276007.333840) can0 0E0#00038000F8007162
(1445276007.334587) can0 3C8#8E0024888E012975
(1445276007.335057) can0 1B0#EC00B0000000C000
(1445276007.335378) can0 1B5#EFFFE000000000FF
(1445276007.335703) can0 1D8#43E0303135303734
(1445276007.335998) can0 1E0#E017BD80817B2000
(1445276007.335999) can0 2C3#505400FFFF012975
(1445276007.336814) can0 010#F831B02F80000000
(1445276007.337071) can0 055#809C00B227F2F7F2
(1445276007.337381) can0 065#01F98E01F7F2E352
(1445276007.337666) can0 070#005BF1F9F82E4000
(1445276007.337930) can0 075#585423098F99E900
(1445276007.338231) can0 080#802DF9F200804FDE
(1445276007.338231) can0 0B0#E352C1F9A2738352
(1445276007.338516) can0 145#A10040FC80D0F2FD
(1445276007.338796) can0 210#4E0B09AA2080E01D
(1445276007.339143) can0 28C#88BE300000004000
(1445276007.339428) can0 125#34D7D0C1E68003E5
(1445276007.339429) can0 2B5#2522A9B3721AB64B
(1445276007.339722) can0 288#800000006F90DFC0
(1445276007.339983) can0 3D0#C3800338006109A1
(1445276007.340233) can0 260#F0DC1549AA00FFD0
(1445276007.341677) can0 430#86300000002A0828
(1445276007.343483) can0 008#80008000941C805B
(1445276007.345154) can0 0F5#00925B7F80008000
(1445276007.345504) can0 120#8955FA7F80008000
(1445276007.345821) can0 130#11FF9300001DFFB7
(1445276007.345822) can0 150#C093F7FC67FF0000
(1445276007.347011) can0 010#F831B02F80000000
(1445276007.347257) can0 072#38A078003FFF00F0
(1445276007.347496) can0 1D0#61080A2BD2C5EC00
(1445276007.353565) can0 008#80008000842C805B
(1445276007.353818) can0 0E0#00E38000C0007162
(1445276007.355051) can0 1B0#EC00B0000000C000
(1445276007.355349) can0 1B5#EFFFE000000000FF
(1445276007.355618) can0 1D8#43E0303135303734
(1445276007.355879) can0 1E0#E017BD80C16B2400
(1445276007.356717) can0 010#F831B02F80000000
(1445276007.357040) can0 055#809C00B227F0F7EF
(1445276007.357289) can0 065#01F78E00F7F1E356
(1445276007.357505) can0 070#005BF1F7F82E4000
(1445276007.357753) can0 075#585423098F99E900
(1445276007.357967) can0 080#802DF9F200804FDE
(1445276007.358195) can0 0B0#E352C1F9A2738352
(1445276007.358439) can0 145#211040FC80D0F2FD
(1445276007.358745) can0 2A9#840000C0DB00268C
(1445276007.359164) can0 125#34D7D0C1E68003E5
(1445276007.361642) can0 072#388078003FFF00F0
(1445276007.361852) can0 210#4E0B09AAA080E01D
(1445276007.363499) can0 008#80008000743C805B
(1445276007.364609) can0 288#800000006F90DFC4
(1445276007.365135) can0 0F5#00825F7F80008000
(1445276007.365375) can0 120#8955F97F80008000
(1445276007.365628) can0 130#11FF8300001DFFBF
(1445276007.365913) can0 150#C083F7FC77FF0000
(1445276007.367200) can0 010#F831B02F80000000
(1445276007.367416) can0 1D0#61000A2BD2C5EC00
(1445276007.367664) can0 405#0000000000000000
(1445276007.370200) can0 260#F0DC1549AA00FFD0
(1445276007.373539) can0 008#80008000644C805B
(1445276007.373768) can0 0E0#00C38000C8007162
(1445276007.375076) can0 1B0#EC00B0000000C000
(1445276007.375413) can0 1B5#EFFFE000000000FF
(1445276007.375686) can0 1D8#43E0303135303734
(1445276007.376001) can0 1E0#E017BD80C15B2800
(1445276007.376002) can0 2C3#505400FFFF012975
(1445276007.376870) can0 010#F831B02F80000000
(1445276007.377163) can0 055#809C00B227F0F7EF
(1445276007.377448) can0 065#01F78E00F7F0E352
(1445276007.377757) can0 070#005BF1F7F82E4000
(1445276007.378145) can0 072#38A078003FFF00F0
(1445276007.378146) can0 075#585423098F99E900
(1445276007.378426) can0 080#802DF7F200804FD7
(1445276007.378734) can0 0B0#E352C1F7A2738352
(1445276007.378735) can0 145#211040FC80D0F2FD
(1445276007.378980) can0 28C#88BE300000004000
(1445276007.379230) can0 125#34D7D0C1E68003E5
(1445276007.379483) can0 2B5#2522A9B3721AB64B
(1445276007.379768) can0 2C0#E5B0000000000000
(1445276007.380052) can0 2C5#7038E000001F9700
(1445276007.380394) can0 370#3CD7437800900004
(1445276007.380395) can0 3AF#2000000000000000
(1445276007.380656) can0 3E0#8880984F18000000
(1445276007.383489) can0 008#80008000545C805B
(1445276007.385156) can0 0F5#0072637F80008000
(1445276007.385477) can0 120#8955F97F80008000
(1445276007.385801) can0 130#11FF7300001DFFC7
(1445276007.385802) can0 150#C073F7FC87FC0000
(1445276007.386856) can0 010#F831B02F80000000
(1445276007.387167) can0 1D0#61000A2BD2C5EC00
(1445276007.387378) can0 210#460B09AAA080E01D
(1445276007.389640) can0 288#800000005FA0DFC4
(1445276007.391547) can0 072#388078003FFF00F0
(1445276007.393481) can0 008#80008000446C805B
(1445276007.393776) can0 0E0#00A38000D0007162
(1445276007.395014) can0 1B0#EC00B0000000C000
(1445276007.395321) can0 1B5#EFFFE000000000FF
(1445276007.395634) can0 1D8#43E0303135303734
(1445276007.395867) can0 1E0#E017BD80815B2800
(1445276007.396975) can0 055#809C00B227F2F7F2
(1445276007.397202) can0 010#F831B02F80000000
(1445276007.397447) can0 065#01F88E00F7F1E352
(1445276007.397721) can0 070#005BF1F8F82E4000
(1445276007.398006) can0 075#585423098F99E900
(1445276007.398289) can0 080#802DF8F200804FDE
(1445276007.398585) can0 0B0#E352C1F8A2738352
(1445276007.398586) can0 145#A10040FC80D0F2FD
(1445276007.398835) can0 2A9#840000C0C200268C
(1445276007.399164) can0 125#34D7D0C1E68003E5
(1445276007.400195) can0 260#F0DC1549AA00FFD0
(1445276007.403486) can0 008#80008000347C805B
(1445276007.405155) can0 0F5#0062677F80008000
(1445276007.405506) can0 120#8955FA7F80008000
(1445276007.405821) can0 130#11FF6300001DFFCF
(1445276007.405826) can0 150#C063F7FC97FF0000
(1445276007.406978) can0 010#F931B02F80000000
(1445276007.407253) can0 072#38A078003FFF00F0
(1445276007.407538) can0 1D0#61020A2BD2C5EC00
(1445276007.408316) can0 350#80000000000000A2
(1445276007.411461) can0 210#4E0B09AAA080E01D
(1445276007.413529) can0 008#80008000248C805B
(1445276007.413801) can0 0E0#00838000D8007162
(1445276007.414579) can0 288#800000005FA0DFC8
(1445276007.415049) can0 1B0#EC00B0000000C000
(1445276007.415377) can0 1B5#EFFFE000000000FF
(1445276007.415704) can0 1D8#43E0303135303734
(1445276007.416003) can0 1E0#E017BD80C14B2C00
(1445276007.416004) can0 2C3#505400FFFF012975
(1445276007.416706) can0 010#F831B02F80000000
(1445276007.416979) can0 055#809C00B227F2F7F2
(1445276007.417224) can0 065#01F98E00F7F2E355
(1445276007.417492) can0 070#005BF1F9F82E4000
(1445276007.417796) can0 075#585423098F99E900
(1445276007.418089) can0 080#802DF9F200804FDE
(1445276007.418416) can0 0B0#E352C1F9A2738352
(1445276007.418417) can0 145#211040FC80D0F2FD
(1445276007.418639) can0 28C#88BE300000004000
(1445276007.418880) can0 2B5#2522A9B37219B64B
(1445276007.419164) can0 125#34D7D0C1E68003E5
(1445276007.421773) can0 072#388078003FFF00F0
(1445276007.421962) can0 360#01A05BA7D2012975
(1445276007.423530) can0 008#80008000149C805B
(1445276007.425197) can0 0F5#00526B7F80008000
(1445276007.425461) can0 120#8955FA7F80008000
(1445276007.425754) can0 130#11FF5300001DFFD7
(1445276007.426002) can0 150#C053F7FCA7FF0000
(1445276007.426738) can0 010#F831B02F80000000
(1445276007.426982) can0 1D0#61080A2BD2C5EC00
(1445276007.427249) can0 390#47591A020105EF80
(1445276007.430219) can0 260#F0DC1549AA00FFD0
(1445276007.433531) can0 008#8000800004AC805B
(1445276007.433767) can0 0E0#00638000E0007162
(1445276007.435056) can0 1B0#EC00B0000000C000
(1445276007.435334) can0 1B5#EFFFE000000000FF
(1445276007.435628) can0 1D8#43E0303135303734
(1445276007.435879) can0 1E0#E017BD80C13B3000
(1445276007.436844) can0 010#F831B02F80000000
(1445276007.437087) can0 055#809C00B227F0F7F0
(1445276007.437366) can0 065#01F78E00F7F1E355
(1445276007.437635) can0 070#005BF1F7F82E4000
(1445276007.437895) can0 072#38A078003FFF00F0
(1445276007.438184) can0 075#585423098F99E900
(1445276007.438480) can0 080#802DF7F200804FD8
(1445276007.438481) can0 0B0#E352C1F7A2738352
(1445276007.438756) can0 145#211040FC80D0F2FD
(1445276007.439077) can0 210#460B09AAA080E01D
(1445276007.439413) can0 125#34D7D0C1E68003E5
(1445276007.439414) can0 2A9#840000C0CA00268C
(1445276007.439654) can0 288#800000005FA0DFB8
(1445276007.439901) can0 2C0#E5B0000000000000
(1445276007.440144) can0 2C5#7038E000001F9700
(1445276007.443469) can0 008#80008000F4BC805B
(1445276007.445154) can0 0F5#00426F7F80008000
(1445276007.445479) can0 120#8955F97F80008000
(1445276007.445847) can0 130#11FF4300001DFFDF
(1445276007.445848) can0 150#C043F7FCB7FC0000
(1445276007.446164) can0 3CA#C000004000000000
(1445276007.446984) can0 010#F831B02F80000000
(1445276007.447230) can0 1D0#61000A2BD2C5EC00
(1445276007.451537) can0 072#388078003FFF00F0
(1445276007.451746) can0 3B0#00C4A4B938B9D800
(1445276007.453506) can0 008#80008000E4CC805B
(1445276007.453791) can0 0E0#00438000E8007162
(1445276007.454638) can0 3C8#8E0024888E012975
(1445276007.455041) can0 1B0#EC00B0000000C000
(1445276007.455284) can0 1B5#EFFFE000000000FF
(1445276007.455538) can0 1D8#43E0303135303734
(1445276007.455750) can0 1E0#E017BD80813B3000
(1445276007.456004) can0 2C3#505400FFFF012975
(1445276007.456897) can0 010#F831B02F80000000
(1445276007.457176) can0 055#809C00B227F3F7F3
(1445276007.457479) can0 065#01F78E00F7F0E351
(1445276007.457804) can0 070#005BF1F9F82E4000
(1445276007.457805) can0 075#585423098F99E900
(1445276007.458053) can0 080#802DF7F200804FD8
(1445276007.458393) can0 0B0#E352C1F7A2738352
(1445276007.458712) can0 145#A10040FC80D0F2FD
(1445276007.459014) can0 28C#88BE300000004000
(1445276007.459015) can0 2B5#2622A9B37219B64B
(1445276007.459228) can0 125#34D7D0C1E68003E5
(1445276007.459499) can0 400#1B03020000020100
(1445276007.460219) can0 260#F0DC15495500FFD0
(1445276007.461557) can0 210#460B09AAA080E01D
(1445276007.463510) can0 008#80008000D4DC805B
(1445276007.464661) can0 288#800000005FA0DFD0
(1445276007.465138) can0 0F5#0032737F80008000
(1445276007.465373) can0 120#8955FB7F80008000
(1445276007.465627) can0 130#11FF3300001DFFE7
(1445276007.465878) can0 150#C033F7FCC7FD0000
(1445276007.466921) can0 010#F831B02F80000000
(1445276007.467176) can0 072#38A078003FFF00F0
(1445276007.467463) can0 1D0#61000A2BD2C5EC00
(1445276007.473514) can0 008#80008000C4EC805B
(1445276007.473787) can0 0E0#00238000F0007162
(1445276007.474977) can0 1B0#EC00B0000000C000
(1445276007.475290) can0 1B5#EFFFE000000000FF
(1445276007.475539) can0 1D8#43E0303135303734
(1445276007.475792) can0 1E0#E017BD80C12B3400
(1445276007.476974) can0 010#F831B02F80000000
(1445276007.477251) can0 055#809C00B227F3F7F3
(1445276007.477540) can0 065#01F98E00F7F3E351
(1445276007.477823) can0 070#005BF1F9F82E4000
(1445276007.478163) can0 075#585423098F99E900
(1445276007.478164) can0 080#802DF9F200804FE1
(1445276007.478411) can0 0B0#E352C1F9A2738352
(1445276007.478608) can0 145#211040FC80D0F2FD
(1445276007.478878) can0 2A9#840000C0D300268C
(1445276007.479219) can0 125#34D7D0C1E68003E5
(1445276007.479463) can0 370#3CD7437800900004
(1445276007.481445) can0 072#388078003FFF00F0
(1445276007.483510) can0 008#80008000B4FC805B
(1445276007.485198) can0 0F5#0022777F80008000
(1445276007.485474) can0 120#8955F97F80008000
(1445276007.485781) can0 130#11FF2300001DFFEF
(1445276007.485972) can0 150#C023F7FCD8030000
(1445276007.486842) can0 010#F931B02F80000000
(1445276007.487089) can0 1D0#61020A2BD2C5EC00
(1445276007.487368) can0 210#4E0B09AA2080E01D
(1445276007.489664) can0 288#800000004FB0DFBC
(1445276007.490240) can0 260#F0DC15495500FFD0
(1445276007.493515) can0 008#80008000A40C805B
(1445276007.493787) can0 0E0#00038000F8007162
(1445276007.495075) can0 1B0#EC00B0000000C000
(1445276007.495367) can0 1B5#EFFFE000000000FF
(1445276007.495653) can0 1D8#43E0303135303734
(1445276007.495935) can0 1E0#E017BD80C11B3800
(1445276007.496198) can0 2C3#505400FFFF012975
(1445276007.496931) can0 055#809C00B227F1F7F0
(1445276007.497217) can0 010#F831B02F80000000
(1445276007.497443) can0 065#01F98E00F7F3E354
(1445276007.497730) can0 070#005BF1F8F82E4000
(1445276007.498021) can0 072#38A078003FFF00F0
(1445276007.498365) can0 075#585423098F99E900
(1445276007.498366) can0 080#802DF9F200804FE1
(1445276007.498667) can0 0B0#E352C1F9A2738352
(1445276007.498972) can0 145#211040FC80D0F2FD
(1445276007.499230) can0 125#34D7D0C1E68003E5
(1445276007.499539) can0 28C#88BE300000004000
(1445276007.499540) can0 2B5#2622A9B3721AB64B
(1445276007.499800) can0 2C0#E5B0000000000000
(1445276007.500138) can0 2C5#7038E000001F9700
(1445276007.500424) can0 350#80000000000000A2
(1445276007.500696) can0 3AF#2000000000000000
(1445276007.503470) can0 008#80008000941C805B
(1445276007.505154) can0 0F5#00127B7F80008000
(1445276007.505472) can0 120#8955F97F80008000
(1445276007.505731) can0 130#11FF1300001DFFF7
(1445276007.505982) can0 150#C013F7FCE7FC0000
(1445276007.506984) can0 010#F831B02F80000000
(1445276007.507293) can0 1D0#61080A2BD2C5EC00
(1445276007.511466) can0 072#388078003FFF00F0
(1445276007.511675) can0 210#460B09AAA080E01E
(1445276007.513508) can0 008#80008000842C805B
(1445276007.513756) can0 0E0#00E38000C0007162
(1445276007.514603) can0 288#800000004FB0DFD5
(1445276007.515006) can0 1B0#EC00B0000000C000
(1445276007.515290) can0 1B5#EFFFE000000000FF
(1445276007.515538) can0 1D8#43E0303135303734
(1445276007.515785) can0 1E0#E017BD80811B3800
(1445276007.516818) can0 010#F831B02F80000000
(1445276007.517026) can0 055#809C00B227F1F7F0
(1445276007.517376) can0 065#01F78E00F7F1E352
(1445276007.517701) can0 070#005BF1F8F82E4000
(1445276007.518079) can0 075#585423098F99E900
(1445276007.518080) can0 080#802DF8F200804FDA
(1445276007.518403) can0 0B0#E352C1F7A2738352
(1445276007.518709) can0 145#A10040FC80D0F2FD
(1445276007.518710) can0 2A9#840000C0CA00268C
(1445276007.519042) can0 125#34D7D0C1E68003E5
(1445276007.520220) can0 260#F0DC15495500FFD0
(1445276007.521686) can0 360#01A05BA7D2012975
(1445276007.523472) can0 008#80008000743C805B
(1445276007.525196) can0 0F5#00027F7F80008000
(1445276007.525466) can0 120#8955F87F80008000
(1445276007.525754) can0 130#11FF0300001DFFFF
(1445276007.526002) can0 150#C003F7FCF8030000
(1445276007.526765) can0 010#F831B02F80000000
(1445276007.526983) can0 072#38A078003FFF00F0
(1445276007.527255) can0 1D0#61000A2BD2C5EC00
(1445276007.527503) can0 390#475A16020105EF80
(1445276007.533481) can0 008#80008000644C805B
(1445276007.533748) can0 0E0#00C38000C8007162
(1445276007.535081) can0 1B0#EC00B0000000C000
(1445276007.535379) can0 1B5#EFFFE000000000FF
(1445276007.535665) can0 1D8#43E0303135303734
(1445276007.535945) can0 1E0#E017BD80C10B3C00
(1445276007.536204) can0 2C3#505400FFFF012975
(1445276007.536730) can0 010#F831B02F80000000
(1445276007.537003) can0 055#809C00B227F2F7F1
(1445276007.537229) can0 065#01F88E00F7F1E352
(1445276007.537480) can0 070#005BF1F8F82E4000
(1445276007.537806) can0 075#585423098F99E900
(1445276007.538143) can0 080#802DF8F200804FDD
(1445276007.538474) can0 0B0#E352C1F8A2738352
(1445276007.538475) can0 145#211040FC80D0F2FD
(1445276007.538753) can0 210#4E0B09AAA080E01E
(1445276007.539054) can0 28C#88BE300000004000
(1445276007.539393) can0 125#34D7D0C1E68003E5
(1445276007.539398) can0 2B5#2422A9B3721AB64B
(1445276007.539604) can0 3D0#C3800338006109A1
(1445276007.539853) can0 288#800000004FB0DFD0
(1445276007.541488) can0 072#388078003FFF00F0
(1445276007.543511) can0 008#80008000545C805B
(1445276007.545185) can0 0F5#00F2437F80008000
(1445276007.545444) can0 120#8955F97F80008000
(1445276007.545749) can0 130#11FFF300001DFF87
(1445276007.545996) can0 150#C0F3F7FC08000000
(1445276007.547196) can0 010#F831B02F80000000
(1445276007.547431) can0 1D0#61000A2BD2C5EC00
(1445276007.550223) can0 260#F0DC1549AA00FFD0
(1445276007.553514) can0 008#80008000446C805B
(1445276007.553697) can0 0E0#00A38000D0007162
(1445276007.555052) can0 1B0#EC00B0000000C000
(1445276007.555318) can0 1B5#EFFFE000000000FF
(1445276007.555605) can0 1D8#43E0303135303734
(1445276007.555841) can0 1E0#E017BD80C1FB0000
(1445276007.556844) can0 010#F831B02F80000000
(1445276007.557088) can0 055#809C00B227F2F7F1
(1445276007.557378) can0 065#01F88E00F7F2E353
(1445276007.557690) can0 070#005BF1F8F82E4000
(1445276007.557964) can0 072#38A078003FFF00F0
(1445276007.558292) can0 075#585423098F99E900
(1445276007.558294) can0 080#802DF8F200804FDD
(1445276007.558504) can0 0B0#E352C1F8A2738352
(1445276007.558773) can0 145#211040FC80D0F2FD
(1445276007.559047) can0 2A9#840000C0D300268C
(1445276007.559391) can0 125#34D7D0C1E68003E5
(1445276007.559392) can0 2C0#E5B0000000000000
(1445276007.559640) can0 2C5#7038E000001F9700
(1445276007.561464) can0 210#4E0B09AAA080E01E
(1445276007.563509) can0 008#80008000347C805B
(1445276007.564689) can0 288#800000004FB0DFD5
(1445276007.565030) can0 0F5#00E2477F80008000
(1445276007.565345) can0 120#8955FA7F80008000
(1445276007.565589) can0 130#11FFE300001DFF8F
(1445276007.565829) can0 150#C0E3F7FC18050000
(1445276007.566192) can0 3CA#C000005100000000
(1445276007.566983) can0 010#F931B02F80000000
(1445276007.567227) can0 1D0#61020A2BD2C5EC00
(1445276007.571592) can0 072#388078003FFF00F0
(1445276007.571804) can0 3B0#00C4A4B938B9D800
(1445276007.573480) can0 008#80008000248C805B
(1445276007.573781) can0 0E0#00838000D8007162
(1445276007.574661) can0 3C8#8E0024888E012975
(1445276007.575003) can0 1B0#EC00B0000000C000
(1445276007.575287) can0 1B5#EFFFE000000000FF
(1445276007.575538) can0 1D8#43E0303135303734
(1445276007.575783) can0 1E0#E017BD8081FB0000
(1445276007.576042) can0 2C3#505400FFFF012975
(1445276007.576832) can0 010#F831B02F80000000
(1445276007.577144) can0 055#809C00B227F1F7F0
(1445276007.577443) can0 065#01F78E00F7F1E353
(1445276007.577739) can0 070#005BF1F8F82E4000
(1445276007.578190) can0 075#585423098F99E900
(1445276007.578191) can0 080#802DF8F200804FDA
(1445276007.578445) can0 0B0#E352C1F8A2738352
(1445276007.578753) can0 145#A10040FC80D0F2FD
(1445276007.578754) can0 28C#88BE300000004000
(1445276007.579069) can0 2B5#2422A9B3721AB64B
(1445276007.579350) can0 125#34D7D0C1E68003E5
(1445276007.579605) can0 370#3CD3437800900004
(1445276007.580210) can0 260#F0DC1549AA00FFD0
(1445276007.583449) can0 008#80008000149C805B
(1445276007.585107) can0 0F5#00D24B7F80008000
(1445276007.585344) can0 120#8955F87F80008000
(1445276007.585611) can0 130#11FFD300001DFF97
(1445276007.585879) can0 150#C0D3F7FC28000000
(1445276007.586947) can0 010#F831B02F80000000
(1445276007.587242) can0 072#38A078003FFF00F0
(1445276007.587525) can0 1D0#61080A2BD2C5EC00
(1445276007.587715) can0 210#460B09AAA080E01E
(1445276007.588288) can0 350#80000000000000A2
(1445276007.589689) can0 288#800000003FC0DFC4
(1445276007.593486) can0 008#8000800004AC805B
(1445276007.593697) can0 0E0#00638000E0007162
(1445276007.595010) can0 1B0#EC00B0000000C000
(1445276007.595290) can0 1B5#EFFFE000000000FF
(1445276007.595536) can0 1D8#43E0303135303734
(1445276007.595788) can0 1E0#E017BD80C1EB0400
(1445276007.596917) can0 010#F831B02F80000000
(1445276007.597176) can0 055#809C00B227F0F7F0
(1445276007.597476) can0 065#01F78E00F7F1E353
(1445276007.597752) can0 070#005BF1F7F82E4000
(1445276007.598144) can0 075#585423098F99E900
(1445276007.598145) can0 080#802DF8F200804FDA
(1445276007.598393) can0 0B0#E352C1F8A2738352
(1445276007.598678) can0 145#211040FC80D0F2FD
(1445276007.598979) can0 2A9#840000C0CA00268C
(1445276007.598980) can0 125#34D7D0C1E68003E5
(1445276007.601603) can0 072#388078003FFF00F0
(1445276007.603418) can0 008#80008000F4BC805B
(1445276007.605059) can0 0F5#00C24F7F80008000
(1445276007.605306) can0 120#8955FA7F80008000
(1445276007.605548) can0 130#11FFC300001DFF9F
(1445276007.605812) can0 150#C0C3F7FC37FF0000
(1445276007.607005) can0 010#F831B02F80000000
(1445276007.607252) can0 1D0#61000A2BD2C5EC00
(1445276007.610251) can0 260#F0DC1549AA00FFD0
(1445276007.612049) can0 210#4E0B09AAA080E01E
(1445276007.613478) can0 008#80008000E4CC805B
(1445276007.613707) can0 0E0#00438000E8007162
(1445276007.614653) can0 288#800000003FC0DFC0
(1445276007.615062) can0 1B0#EC00B0000000C000
(1445276007.615378) can0 1B5#EFFFE000000000FF
(1445276007.615700) can0 1D8#43E0303135303734
(1445276007.616005) can0 1E0#E017BD80C1DB0800
(1445276007.616006) can0 2C3#505400FFFF012975
(1445276007.616948) can0 055#809C00B227F0F7F0
(1445276007.617154) can0 065#01F78E00F7F0E353
(1445276007.617420) can0 070#005BF1F7F82E4000
(1445276007.617671) can0 075#585423098F99E900
(1445276007.617936) can0 010#F831B02F80000000
(1445276007.618223) can0 072#38A078003FFF00F0
(1445276007.618496) can0 080#802DF7F200804FD9
(1445276007.618846) can0 0B0#E352C1F7A2738352
(1445276007.618847) can0 145#211040FC80D0F2FD
(1445276007.619141) can0 125#34D7D0C1E68003E5
(1445276007.619424) can0 28C#88BE300000004000
(1445276007.619730) can0 2B5#2422A9B37219B64B
(1445276007.619731) can0 2C0#E5B0000000000000
(1445276007.620061) can0 2C5#7038E000001F9700
(1445276007.620356) can0 3AF#2000000000000000
(1445276007.620605) can0 405#0000000000000000
(1445276007.622938) can0 360#01A05BA7D2012975
(1445276007.623438) can0 008#80008000D4DC805B
(1445276007.625065) can0 0F5#00B2537F80008000
(1445276007.625376) can0 120#8955FA7F80008000
(1445276007.625696) can0 130#11FFB300001DFFA7
(1445276007.625968) can0 150#C0B3F7FC47FD0000
(1445276007.628242) can0 010#F831B02F80000000
(1445276007.628485) can0 1D0#61000A2BD2C5EC00
(1445276007.628769) can0 390#475B12020105EF80
(1445276007.632015) can0 072#388078003FFF00F0
(1445276007.633478) can0 008#80008000C4EC805B
(1445276007.633721) can0 0E0#00238000F0007162
(1445276007.635052) can0 1B0#EC00B0000000C000
(1445276007.635325) can0 1B5#EFFFE000000000FF
(1445276007.635621) can0 1D8#43E0303135303734
(1445276007.635874) can0 1E0#E017BD8081DB0800
(1445276007.636654) can0 010#F831B02F80000000
(1445276007.636887) can0 210#460B09AA2080E01E
(1445276007.637159) can0 055#809C00B227F2F7F2
(1445276007.637445) can0 065#01F78E00F7F0E351
(1445276007.637752) can0 070#005BF1F8F82E4000
(1445276007.638161) can0 075#585423098F99E900
(1445276007.638162) can0 080#802DF7F200804FD9
(1445276007.638444) can0 0B0#E352C1F7A2738352
(1445276007.638756) can0 145#A10040FC80D0F2FD
(1445276007.638757) can0 2A9#840000C0C200268C
(1445276007.638979) can0 125#34D7D0C1E68003E5
(1445276007.639678) can0 288#800000003FC0DFD9
(1445276007.640229) can0 260#F0DC15495500FFD0
(1445276007.643484) can0 008#80008000B4FC805B
(1445276007.645103) can0 0F5#00A2577F80008000
(1445276007.645363) can0 120#8955F97F80008000
(1445276007.645630) can0 130#11FFA300001DFFAF
(1445276007.645886) can0 150#C0A3F7FC58030000
(1445276007.646948) can0 010#F931B02F80000000
(1445276007.647203) can0 072#38A078003FFF00F0
(1445276007.647473) can0 1D0#61020A2BD2C5EC00
(1445276007.653485) can0 008#80008000A40C805B
(1445276007.653716) can0 0E0#00038000F8007162
(1445276007.655053) can0 1B0#EC00B0000000C000
(1445276007.655284) can0 1B5#EFFFE000000000FF
(1445276007.655540) can0 1D8#43E0303135303734
(1445276007.655790) can0 1E0#E017BD80C1CB0C00
(1445276007.656065) can0 2C3#505400FFFF012975
(1445276007.656853) can0 010#F831B02F80000000
(1445276007.657091) can0 055#809C00B227F2F7F2
(1445276007.657415) can0 065#01F88E00F7F2E351
(1445276007.657670) can0 070#005BF1F8F82E4000
(1445276007.657908) can0 075#585423098F99E900
(1445276007.658220) can0 080#802DF8F200804FDE
(1445276007.658221) can0 0B0#E352C1F8A2738352
(1445276007.658502) can0 145#211040FC80D0F2FD
(1445276007.658787) can0 28C#88BE300000004000
(1445276007.659053) can0 2B5#2422A9B37219B64B
(1445276007.659344) can0 125#34D7D0C1E68003E5
(1445276007.661480) can0 072#388078003FFF00F0
(1445276007.661729) can0 210#460B09AAA080E01E
(1445276007.663441) can0 008#80008000941C805B
(1445276007.664676) can0 288#800000003FC0DFCC
(1445276007.665024) can0 0F5#00925B7F80008000
(1445276007.665343) can0 120#8955F97F80008000
(1445276007.665612) can0 130#11FF9300001DFFB7
(1445276007.665899) can0 150#C093F7FC68000000
(1445276007.666898) can0 010#F831B02F80000000
(1445276007.667177) can0 1D0#61080A2BD2C5EC00
(1445276007.670250) can0 260#F0DC15495500FFD0
(1445276007.673462) can0 008#80008000842C805B
(1445276007.673738) can0 0E0#00E38000C0007162
(1445276007.675053) can0 1B0#EC00B0000000C000
(1445276007.675261) can0 1B5#EFFFE000000000FF
(1445276007.675504) can0 1D8#43E0303135303734
(1445276007.675748) can0 1E0#E017BD80C1BB1000
(1445276007.676849) can0 010#F831B02F80000000
(1445276007.677161) can0 055#809C00B227F3F7F2
(1445276007.677444) can0 065#01F98E00F7F2E351
(1445276007.677741) can0 070#005BF1F9F82E4000
(1445276007.678074) can0 072#38A078003FFF00F0
(1445276007.678075) can0 075#585423098F99E900
(1445276007.678429) can0 080#802DF9F200804FDF
(1445276007.678670) can0 0B0#E352C1F9A2738352
(1445276007.679007) can0 145#211040FC80D0F2FD
(1445276007.679008) can0 125#34D7D0C1E68003E5
(1445276007.679229) can0 2A9#840000C0DB00268C
(1445276007.679474) can0 2C0#E5B0000000000000
(1445276007.679729) can0 2C5#7038E000001F9700
(1445276007.680050) can0 350#80000000000000A2
(1445276007.680391) can0 370#3CD3437800900004
(1445276007.680392) can0 3E0#8880984F18000000
(1445276007.683445) can0 008#80008000743C805B
(1445276007.685108) can0 0F5#00825F7F80008000
(1445276007.685376) can0 120#8955FA7F80008000
(1445276007.685716) can0 130#11FF8300001DFFBF
(1445276007.686024) can0 150#C083F7FC77FD0000
(1445276007.686257) can0 3CA#C000005200000000
(1445276007.686926) can0 010#F831B02F80000000
(1445276007.687173) can0 1D0#61000A2BD2C5EC00
(1445276007.687444) can0 210#4E0B09AAA080E01E
(1445276007.689741) can0 288#800000002FD0DFC0
(1445276007.691719) can0 072#388078003FFF00F0
(1445276007.691905) can0 3B0#02C4A4B938B9D800
(1445276007.693449) can0 008#80008000644C805B
(1445276007.693694) can0 0E0#00C38000C8007162
(1445276007.694710) can0 3C8#8E0024888E012975
(1445276007.695003) can0 1B0#EC00B0000000C000
(1445276007.695288) can0 1B5#EFFFE000000000FF
(1445276007.695538) can0 1D8#43E0303135303734
(1445276007.695792) can0 1E0#E017BD8081BB1000
(1445276007.696032) can0 2C3#505400FFFF012975
(1445276007.696892) can0 010#F831B02F80000000
(1445276007.697142) can0 055#809C00B227F3F7F2
(1445276007.697392) can0 065#01F98E00F7F3E351
(1445276007.697642) can0 070#005BF1F9F82E4000
(1445276007.697853) can0 075#585423098F99E900
(1445276007.698142) can0 080#802DF9F200804FDF
(1445276007.698405) can0 0B0#E352C1F9A2738352
(1445276007.698676) can0 145#A10040FC80D0F2FD
(1445276007.698966) can0 28C#88BE300000004000
(1445276007.699266) can0 125#34D7D0C1E68003E5
(1445276007.699267) can0 2B5#2422A9B37219B64B
(1445276007.700228) can0 260#F0DC15495500FFD0
(1445276007.703397) can0 008#80008000545C805B
(1445276007.705063) can0 0F5#0072637F80008000
(1445276007.705380) can0 120#8955FA7F80008000
(1445276007.705661) can0 130#11FF7300001DFFC7
(1445276007.705871) can0 150#C073F7FC87FD0000
(1445276007.706636) can0 581#8100FFFFFFFFFFFF
(1445276007.706877) can0 010#F831B02F80000000
(1445276007.707163) can0 072#38A078003FFF00F0
(1445276007.707422) can0 1D0#61000A2BD2C5EC00
(1445276007.707706) can0 400#1C00010303000300
(1445276007.711531) can0 210#460B09AAA080E01E
(1445276007.713455) can0 008#80008000446C805B
(1445276007.713689) can0 0E0#00A38000D0007162
(1445276007.714698) can0 288#800000002FD0DFCC
(1445276007.715038) can0 1B0#EC00B0000000C000
(1445276007.715375) can0 1B5#EFFFE000000000FF
(1445276007.715695) can0 1D8#43E0303135303734
(1445276007.715967) can0 1E0#E017BD80C1AB1400
(1445276007.716943) can0 055#809C00B227F3F7F3
(1445276007.717226) can0 010#F831B02F80000000
(1445276007.717503) can0 065#01F98E00F7F3E351
(1445276007.717812) can0 070#005BF1F9F82E4000
(1445276007.718144) can0 075#585423098F99E900
(1445276007.718145) can0 080#802DF9F200804FE1
(1445276007.718353) can0 0B0#E352C1F9A2738352
(1445276007.718678) can0 145#211040FC80D0F2FD
(1445276007.718988) can0 2A9#840000C0C200268C
(1445276007.719228) can0 125#34D7D0C1E68003E5
(1445276007.721642) can0 072#388078003FFF00F0
(1445276007.721922) can0 360#01A05BA7D2012975
(1445276007.723454) can0 008#80008000347C805B
(1445276007.725106) can0 0F5#0062677F80008000
(1445276007.725343) can0 120#8955FA7F80008000
(1445276007.725610) can0 130#11FF6300001DFFCF
(1445276007.725878) can0 150#C063F7FC98000000
(1445276007.726983) can0 010#F931B02F80000000
(1445276007.727253) can0 1D0#61020A2BD2C5EC00
(1445276007.727502) can0 390#475C0E020105EF80
(1445276007.730302) can0 260#F0DC14495500FFD0
(1445276007.733452) can0 008#80008000248C805B
(1445276007.733688) can0 0E0#00838000D8007162
(1445276007.735054) can0 1B0#EC00B0000000C000
(1445276007.735329) can0 1B5#EFFFE000000000FF
(1445276007.735629) can0 1D8#43E0303135303734
(1445276007.735907) can0 1E0#E017BD80C19B1800
(1445276007.736161) can0 2C3#505400FFFF012975
(1445276007.736785) can0 010#F831B02F80000000
(1445276007.737049) can0 055#809C00B227F3F7F2
(1445276007.737375) can0 065#01F98E00F7F3E352
(1445276007.737675) can0 070#005BF1F9F82E4000
(1445276007.737980) can0 072#38A078003FFF00F0
(1445276007.737981) can0 075#585423098F99E900
(1445276007.738267) can0 080#802DF9F200804FE1
(1445276007.738561) can0 0B0#E352C1F9A2738352
(1445276007.738892) can0 145#211040FC80D0F2FD
(1445276007.738893) can0 210#4E0B09AAA080E01E
(1445276007.739143) can0 125#34D7D0C1E68003E5
(1445276007.739392) can0 28C#88BE300000004000
(1445276007.739641) can0 2B5#2722A9B37219B74B
(1445276007.739891) can0 288#800000002FD0DFC0
(1445276007.740142) can0 2C0#E5B0000000000000
(1445276007.740357) can0 2C5#7038E000001F9700
(1445276007.740678) can0 3AF#2000000000000000
(1445276007.740956) can0 3D0#C3800338006109A1
(1445276007.743393) can0 008#80008000149C805B
(1445276007.745156) can0 0F5#00526B7F80008000
(1445276007.745447) can0 120#8955FA7F80008000
(1445276007.745779) can0 130#11FF5300001DFFD7
(1445276007.745779) can0 150#C053F7FCA7FD0000
(1445276007.747054) can0 010#F831B02F80000000
(1445276007.747285) can0 1D0#61080A2BD2C5EC00
(1445276007.751643) can0 072#388078003FFF00F0
(1445276007.753455) can0 008#8000800004AC805B
(1445276007.753690) can0 0E0#00638000E0007162
(1445276007.755054) can0 1B0#EC00B0000000C000
(1445276007.755332) can0 1B5#EFFFE000000000FF
(1445276007.755629) can0 1D8#43E0303135303734
(1445276007.755917) can0 1E0#E017BD80819B1800
(1445276007.756815) can0 010#F831B02F80000000
(1445276007.757027) can0 055#809C00B227F3F7F2
(1445276007.757433) can0 065#01F98E00F7F3E352
(1445276007.757702) can0 070#005BF1F9F82E4000
(1445276007.758000) can0 075#585423098F99E900
(1445276007.758001) can0 080#802DF9F200804FDF
(1445276007.758288) can0 0B0#E352C1F9A2738352
(1445276007.758594) can0 145#A10040FC80D0F2FD
(1445276007.758899) can0 2A9#840000C0DB00268C
(1445276007.759188) can0 125#34D7D0C1E68003E5
(1445276007.760255) can0 260#F0DC1649AA00FFD0
(1445276007.761568) can0 210#4E0B09AAA080E01E
(1445276007.763397) can0 008#80008000F4BC805B
(1445276007.764767) can0 288#800000002FD0DFC0
(1445276007.765152) can0 0F5#00426F7F80008000
(1445276007.765444) can0 120#8955FB7F80008000
(1445276007.765753) can0 130#11FF4300001DFFDF
(1445276007.766003) can0 150#C043F7FCB7FF0000
(1445276007.766918) can0 010#F831B02F80000000
(1445276007.767174) can0 072#38A078003FFF00F0
(1445276007.767445) can0 1D0#61000A2BD2C5EC00
(1445276007.768293) can0 350#80000000000000A2
(1445276007.773383) can0 008#80008000E4CC805B
(1445276007.773648) can0 0E0#00438000E8007162
(1445276007.775005) can0 1B0#EC00B0000000C000
(1445276007.775290) can0 1B5#EFFFE000000000FF
(1445276007.775534) can0 1D8#43E0303135303734
(1445276007.775791) can0 1E0#E017BD80C18B1C00
(1445276007.775997) can0 2C3#505400FFFF012975
(1445276007.776674) can0 010#F831B02F80000000
(1445276007.776939) can0 055#809C00B227F2F7F1
(1445276007.777167) can0 065#01F98E00F7F3E353
(1445276007.777437) can0 070#005BF1F8F82E4000
(1445276007.777751) can0 075#585423098F99E900
(1445276007.778038) can0 080#802DF9F200804FDF
(1445276007.778352) can0 0B0#E352C1F9A2738352
(1445276007.778353) can0 145#211040FC80D0F2FD
(1445276007.778645) can0 28C#88BE300000004000
(1445276007.778921) can0 2B5#2722A9B37219B74B
(1445276007.779228) can0 125#34D7D0C1E68003E5
(1445276007.779479) can0 370#3CD3437800900004
(1445276007.781607) can0 072#388078003FFF00F0
(1445276007.783397) can0 008#80008000D4DC805B
(1445276007.785063) can0 0F5#0032737F80008000
(1445276007.785375) can0 120#8955FB7F80008000
(1445276007.785655) can0 130#11FF3300001DFFE7
(1445276007.785909) can0 150#C033F7FCC7FC0000
(1445276007.786881) can0 010#F831B02F80000000
(1445276007.787161) can0 1D0#61000A2BD2C5EC00
(1445276007.787417) can0 210#460B09AA2080E01C
(1445276007.789769) can0 288#800000001FE0DFC8
(1445276007.790320) can0 260#F0DC1649AA00FFD0
(1445276007.793383) can0 008#80008000C4EC805B
(1445276007.793663) can0 0E0#00238000F0007162
(1445276007.795049) can0 1B0#EC00B0000000C000
(1445276007.795330) can0 1B5#EFFFE000000000FF
(1445276007.795627) can0 1D8#43E0303135303734
(1445276007.795912) can0 1E0#E017BD80C17B2000
(1445276007.796884) can0 010#F831B02F80000000
(1445276007.797163) can0 055#809C00B227F2F7F1
(1445276007.797376) can0 065#01F88E00F7F2E353
(1445276007.797602) can0 070#005BF1F8F82E4000
(1445276007.797945) can0 072#38A078003FFF00F0
(1445276007.798205) can0 075#585423098F99E900
(1445276007.798526) can0 080#802DF8F200804FDC
(1445276007.798527) can0 0B0#E352C1F8A2738352
(1445276007.798796) can0 145#211040FC80D0F2FD
(1445276007.799137) can0 125#34D7D0C1E68003E5
(1445276007.799421) can0 2A9#840000C0C200268C
(1445276007.799730) can0 2C0#E5B0000000000000
(1445276007.799731) can0 2C5#7038E000001F9700
(1445276007.803357) can0 008#80008000B4FC805B
(1445276007.805102) can0 0F5#0022777F80008000
(1445276007.805362) can0 120#8955F87F80008000
(1445276007.805664) can0 130#11FF2300001DFFEF
(1445276007.805954) can0 150#C023F7FCD7FF0000
(1445276007.806225) can0 3CA#C000005300000000
(1445276007.806981) can0 010#F931B02F80000000
(1445276007.807224) can0 1D0#61020A2BD2C5EC00
(1445276007.811430) can0 072#388078003FFF00F0
(1445276007.811638) can0 210#4E0B09AAA080E01C
(1445276007.811875) can0 3B0#00C4A4B938B9D800
(1445276007.813427) can0 008#80008000A40C805B
(1445276007.813682) can0 0E0#00038000F8007162
(1445276007.814722) can0 288#800000001FE0DFC8
(1445276007.814988) can0 3C8#8E0024888E012975
(1445276007.815227) can0 1B0#EC00B0000000C000
(1445276007.815488) can0 1B5#EFFFE000000000FF
(1445276007.815731) can0 1D8#43E0303135303734
(1445276007.815992) can0 1E0#E017BD80817B2000
(1445276007.816345) can0 2C3#505400FFFF012975
(1445276007.816893) can0 010#F831B02F80000000
(1445276007.817143) can0 055#809C00B227F0F7F0
(1445276007.817355) can0 065#01F78E00F7F1E354
(1445276007.817602) can0 070#005BF1F7F82E4000
(1445276007.817853) can0 075#585423098F99E900
(1445276007.818174) can0 080#802DF8F200804FDC
(1445276007.818469) can0 0B0#E352C1F8A2738352
(1445276007.818771) can0 145#A10040FC80D0F2FD
(1445276007.818772) can0 28C#8EBE300000004000
(1445276007.819014) can0 125#34D7D0C1E68003E5
(1445276007.819318) can0 2B5#2722A9B37219B74B
(1445276007.820235) can0 260#F0DC1549AA00FFD0
(1445276007.821722) can0 360#01A05BA7D2012975
(1445276007.823428) can0 008#80008000941C805B
(1445276007.825105) can0 0F5#00127B7F80008000
(1445276007.825378) can0 120#8955F97F80008000
(1445276007.825588) can0 130#11FF1300001DFFF7
(1445276007.825854) can0 150#C013F7FCE7FF0000
(1445276007.826867) can0 010#F831B02F80000000
(1445276007.827161) can0 072#38A078003FFF00F0
(1445276007.827445) can0 1D0#61080A2BD2C5EC00
(1445276007.827720) can0 390#475D0A020105EF80
(1445276007.833362) can0 008#80008000842C805B
(1445276007.833662) can0 0E0#00E38000C0007162
(1445276007.835027) can0 1B0#EC00B0000000C000
(1445276007.835302) can0 1B5#EFFFE000000000FF
(1445276007.835599) can0 1D8#43E0303135303734
(1445276007.835850) can0 1E0#E017BD80C16B2400
(1445276007.836724) can0 010#F831B02F80000000
(1445276007.837038) can0 055#809C00B227F0F7F0
(1445276007.837248) can0 065#01F78E00F7F1E352
(1445276007.837494) can0 070#005BF1F7F82E4000
(1445276007.837818) can0 075#585423098F99E900
(1445276007.838141) can0 080#802DF7F200804FD9
(1445276007.838446) can0 0B0#E352C1F7A2738352
(1445276007.838447) can0 145#211040FC80D0F2FD
(1445276007.838729) can0 210#460B09AAA080E01C
(1445276007.839030) can0 2A9#840000C0CA00268C
(1445276007.839323) can0 125#34D7D0C1E68003E5
(1445276007.839719) can0 288#800000001FE0DFCC
(1445276007.841361) can0 072#388078003FFF00F0
(1445276007.843357) can0 008#80008000743C805B
(1445276007.845090) can0 0F5#00027F7F80008000
(1445276007.845369) can0 120#8955FA7F80008000
(1445276007.845671) can0 130#11FF0300001DFFFF
(1445276007.845936) can0 150#C003F7FCF7FF0000
(1445276007.847195) can0 010#F831B02F80000000
(1445276007.847413) can0 1D0#61000A2BD2C5EC00
(1445276007.850323) can0 260#F0DC15495500FFD0
(1445276007.853405) can0 008#80008000644C805B
(1445276007.853685) can0 0E0#00C38000C8007162
(1445276007.855027) can0 1B0#EC00B0000000C000
(1445276007.855256) can0 1B5#EFFFE000000000FF
(1445276007.855498) can0 1D8#43E0303135303734
(1445276007.855750) can0 1E0#E017BD80C15B2800
(1445276007.856000) can0 2C3#505400FFFF012975
(1445276007.856740) can0 010#F831B02F80000000
(1445276007.856974) can0 055#809C00B227F2F7F1
(1445276007.857167) can0 065#01F88E00F7F1E352
(1445276007.857467) can0 070#005BF1F8F82E4000
(1445276007.857774) can0 072#38A078003FFF00F0
(1445276007.858012) can0 075#585423098F99E900
(1445276007.858320) can0 080#802DF8F200804FDC
(1445276007.858606) can0 0B0#E352C1F8A2738352
(1445276007.858607) can0 145#211040FC80D0F2FD
(1445276007.858877) can0 28C#8EBE300000004000
(1445276007.859150) can0 125#34D7D0C1E68003E5
(1445276007.859420) can0 2B5#2522A9B37219B74B
(1445276007.859696) can0 2C0#E5B0000000000000
(1445276007.860018) can0 2C5#7038E000001F9700
(1445276007.860019) can0 350#80000000000000A2
(1445276007.860265) can0 3AF#2000000000000000
(1445276007.861570) can0 210#460B09AAA080E01C
(1445276007.863359) can0 008#80008000545C805B
(1445276007.864766) can0 288#800000001FE0DFD5
(1445276007.865044) can0 0F5#00F2437F80008000
(1445276007.865363) can0 120#8955FB7F80008000
(1445276007.865631) can0 130#11FFF300001DFF87
(1445276007.865919) can0 150#C0F3F7FC08000000
(1445276007.866841) can0 010#F831B02F80000000
(1445276007.867083) can0 1D0#61000A2BD2C5EC00
(1445276007.867360) can0 405#016738B10347F82A
(1445276007.871441) can0 072#388078003FFF00F0
(1445276007.873393) can0 008#80008000446C805B
(1445276007.873661) can0 0E0#00A38000D0007162
(1445276007.875023) can0 1B0#EC00B0000000C000
(1445276007.875302) can0 1B5#EFFFE000000000FF
(1445276007.875602) can0 1D8#43E0303135303734
(1445276007.875871) can0 1E0#E017BD80815B2800
(1445276007.876843) can0 010#F831B02F80000000
(1445276007.877085) can0 055#809C00B227F2F7F1
(1445276007.877373) can0 065#01F88E00F7F1E352
(1445276007.877659) can0 070#005BF1F8F82E4000
(1445276007.877929) can0 075#585423098F99E900
(1445276007.878227) can0 080#802DF8F200804FDC
(1445276007.878228) can0 0B0#E352C1F8A2738352
(1445276007.878477) can0 145#A10040FC80D0F2FD
(1445276007.878811) can0 2A9#840000C0D300268C
(1445276007.879160) can0 125#34D7D0C1E68003E5
(1445276007.879374) can0 370#3CD3437800900004
(1445276007.880345) can0 260#F0DC15495500FFD0
(1445276007.883393) can0 008#80008000347C805B
(1445276007.885105) can0 0F5#00E2477F80008000
(1445276007.885342) can0 120#8955F87F80008000
(1445276007.885603) can0 130#11FFE300001DFF8F
(1445276007.885871) can0 150#C0E3F7FC18020000
(1445276007.886828) can0 010#F931B02F80000000
(1445276007.887096) can0 072#38A078003FFF00F0
(1445276007.887406) can0 1D0#61020A2BD2C5EC00
(1445276007.887624) can0 210#4E0B09AAA080E01C
(1445276007.889791) can0 288#800000000FF0DFD0
(1445276007.893399) can0 008#80008000248C805B
(1445276007.893687) can0 0E0#00838000D8007162
(1445276007.895025) can0 1B0#EC00B0000000C000
(1445276007.895238) can0 1B5#EFFFE000000000FF
(1445276007.895493) can0 1D8#43E0303135303734
(1445276007.895751) can0 1E0#E017BD80C14B2C00
(1445276007.896001) can0 2C3#505400FFFF012975
(1445276007.896893) can0 010#F831B02F80000000
(1445276007.897174) can0 055#809C00B227F2F7F1
(1445276007.897500) can0 065#01F88E00F7F2E352
(1445276007.897866) can0 070#005BF1F8F82E4000
(1445276007.897868) can0 075#585423098F99E900
(1445276007.898127) can0 080#802DF8F200804FDC
(1445276007.898421) can0 0B0#E352C1F8A2738352
(1445276007.898716) can0 145#211040FC80D0F2FD
(1445276007.899087) can0 28C#8EBE300000004000
(1445276007.899089) can0 125#34D7D0C1E68003E5
(1445276007.899365) can0 2B5#2522A9B37219B74B
(1445276007.901556) can0 072#388078003FFF00F0
(1445276007.903402) can0 008#80008000149C805B
(1445276007.905076) can0 0F5#00D24B7F80008000
(1445276007.905379) can0 120#8955F87F80008000
(1445276007.905662) can0 130#11FFD300001DFF97
(1445276007.905912) can0 150#C0D3F7FC28020000
(1445276007.906871) can0 010#F831B02F80000000
(1445276007.907065) can0 1D0#61080A2BD2C5EC00
(1445276007.910322) can0 260#F0DC15495500FFD0
(1445276007.911452) can0 210#460B09AAA080E01C
(1445276007.913398) can0 008#8000800004AC805B
(1445276007.913685) can0 0E0#00638000E0007162
(1445276007.914788) can0 288#800000000FF0DFD0
(1445276007.915041) can0 1B0#EC00B0000000C000
(1445276007.915340) can0 1B5#EFFFE000000000FF
(1445276007.915640) can0 1D8#43E0303135303734
(1445276007.915873) can0 1E0#E017BD80C13B3000
(1445276007.916892) can0 010#F831B02F80000000
(1445276007.917176) can0 055#809C00B227F3F7F2
(1445276007.917472) can0 065#01F88DFFF7F2E351
(1445276007.917815) can0 070#005BF1F9F82E4000
(1445276007.917816) can0 072#38A078003FFF00F0
(1445276007.918063) can0 075#585423098F99E900
(1445276007.918355) can0 080#802DF8F200804FDC
(1445276007.918680) can0 0B0#E352C1F8A2738352
(1445276007.918995) can0 145#211040FC80D0F2FD
(1445276007.918997) can0 125#34D7D0C1E68003E5
(1445276007.919266) can0 2A9#840000C0CA00268C
(1445276007.919477) can0 2C0#E5B0000000000000
(1445276007.919749) can0 2C5#7038E000001F9700
(1445276007.921843) can0 360#01A05BA7D2012975
(1445276007.923398) can0 008#80008000F4BC805B
(1445276007.925105) can0 0F5#00C24F7F80008000
(1445276007.925342) can0 120#8955FA7F80008000
(1445276007.925581) can0 130#11FFC300001DFF9F
(1445276007.925854) can0 150#C0C3F7FC38020000
(1445276007.926187) can0 3CA#C000005400000000
(1445276007.926733) can0 010#F831B02F80000000
(1445276007.926972) can0 1D0#61000A2BD2C5EC00
(1445276007.927245) can0 390#675F02020105EF80
(1445276007.931418) can0 072#388078003FFF00F0
(1445276007.931682) can0 3B0#00C4A4B93CB9D800
(1445276007.933396) can0 008#80008000E4CC805B
(1445276007.933630) can0 0E0#00438000E8007162
(1445276007.934788) can0 3C8#8E0024888E012975
(1445276007.935040) can0 1B0#EC00B0000000C000
(1445276007.935429) can0 1B5#EFFFE000000000FF
(1445276007.935730) can0 1D8#43E0303135303734
(1445276007.935731) can0 1E0#E017BD80813B3000
(1445276007.935986) can0 2C3#505400FFFF012975
(1445276007.936944) can0 055#809C00B227F3F7F2
(1445276007.937196) can0 010#F831B02F80000000
(1445276007.937502) can0 065#01F98DFFF7F3E351
(1445276007.937838) can0 070#005BF1F9F82E4000
(1445276007.938161) can0 075#585423098F99E900
(1445276007.938162) can0 080#802DF9F200804FDF
(1445276007.938443) can0 0B0#E352C1F9A2738352
(1445276007.938747) can0 145#A10040FC80D0F2FD
(1445276007.939066) can0 210#4E0B09AA2080E01C
(1445276007.939067) can0 125#34D7D0C1E68003E5
(1445276007.939350) can0 28C#88BE300000004000
(1445276007.939702) can0 2B5#2522A9B37219B74B
(1445276007.939968) can0 3D0#C3800338006109A1
(1445276007.939969) can0 288#800000000FF0DFD0
(1445276007.940337) can0 260#F0DC1549AA00FFD0
(1445276007.941565) can0 430#8630000000280828
(1445276007.943399) can0 008#80008000D4DC805B
(1445276007.945104) can0 0F5#00B2537F80008000
(1445276007.945342) can0 120#8955F97F80008000
(1445276007.945605) can0 130#11FFB300001DFFA7
(1445276007.945875) can0 150#C0B3F7FC48030000
(1445276007.946917) can0 010#F831B02F80000000
(1445276007.947175) can0 072#38A078003FFF00F0
(1445276007.947444) can0 1D0#61000A2BD2C5EC00
(1445276007.948292) can0 350#80000000000000A2
(1445276007.953404) can0 008#80008000C4EC805B
(1445276007.953639) can0 0E0#00238000F0007162
(1445276007.955025) can0 1B0#EC00B0000000C000
(1445276007.955257) can0 1B5#EFFFE000000000FF
(1445276007.955496) can0 1D8#43E0303135303734
(1445276007.955745) can0 1E0#E017BD80C12B3400
(1445276007.956862) can0 010#F831B02F80000000
(1445276007.957158) can0 055#809C00B227F2F7F2
(1445276007.957443) can0 065#01F88E00F7F2E352
(1445276007.957749) can0 070#005BF1F9F82E4000
(1445276007.958160) can0 075#585423098F99E900
(1445276007.958161) can0 080#802DF9F200804FDF
(1445276007.958442) can0 0B0#E352C1F9A2738352
(1445276007.958734) can0 145#211040FC80D0F2FD
(1445276007.958735) can0 2A9#840000C0D300268C
(1445276007.958977) can0 125#34D7D0C1E68003E5
(1445276007.959226) can0 400#1D01000101000301
(1445276007.961465) can0 072#388078003FFF00F0
(1445276007.961728) can0 210#4E0B09AAA080E01C
(1445276007.963340) can0 008#80008000B4FC805B
(1445276007.964759) can0 288#800000000FF0DFC4
(1445276007.965046) can0 0F5#00A2577F80008000
(1445276007.965336) can0 120#8955FA7F80008000
(1445276007.965581) can0 130#11FFA300001DFFAF
(1445276007.965825) can0 150#C0A3F7FC57FF0000
(1445276007.966819) can0 010#F931B02F80000000
(1445276007.967065) can0 1D0#61020A2BD2C5EC00
(1445276007.970302) can0 260#F0DC1549AA00FFD0
(1445276007.973349) can0 008#80008000A40C805B
(1445276007.973620) can0 0E0#00038000F8007162
(1445276007.974950) can0 1B0#EC00B0000000C000
(1445276007.975221) can0 1B5#EFFFE000000000FF
(1445276007.975469) can0 1D8#43E0303135303734
(1445276007.975689) can0 1E0#E017BD80C11B3800
(1445276007.975935) can0 2C3#505400FFFF012975
(1445276007.976818) can0 010#F831B02F80000000
(1445276007.977145) can0 055#809C00B227F2F7F2
(1445276007.977418) can0 065#01F88E00F7F2E352
(1445276007.977690) can0 070#005BF1F9F82E4000
(1445276007.977942) can0 072#38A078003FFF00F0
(1445276007.978228) can0 075#585423098F99E900
(1445276007.978229) can0 080#802DF9F200804FDE
(1445276007.978501) can0 0B0#E352C1F9A2738352
(1445276007.978749) can0 145#211040FC80D0F2FD
(1445276007.978997) can0 125#34D7D0C1E68003E5
(1445276007.979280) can0 28C#88BE300000004000
(1445276007.979553) can0 2B5#2522A9B37219B74B
(1445276007.979826) can0 2C0#E5B0000000000000
(1445276007.980124) can0 2C5#7038E000001F9700
(1445276007.980125) can0 370#3CD3437800900004
(1445276007.980398) can0 3AF#2000000000000000
(1445276007.980644) can0 3E0#8880984F18000000
(1445276007.983331) can0 008#80008000941C805B
(1445276007.985037) can0 0F5#00925B7F80008000
(1445276007.985316) can0 120#8955F97F80008000
(1445276007.985537) can0 130#11FF9300001DFFB7
(1445276007.985783) can0 150#C093F7FC67FB0000
(1445276007.986772) can0 010#F831B02F80000000
(1445276007.987035) can0 1D0#61080A2BD2C5EC00
(1445276007.987335) can0 210#460B09AAA080E01C
(1445276007.989771) can0 288#80000000FF00DFC8
(1445276007.991640) can0 072#388078003FFF00F0
(1445276007.993395) can0 008#80008000842C805B
(1445276007.993607) can0 0E0#00E38000C0007162
(1445276007.995027) can0 1B0#EC00B0000000C000
(1445276007.995299) can0 1B5#EFFFE000000000FF
(1445276007.995639) can0 1D8#43E0303135303734
(1445276007.995856) can0 1E0#E017BD80811B3800
(1445276007.996966) can0 055#809C00B227F2F7F2
(1445276007.997207) can0 010#F831B02F80000000
(1445276007.997497) can0 065#01F88E00F7F2E352
(1445276007.997785) can0 070#005BF1F9F82E4000
(1445276007.998024) can0 075#585423098F99E900
(1445276007.998395) can0 080#802DF9F200804FDE
(1445276007.998397) can0 0B0#E352C1F9A2738352
(1445276007.998614) can0 145#A10040FC80D0F2FD
(1445276007.998921) can0 125#34D7D0C1E68003E5
(1445276007.999172) can0 2A9#840000C0CA00268C
(1445276008.000351) can0 260#F0DC1549AA00FFD0
(1445276008.003380) can0 008#80008000743C805B
(1445276008.005102) can0 0F5#00825F7F80008000
(1445276008.005313) can0 120#8955F87F80008000
(1445276008.005609) can0 130#11FF8300001DFFBF
(1445276008.005874) can0 150#C083F7FC77FF0000
(1445276008.006892) can0 010#F831B02F80000000
(1445276008.007174) can0 072#38A078003FFF00F0
(1445276008.007467) can0 1D0#61000A2BD2C5EC00
(1445276008.011641) can0 210#4E0B09AAA080E01C
(1445276008.013376) can0 008#80008000644C805B
(1445276008.013589) can0 0E0#00C38000C8007162
(1445276008.014850) can0 288#80000000FF00DFD9
(1445276008.015067) can0 1B0#EC00B0000000C000
(1445276008.015340) can0 1B5#EFFFE000000000FF
(1445276008.015568) can0 1D8#43E0303135303734
(1445276008.015845) can0 1E0#E017BD80C10B3C00
(1445276008.016084) can0 2C3#505400FFFF012975
(1445276008.016797) can0 010#F831B02F80000000
(1445276008.017060) can0 055#809C00B227F2F7F2
(1445276008.017371) can0 065#01F88E00F7F2E353
(1445276008.017659) can0 070#005BF1F9F82E4000
(1445276008.017987) can0 075#585423098F99E900
(1445276008.017988) can0 080#802DF9F200804FDE
(1445276008.018248) can0 0B0#E352C1F9A2738352
(1445276008.018499) can0 145#211040FC80D0F2FD
(1445276008.018827) can0 28C#88BE300000004000
(1445276008.019139) can0 125#34D7D0C1E68003E5
(1445276008.019140) can0 2B5#2522A9B37219B74B
(1445276008.021436) can0 072#388078003FFF00F0
(1445276008.021726) can0 360#01A05BA7D2012975
(1445276008.023378) can0 008#80008000545C805B
(1445276008.025071) can0 0F5#0072637F80008000
(1445276008.025363) can0 120#8955FA7F80008000
(1445276008.025666) can0 130#11FF7300001DFFC7
(1445276008.025934) can0 150#C073F7FC88050000
(1445276008.026947) can0 010#F831B02F80000000
(1445276008.027158) can0 1D0#61000A2BD2C5EC00
(1445276008.027415) can0 390#475F02020105EF80
(1445276008.030402) can0 260#F0DC1549AA00FFD0
(1445276008.033324) can0 008#80008000446C805B
(1445276008.033591) can0 0E0#00A38000D0007162
(1445276008.035000) can0 1B0#EC00B0000000C000
(1445276008.035283) can0 1B5#EFFFE000000000FF
(1445276008.035497) can0 1D8#43E0303135303734
(1445276008.035787) can0 1E0#E017BD80C1FB0000
(1445276008.036638) can0 010#F831B02F80000000
(1445276008.036918) can0 072#38A078003FFF00F0
(1445276008.037157) can0 055#809C00B227F1F7F1
(1445276008.037389) can0 065#01F88E00F7F1E353
(1445276008.037604) can0 070#005BF1F8F82E4000
(1445276008.037844) can0 075#585423098F99E900
(1445276008.038139) can0 080#802DF8F200804FDB
(1445276008.038420) can0 0B0#E352C1F8A2738352
(1445276008.038764) can0 145#211040FC80D0F2FD
(1445276008.038765) can0 210#460B09AAA080E01C
(1445276008.039025) can0 125#34D7D0C1E68003E5
(1445276008.039409) can0 2A9#840000C0C200268C
(1445276008.039703) can0 2C0#E5B0000000000000
(1445276008.039999) can0 2C5#7038E000001F9700
(1445276008.040000) can0 288#80000000FF00DFC0
(1445276008.040265) can0 350#80000000000000A2
(1445276008.043380) can0 008#80008000347C805B
(1445276008.045104) can0 0F5#0062677F80008000
(1445276008.045361) can0 120#8955F97F80008000
(1445276008.045665) can0 130#11FF6300001DFFCF
(1445276008.045959) can0 150#C063F7FC97FF0000
(1445276008.046199) can0 3CA#C000005500000000
(1445276008.047152) can0 010#F931B02F80000000
(1445276008.047422) can0 1D0#61020A2BD2C5EC00
(1445276008.051430) can0 072#388078003FFF00F0
(1445276008.051642) can0 3B0#00C4A4B938B9FC00
(1445276008.053373) can0 008#80008000248C805B
(1445276008.053612) can0 0E0#00838000D8007162
(1445276008.054841) can0 3C8#8E0024888E012975
(1445276008.055160) can0 1B0#EC00B0000000C000
(1445276008.055444) can0 1B5#EFFFE000000000FF
(1445276008.055749) can0 1D8#43E0303135303734
(1445276008.055750) can0 1E0#E017BD8081FB0000
(1445276008.056068) can0 2C3#505400FFFF012975
(1445276008.056896) can0 010#F831B02F80000000
(1445276008.057167) can0 055#809C00B227F2F7F1
(1445276008.057460) can0 065#01F88E00F7F1E352
(1445276008.057713) can0 070#005BF1F8F82E4000
(1445276008.058025) can0 075#585423098F99E900
(1445276008.058026) can0 080#802DF8F200804FDB
(1445276008.058343) can0 0B0#E352C1F8A2738352
(1445276008.058610) can0 145#A10040FC80D0F2FD
(1445276008.058892) can0 28C#88BE300000004000
(1445276008.059174) can0 125#34D7D0C1E68003E5
(1445276008.059442) can0 2B5#2622A9B37219B74B
(1445276008.060337) can0 260#F0DC15495500FFD0
(1445276008.061524) can0 210#460B09AAA080E01E
(1445276008.063334) can0 008#80008000149C805B
(1445276008.064829) can0 288#80000000FF00DFC4
(1445276008.065072) can0 0F5#00526B7F80008000
(1445276008.065377) can0 120#8955F97F80008000
(1445276008.065624) can0 130#11FF5300001DFFD7
(1445276008.065910) can0 150#C053F7FCA7FD0000
(1445276008.066895) can0 010#F831B02F80000000
(1445276008.067172) can0 072#38A078003FFF00F0
(1445276008.067443) can0 1D0#61080A2BD2C5EC00
(1445276008.073381) can0 008#8000800004AC805B
(1445276008.073596) can0 0E0#00638000E0007162
(1445276008.075022) can0 1B0#EC00B0000000C000
(1445276008.075254) can0 1B5#EFFFE000000000FF
(1445276008.075494) can0 1D8#43E0303135303734
(1445276008.075746) can0 1E0#E017BD80C1EB0400
(1445276008.076791) can0 010#F831B02F80000000
(1445276008.077003) can0 055#809C00B227F2F7F1
(1445276008.077247) can0 065#01F88E00F7F1E352
(1445276008.077499) can0 070#005BF1F8F82E4000
(1445276008.077807) can0 075#585423098F99E900
(1445276008.078072) can0 080#802DF8F200804FDC
(1445276008.078393) can0 0B0#E352C1F8A2738352
(1445276008.078394) can0 145#211040FC80D0F2FD
(1445276008.078669) can0 2A9#840000C0DB00268C
(1445276008.078912) can0 125#34D7D0C1E68003E5
(1445276008.079187) can0 370#3CD3437800900004
(1445276008.081436) can0 072#388078003FFF00F0
(1445276008.083340) can0 008#80008000F4BC805B
