(1447251157.354580) can0 1B0#EC00B00000008000
(1447251157.354819) can0 1B5#2FFFC0070C070DF9
(1447251157.355081) can0 1D8#6380303135303734
(1447251157.355332) can0 1E0#E017BD80C14B2C00
(1447251157.355575) can0 2C3#505406FFFF013082
(1447251157.357115) can0 010#F831B02F80008000
(1447251157.357392) can0 072#20A0000027FF00F0
(1447251157.357627) can0 330#0000000000000000
(1447251157.360202) can0 008#800080007BD48034
(1447251157.361516) can0 360#01A0000349013082
(1447251157.364540) can0 0F5#40E2477F80008000
(1447251157.364773) can0 120#8956076F80008000
(1447251157.365103) can0 130#11FFE300001DFF8E
(1447251157.365305) can0 150#C0E3E7FF17FE0000
(1447251157.367102) can0 010#F831B02F80008000
(1447251157.367345) can0 1D0#6100ED218ADCC500
(1447251157.367591) can0 291#0000000000000000
(1447251157.367805) can0 390#4F591A020000FF80
(1447251157.370234) can0 008#800080006BE48034
(1447251157.371140) can0 055#809C00B227FFF7FF
(1447251157.371423) can0 065#01DE8E00F7F6E000
(1447251157.371666) can0 070#000EF200F8076000
(1447251157.371909) can0 072#2080000027FF00F0
(1447251157.372115) can0 075#1854000000000000
(1447251157.372403) can0 080#802600F200804FFF
(1447251157.372632) can0 0B0#A352C200A2698352
(1447251157.372890) can0 145#210040FC8050F2FD
(1447251157.374553) can0 1B0#EC00B00000008000
(1447251157.374819) can0 1B5#2FFFC0070C070DF9
(1447251157.375102) can0 1D8#6380303135303734
(1447251157.375319) can0 1E0#E017BD80814B2C00
(1447251157.376842) can0 010#F931B02F80008000
(1447251157.377102) can0 210#4E0D09D0A000DFAD
(1447251157.377327) can0 2A9#840000C0CA0006AC
(1447251157.380232) can0 008#800080005BF48034
(1447251157.384573) can0 0F5#40D24B7F80008000
(1447251157.384813) can0 120#8956076F80008000
(1447251157.385102) can0 130#11FFD300001DFF96
(1447251157.385345) can0 150#C0D3E7FF27FE0000
(1447251157.385573) can0 3CA#C000001200000000
(1447251157.386920) can0 010#F831B02F80008000
(1447251157.387180) can0 072#20A0000027FF00F0
(1447251157.387423) can0 1D0#610AED218ADCC500
(1447251157.390188) can0 008#800080004B048034
(1447251157.391108) can0 055#809C00B227FFF7FF
(1447251157.391422) can0 065#01DE8E00F7F6E000
(1447251157.391666) can0 070#000EF200F8076000
(1447251157.391908) can0 075#1854000000000000
(1447251157.392160) can0 080#802600F200804FFF
(1447251157.392402) can0 0B0#A352C200A2698352
(1447251157.392620) can0 145#A11040FC8050F2FD
(1447251157.392863) can0 28C#00BE3800000040A0
(1447251157.393056) can0 2B5#0022ADB35200004B
(1447251157.393300) can0 2C0#E5A0000001000000
(1447251157.393541) can0 2C5#0000E00000008700
(1447251157.393792) can0 3AF#2000000000000000
(1447251157.394588) can0 1B0#EC00B00000008000
(1447251157.394857) can0 1B5#2FFFC0070C070DF9
(1447251157.395088) can0 1D8#6380303135303734
(1447251157.395304) can0 1E0#E017BD80C13B3000
(1447251157.395547) can0 2C3#505406FFFF013082
(1447251157.397062) can0 010#F831B02F80008000
(1447251157.397346) can0 291#0000000000000000
(1447251157.400186) can0 008#800080003B148034
(1447251157.401597) can0 072#2080000027FF00F0
(1447251157.401865) can0 210#460D09D0A000DFAD
(1447251157.404543) can0 0F5#40C24F7F80008000
(1447251157.404812) can0 120#8956076F80008000
(1447251157.405102) can0 130#11FFC300001DFF9E
(1447251157.405344) can0 150#C0C3E7FF37FE0000
(1447251157.407101) can0 010#F831B02F80008000
(1447251157.407344) can0 1D0#6100ED218ADCC500
(1447251157.410233) can0 008#800080002B248034
(1447251157.411138) can0 055#809C00B227FFF7FF
(1447251157.411405) can0 065#01DE8E00F7F6E000
(1447251157.411649) can0 070#000EF200F8076000
(1447251157.411893) can0 075#1854000000000000
(1447251157.412142) can0 080#802600F200804FFF
(1447251157.412363) can0 0B0#A352C200A2698352
(1447251157.412604) can0 145#211040FC8050F2FD
(1447251157.412838) can0 370#00D3435400900004
(1447251157.414588) can0 1B0#EC00B00000008000
(1447251157.414851) can0 1B5#2FFFC0070C070DF9
(1447251157.415088) can0 1D8#6380303135303734
(1447251157.415325) can0 1E0#E017BD80C12B3400
(1447251157.417100) can0 010#F831B02F80008000
(1447251157.417372) can0 072#20A0000027FF00F0
(1447251157.417613) can0 2A9#840000C0C20006AC
(1447251157.420217) can0 008#800080001B348034
(1447251157.424543) can0 0F5#40B2537F80008000
(1447251157.424798) can0 120#8956076F80008000
(1447251157.425101) can0 130#11FFB300001DFFA6
(1447251157.425347) can0 150#C0B3E7FF47FE0000
(1447251157.427101) can0 010#F831B02F80008000
(1447251157.427368) can0 1D0#6100ED218ADCC500
(1447251157.427598) can0 210#460D09D0A000DFAD
(1447251157.427839) can0 291#0000000000000000
(1447251157.430189) can0 008#800080000B448034
(1447251157.431136) can0 055#809C00B227FFF7FF
(1447251157.431381) can0 065#01DE8E00F7F6E000
(1447251157.431620) can0 070#000EF200F8076000
(1447251157.431863) can0 072#2080000027FF00F0
(1447251157.432113) can0 075#1854000000000000
(1447251157.432358) can0 080#802600F200804FFF
(1447251157.432602) can0 0B0#A352C200A2698352
(1447251157.432846) can0 145#210040FC8050F2FD
(1447251157.433087) can0 28C#00BE3800000040A0
(1447251157.433307) can0 2B5#0022ADB35200004B
(1447251157.433545) can0 3B0#00C400002836FC00
(1447251157.434606) can0 1B0#EC00B00000008000
(1447251157.434890) can0 1B5#2FFFC0070C070DF9
(1447251157.435127) can0 1D8#6380303135303734
(1447251157.435369) can0 1E0#E017BD80812B3400
(1447251157.435613) can0 2C3#505406FFFF013082
(1447251157.437011) can0 010#F831B02F80008000
(1447251157.437295) can0 330#0000000000000000
(1447251157.440205) can0 008#80008000FB548034
(1447251157.444544) can0 0F5#40A2577F80008000
(1447251157.444797) can0 120#8956076F80008000
(1447251157.445100) can0 130#11FFA300001DFFAE
(1447251157.445343) can0 150#C0A3E7FF57FE0000
(1447251157.447100) can0 010#F831B02F80008000
(1447251157.447369) can0 072#20A0000027FF00F0
(1447251157.447572) can0 1D0#6100ED218ADCC500
(1447251157.450206) can0 008#80008000EB648034
(1447251157.451179) can0 055#809C00B227FFF7FF
(1447251157.451421) can0 065#01DE8E00F7F6E000
(1447251157.451664) can0 070#000EF200F8076000
(1447251157.451907) can0 075#1854000000000000
(1447251157.452159) can0 080#802600F200804FFF
(1447251157.452402) can0 0B0#A352C200A2698352
(1447251157.452599) can0 145#A11040FC8050F2FD
(1447251157.452842) can0 210#4E0D09D0A000DFAD
(1447251157.453115) can0 2C0#E5A0000002000000
(1447251157.453362) can0 2C5#0000E00000008700
(1447251157.454575) can0 1B0#EC00B00000008000
(1447251157.454837) can0 1B5#2FFFC0070C070DF9
(1447251157.455070) can0 1D8#6380303135303734
(1447251157.455317) can0 1E0#E017BD80C11B3800
(1447251157.457189) can0 010#F931B02F80008000
(1447251157.457453) can0 291#0000000000000000
(1447251157.457703) can0 2A9#840000C0DB0006AC
(1447251157.460205) can0 008#80008000DB748034
(1447251157.461517) can0 072#2080000027FF00F0
(1447251157.461771) can0 360#01A0000349013082
(1447251157.464542) can0 0F5#40925B7F80008000
(1447251157.464798) can0 120#8956076F80008000
(1447251157.465085) can0 130#11FF9300001DFFB6
(1447251157.465343) can0 150#C093E7FF67FE0000
(1447251157.467100) can0 010#F831B02F80008000
(1447251157.467354) can0 1D0#610AED218ADCC500
(1447251157.467612) can0 390#4F5A16020000FF80
(1447251157.470160) can0 008#80008000CB848034
(1447251157.471178) can0 055#809C00B227FFF7FF
(1447251157.471447) can0 065#01DE8E00F7F6E000
(1447251157.471690) can0 070#000EF200F8076000
(1447251157.471933) can0 075#1854000000000000
(1447251157.472158) can0 080#802600F200804FFF
(1447251157.472356) can0 0B0#A352C200A2698352
(1447251157.472643) can0 145#211040FC8050F2FD
(1447251157.472886) can0 28C#00BE3800000040A0
(1447251157.473132) can0 2B5#0022ADB35200004B
(1447251157.474548) can0 1B0#EC00B00000008000
(1447251157.474849) can0 1B5#2FFFC0070C070DF9
(1447251157.475086) can0 1D8#6380303135303734
(1447251157.475303) can0 1E0#E017BD80C10B3C00
(1447251157.475520) can0 2C3#505406FFFF013082
(1447251157.477060) can0 010#F831B02F80008000
(1447251157.477331) can0 072#20A0000027FF00F0
(1447251157.477571) can0 210#460D09D0A000DFAD
(1447251157.477789) can0 3D0#C2800186006109A0
(1447251157.480164) can0 008#80008000BB948034
(1447251157.484529) can0 0F5#40825F7F80008000
(1447251157.484770) can0 120#8956076F80008000
(1447251157.485085) can0 130#11FF8300001DFFBE
(1447251157.485329) can0 150#C083E7FF77FE0000
(1447251157.486969) can0 010#F831B02F80008000
(1447251157.487276) can0 1D0#6100ED218ADCC500
(1447251157.487519) can0 291#0000000000000000
(1447251157.490191) can0 008#80008000ABA48034
(1447251157.491190) can0 055#809C00B227FFF7FF
(1447251157.491458) can0 065#01DE8E00F7F6E000
(1447251157.491701) can0 070#000EF200F8076000
(1447251157.491918) can0 072#2080000027FF00F0
(1447251157.492170) can0 075#1854000000000000
(1447251157.492412) can0 080#802600F200804FFF
(1447251157.492624) can0 0B0#A352C200A2698352
(1447251157.492898) can0 145#210040FC8050F2FD
(1447251157.494580) can0 1B0#EC00B00000008000
(1447251157.494822) can0 1B5#2FFFC0070C070DF9
(1447251157.495085) can0 1D8#6380303135303734
(1447251157.495328) can0 1E0#E017BD80810B3C00
(1447251157.497054) can0 010#F831B02F80008000
(1447251157.497304) can0 2A9#840000C0C20006AC
(1447251157.500190) can0 008#800080009BB48034
(1447251157.501555) can0 210#4E0D09D02000DFAD
(1447251157.504527) can0 0F5#4072637F80008000
(1447251157.504796) can0 120#8956076F80008000
(1447251157.505085) can0 130#11FF7300001DFFC6
(1447251157.505354) can0 150#C073E7FF87FE0000
(1447251157.505597) can0 3CA#C000001300000000
(1447251157.506943) can0 010#F831B02F80008000
(1447251157.507189) can0 072#20A0000027FF00F0
(1447251157.507432) can0 1D0#6100ED218ADCC500
(1447251157.510159) can0 008#800080008BC48034
(1447251157.511157) can0 055#809C00B227FFF7FF
(1447251157.511457) can0 065#01DE8E00F7F6E000
(1447251157.511700) can0 070#000EF200F8076000
(1447251157.511941) can0 075#1854000000000000
(1447251157.512174) can0 080#802600F200804FFF
(1447251157.512409) can0 0B0#A352C200A2698352
(1447251157.512656) can0 145#A11040FC8050F2FD
(1447251157.512898) can0 28C#00BE3800000040A0
(1447251157.513131) can0 2B5#0022ADB35200004B
(1447251157.513353) can0 2C0#E5A0000002000000
(1447251157.513596) can0 2C5#0000E00000008700
(1447251157.513807) can0 370#00D3435400900004
(1447251157.514087) can0 3AF#2000000000000000
(1447251157.514320) can0 3E0#0080983E18000000
(1447251157.514591) can0 1B0#EC00B00000008000
(1447251157.514833) can0 1B5#2FFFC0070C070DF9
(1447251157.515108) can0 1D8#6380303135303734
(1447251157.515375) can0 1E0#E017BD80C1FB0000
(1447251157.515619) can0 2C3#505406FFFF013082
(1447251157.517243) can0 010#F831B02F80008000
(1447251157.517510) can0 291#0000000000000000
(1447251157.517779) can0 330#0000000000000000
(1447251157.520163) can0 008#800080007BD48034
(1447251157.521553) can0 072#2080000027FF00F0
(1447251157.524501) can0 0F5#4062677F80008000
(1447251157.524770) can0 120#8956076F80008000
(1447251157.524987) can0 130#11FF6300001DFFCE
(1447251157.525277) can0 150#C063E7FF97FE0000
(1447251157.526943) can0 010#F831B02F80008000
(1447251157.527215) can0 1D0#6100ED218ADCC500
(1447251157.527453) can0 210#460D09D0A000DFAD
(1447251157.527697) can0 405#016439DE39ADF82A
(1447251157.530191) can0 008#800080006BE48034
(1447251157.531191) can0 055#809C00B227FFF7FF
(1447251157.531453) can0 065#01DE8E00F7F6E000
(1447251157.531696) can0 070#000EF200F8076000
(1447251157.531940) can0 075#1854000000000000
(1447251157.532194) can0 080#802600F200804FFF
(1447251157.532433) can0 0B0#A352C200A2698352
(1447251157.532680) can0 145#211040FC8050F2FD
(1447251157.534582) can0 1B0#EC00B00000008000
(1447251157.534816) can0 1B5#2FFFC0070C070DF9
(1447251157.535052) can0 1D8#6380303135303734
(1447251157.535327) can0 1E0#E017BD80C1EB0400
(1447251157.537084) can0 010#F931B02F80008000
(1447251157.537329) can0 072#20A0000027FF00F0
(1447251157.537570) can0 2A9#840000C0CA0006AC
(1447251157.540137) can0 008#800080005BF48034
(1447251157.544500) can0 0F5#40526B7F80008000
(1447251157.544742) can0 120#8956076F80008000
(1447251157.545083) can0 130#11FF5300001DFFD6
(1447251157.545296) can0 150#C053E7FFA7FE0000
(1447251157.546971) can0 010#F831B02F80008000
(1447251157.547326) can0 1D0#610AED218ADCC500
(1447251157.547569) can0 291#0000000000000000
(1447251157.550162) can0 008#800080004B048034
(1447251157.551162) can0 055#809C00B227FFF7FF
(1447251157.551404) can0 065#01DE8E00F7F6E000
(1447251157.551646) can0 070#000EF200F8076000
(1447251157.551916) can0 072#2080000027FF00F0
(1447251157.552141) can0 075#1854000000000000
(1447251157.552384) can0 080#802600F200804FFF
(1447251157.552609) can0 0B0#A352C200A2698352
(1447251157.552853) can0 145#210040FC8050F2FD
(1447251157.553071) can0 210#4E0D09D0A000DFAD
(1447251157.553303) can0 28C#00BE3800000040A0
(1447251157.553557) can0 2B5#0022ADB35200004B
(1447251157.553774) can0 3B0#00C400002C36D800
(1447251157.554565) can0 1B0#EC00B00000008000
(1447251157.554851) can0 1B5#2FFFC0070C070DF9
(1447251157.555083) can0 1D8#6380303135303734
(1447251157.555326) can0 1E0#E017BD8081EB0400
(1447251157.555568) can0 2C3#505406FFFF013082
(1447251157.557109) can0 010#F831B02F80008000
(1447251157.560140) can0 008#800080003B148034
(1447251157.561629) can0 360#01A0000349013082
(1447251157.564499) can0 0F5#40426F7F80008000
(1447251157.564768) can0 120#8956076F80008000
(1447251157.565084) can0 130#11FF4300001DFFDE
(1447251157.565273) can0 150#C043E7FFB7FE0000
(1447251157.567070) can0 010#F831B02F80008000
(1447251157.567306) can0 072#20A0000027FF00F0
(1447251157.567574) can0 1D0#6100ED218ADCC500
(1447251157.567817) can0 390#6F5B12020000FF80
(1447251157.570163) can0 008#800080002B248034
(1447251157.571136) can0 055#809C00B227FFF7FF
(1447251157.571404) can0 065#01DE8E00F7F6E000
(1447251157.571648) can0 070#000EF200F8076000
(1447251157.571890) can0 075#1854000000000000
(1447251157.572110) can0 080#802600F200804FFF
(1447251157.572384) can0 0B0#A352C200A2698352
(1447251157.572601) can0 145#A11040FC8050F2FD
(1447251157.572845) can0 2C0#E5A0000001000000
(1447251157.573083) can0 2C5#0000E00000008700
(1447251157.574547) can0 1B0#EC00B00000008000
(1447251157.574846) can0 1B5#2FFFC0070C070DF9
(1447251157.575082) can0 1D8#6380303135303734
(1447251157.575300) can0 1E0#E017BD80C1DB0800
(1447251157.576994) can0 010#F831B02F80008000
(1447251157.577249) can0 210#4E0D09D0A000DFAD
(1447251157.577516) can0 291#0000000000000000
(1447251157.577759) can0 2A9#840000C0D30006AC
(1447251157.580162) can0 008#800080001B348034
(1447251157.581604) can0 072#2080000027FF00F0
(1447251157.584499) can0 0F5#4032737F80008000
(1447251157.584768) can0 120#8956076F80008000
(1447251157.584985) can0 130#11FF3300001DFFE6
(1447251157.585276) can0 150#C033E7FFC7FE0000
(1447251157.587083) can0 010#F831B02F80008000
(1447251157.587326) can0 1D0#6100ED218ADCC500
(1447251157.590162) can0 008#800080000B448034
(1447251157.591136) can0 055#809C00B227FFF7FF
(1447251157.591404) can0 065#01DE8E00F7F6E000
(1447251157.591647) can0 070#000EF200F8076000
(1447251157.591890) can0 075#1854000000000000
(1447251157.592140) can0 080#802600F200804FFF
(1447251157.592384) can0 0B0#A352C200A2698352
(1447251157.592569) can0 145#211040FC8050F2FD
(1447251157.592811) can0 28C#00BE3800000040A0
(1447251157.593057) can0 2B5#0022ADB35200004B
(1447251157.594552) can0 1B0#EC00B00000008000
(1447251157.594846) can0 1B5#2FFFC0070C070DF9
(1447251157.595083) can0 1D8#6380303135303734
(1447251157.595326) can0 1E0#E017BD80C1CB0C00
(1447251157.595543) can0 2C3#505406FFFF013082
(1447251157.597057) can0 010#F831B02F80008000
(1447251157.597327) can0 072#20A0000027FF00F0
(1447251157.597543) can0 330#0000000000000000
(1447251157.597760) can0 400#1301000004000000
(1447251157.600135) can0 008#80008000FB548034
(1447251157.601526) can0 210#460D09D0A000DFAD
(1447251157.604499) can0 0F5#4022777F80008000
(1447251157.604741) can0 120#8956076F80008000
(1447251157.604984) can0 130#11FF2300001DFFEE
(1447251157.605275) can0 150#C023E7FFD7FE0000
(1447251157.607082) can0 010#F831B02F80008000
(1447251157.607299) can0 1D0#6100ED218ADCC500
(1447251157.607543) can0 291#0000000000000000
(1447251157.610162) can0 008#80008000EB648034
(1447251157.611133) can0 055#809C00B227FFF7FF
(1447251157.611400) can0 065#01DE8E00F7F6E000
(1447251157.611644) can0 070#000EF200F8076000
(1447251157.611889) can0 072#2080000027FF00F0
(1447251157.612107) can0 075#1854000000000000
(1447251157.612354) can0 080#802600F200804FFF
(1447251157.612567) can0 0B0#A352C200A2698352
(1447251157.612815) can0 145#210040FC8050F2FD
(1447251157.613083) can0 370#00D3435400900004
(1447251157.614552) can0 1B0#EC00B00000008000
(1447251157.614820) can0 1B5#2FFFC0070C070DF9
(1447251157.615056) can0 1D8#6380303135303734
(1447251157.615299) can0 1E0#E017BD8081CB0C00
(1447251157.616993) can0 010#F931B02F80008000
(1447251157.617274) can0 2A9#840000C0CA0006AC
(1447251157.620160) can0 008#80008000DB748034
(1447251157.624472) can0 0F5#40127B7F80008000
(1447251157.624740) can0 120#8956076F80008000
(1447251157.624984) can0 130#11FF1300001DFFF6
(1447251157.625301) can0 150#C013E7FFE7FE0000
(1447251157.625542) can0 3CA#C000001400000000
(1447251157.627082) can0 010#F831B02F80008000
(1447251157.627324) can0 072#20A0000027FF00F0
(1447251157.627572) can0 1D0#610AED218ADCC500
(1447251157.627810) can0 210#460D09D0A000DFAD
(1447251157.630134) can0 008#80008000CB848034
(1447251157.631162) can0 055#809C00B227FFF7FF
(1447251157.631402) can0 065#01DE8E00F7F6E000
(1447251157.631644) can0 070#000EF200F8076000
(1447251157.631861) can0 075#1854000000000000
(1447251157.632108) can0 080#802600F200804FFF
(1447251157.632327) can0 0B0#A352C200A2698352
(1447251157.632569) can0 145#A11040FC8050F2FD
(1447251157.632813) can0 28C#00BE3800000040A0
(1447251157.633053) can0 2B5#0022ADB35200004B
(1447251157.633298) can0 2C0#E5A0000002000000
(1447251157.633567) can0 2C5#0000E00000008700
(1447251157.633811) can0 3AF#2000000000000000
(1447251157.634550) can0 1B0#EC00B00000008000
(1447251157.634818) can0 1B5#2FFFC0070C070DF9
(1447251157.635081) can0 1D8#6380303135303734
(1447251157.635324) can0 1E0#E017BD80C1BB1000
(1447251157.635543) can0 2C3#505406FFFF013082
(1447251157.636914) can0 010#F831B02F80008000
(1447251157.637212) can0 291#0000000000000000
(1447251157.640134) can0 008#80008000BB948034
(1447251157.641707) can0 072#2080000027FF00F0
(1447251157.644498) can0 0F5#40027F7F80008000
(1447251157.644766) can0 120#8956076F80008000
(1447251157.645081) can0 130#11FF0300001DFFFE
(1447251157.645327) can0 150#C003E7FFF7FE0000
(1447251157.647082) can0 010#F831B02F80008000
(1447251157.647324) can0 1D0#6100ED218ADCC500
(1447251157.650135) can0 008#80008000ABA48034
(1447251157.651134) can0 055#809C00B227FFF7FF
(1447251157.651402) can0 065#01DE8E00F7F6E000
(1447251157.651646) can0 070#000EF200F8076000
(1447251157.651888) can0 075#1854000000000000
(1447251157.652114) can0 080#802600F200804FFF
(1447251157.652356) can0 0B0#A352C200A2698352
(1447251157.652567) can0 145#211040FC8050F2FD
(1447251157.652842) can0 210#4E0D09D02000DFAD
(1447251157.654577) can0 1B0#EC00B00000008000
(1447251157.654844) can0 1B5#2FFFC0070C070DF9
(1447251157.655081) can0 1D8#6380303135303734
(1447251157.655298) can0 1E0#E017BD80C1AB1400
(1447251157.657107) can0 010#F831B02F80008000
(1447251157.657378) can0 072#20A0000027FF00F0
(1447251157.657620) can0 2A9#840000C0D30006AC
(1447251157.660133) can0 008#800080009BB48034
(1447251157.661681) can0 360#01A0000349013082
(1447251157.664497) can0 0F5#40F2437F80008000
(1447251157.664766) can0 120#8956076F80008000
(1447251157.665081) can0 130#11FFF300001DFF86
(1447251157.665326) can0 150#C0F3E7FF07FE0000
(1447251157.667080) can0 010#F831B02F80008000
(1447251157.667350) can0 1D0#6100ED218ADCC500
(1447251157.667617) can0 291#0000000000000000
(1447251157.667835) can0 390#4F5D0A020000FF80
(1447251157.670135) can0 008#800080008BC48034
(1447251157.671133) can0 055#809C00B227FFF7FF
(1447251157.671402) can0 065#01DE8E00F7F6E000
(1447251157.671644) can0 070#000EF200F8076000
(1447251157.671888) can0 072#2080000027FF00F0
(1447251157.672107) can0 075#1854000000000000
(1447251157.672382) can0 080#802600F200804FFF
(1447251157.672598) can0 0B0#A352C200A2698352
(1447251157.672841) can0 145#210040FC8050F2FD
(1447251157.673081) can0 28C#00BE3800000040A0
(1447251157.673294) can0 2B5#0022ADB35200004B
(1447251157.673541) can0 3B0#00C400002836D800
(1447251157.674582) can0 1B0#EC00B00000008000
(1447251157.674844) can0 1B5#2FFFC0070C070DF9
(1447251157.675080) can0 1D8#6380303135303734
(1447251157.675298) can0 1E0#E017BD8081AB1400
(1447251157.675515) can0 2C3#505406FFFF013082
(1447251157.677055) can0 010#F831B02F80008000
(1447251157.677324) can0 210#460E09D0A000DFAD
(1447251157.677566) can0 330#0000000000000000
(1447251157.677783) can0 3D0#C2800186006109A0
(1447251157.680101) can0 008#800080007BD48034
(1447251157.681648) can0 430#C6380000002E0830
(1447251157.684497) can0 0F5#40E2477F80008000
(1447251157.684766) can0 120#8956076F80008000
(1447251157.685080) can0 130#11FFE300001DFF8E
(1447251157.685300) can0 150#C0E3E7FF17FE0000
(1447251157.686834) can0 010#F831B02F80008000
(1447251157.687106) can0 072#20A0000027FF00F0
(1447251157.687324) can0 1D0#6100ED218ADCC500
(1447251157.690134) can0 008#800080006BE48034
(1447251157.691159) can0 055#809C00B227FFF7FF
(1447251157.691401) can0 065#01DE8E00F7F6E000
(1447251157.691644) can0 070#000EF200F8076000
(1447251157.691887) can0 075#1854000000000000
(1447251157.692138) can0 080#802600F200804FFF
(1447251157.692324) can0 0B0#A352C200A2698352
(1447251157.692565) can0 145#A11040FC8050F2FD
(1447251157.692841) can0 2C0#E5A0000002000000
(1447251157.693080) can0 2C5#0000E00000008700
(1447251157.694545) can0 1B0#EC00B00000008000
(1447251157.694844) can0 1B5#2FFFC0070C070DF9
(1447251157.695080) can0 1D8#6380303135303734
(1447251157.695323) can0 1E0#E017BD80C19B1800
(1447251157.696965) can0 010#F931B02F80008000
(1447251157.697273) can0 291#0000000000000000
(1447251157.697514) can0 2A9#840000C0CA0006AC
(1447251157.700132) can0 008#800080005BF48034
(1447251157.701471) can0 072#2080000027FF00F0
(1447251157.701739) can0 210#4E0D09D0A000DFAD
(1447251157.704496) can0 0F5#40D24B7F80008000
(1447251157.704765) can0 120#8956076F80008000
(1447251157.704983) can0 130#11FFD300001DFF96
(1447251157.705273) can0 150#C0D3E7FF27FE0000
(1447251157.706990) can0 010#F831B02F80008000
(1447251157.707270) can0 1D0#610AED218ADCC500
(1447251157.710133) can0 008#800080004B048034
(1447251157.711132) can0 055#809C00B227FFF7FF
(1447251157.711400) can0 065#01DE8E00F7F6E000
(1447251157.711643) can0 070#000EF200F8076000
(1447251157.711886) can0 075#1854000000000000
(1447251157.712137) can0 080#802600F200804FFF
(1447251157.712359) can0 0B0#A352C200A2698352
(1447251157.712596) can0 145#211040FC8050F2FD
(1447251157.712817) can0 28C#00BE3800000040A0
(1447251157.713132) can0 2B5#0022ADB35200004B
(1447251157.713349) can0 370#00D3435400900004
(1447251157.714543) can0 1B0#EC00B00000008000
(1447251157.714791) can0 1B5#2FFFC0070C070DF9
(1447251157.715054) can0 1D8#6380303135303734
(1447251157.715270) can0 1E0#E017BD80C18B1C00
(1447251157.715508) can0 2C3#505406FFFF013082
(1447251157.717080) can0 010#F831B02F80008000
(1447251157.717349) can0 072#20A0000027FF00F0
(1447251157.720132) can0 008#800080003B148034
(1447251157.724469) can0 0F5#40C24F7F80008000
(1447251157.724739) can0 120#8956076F80008000
(1447251157.724981) can0 130#11FFC300001DFF9E
(1447251157.725272) can0 150#C0C3E7FF37FE0000
(1447251157.727079) can0 010#F831B02F80008000
(1447251157.727350) can0 1D0#6100ED218ADCC500
(1447251157.727592) can0 210#460D09D0A000DFAD
(1447251157.727832) can0 291#0000000000000000
(1447251157.730104) can0 008#800080002B248034
(1447251157.731100) can0 055#809C00B227FFF7FF
(1447251157.731386) can0 065#01DE8E00F7F6E000
(1447251157.731615) can0 070#000EF200F8076000
(1447251157.731856) can0 072#2080000027FF00F0
(1447251157.732108) can0 075#1854000000000000
(1447251157.732351) can0 080#802600F200804FFF
(1447251157.732594) can0 0B0#A352C200A2698352
(1447251157.732839) can0 145#210040FC8050F2FD
(1447251157.734527) can0 1B0#EC00B00000008000
(1447251157.734789) can0 1B5#2FFFC0070C070DF9
(1447251157.735051) can0 1D8#6380303135303734
(1447251157.735290) can0 1E0#E017BD80818B1C00
(1447251157.737079) can0 010#F831B02F80008000
(1447251157.737324) can0 2A9#840000C0D30006AC
(1447251157.740132) can0 008#800080001B348034
(1447251157.744471) can0 0F5#40B2537F80008000
(1447251157.744738) can0 120#8956076F80008000
(1447251157.744981) can0 130#11FFB300001DFFA6
(1447251157.745246) can0 150#C0B3E7FF47FE0000
(1447251157.745513) can0 3CA#C000001500000000
(1447251157.746886) can0 010#F831B02F80008000
(1447251157.747131) can0 072#20A0000027FF00F0
(1447251157.747374) can0 1D0#6100ED218ADCC500
(1447251157.750075) can0 008#800080000B448034
(1447251157.751099) can0 055#809C00B227FFF7FF
(1447251157.751400) can0 065#01DE8E00F7F6E000
(1447251157.751642) can0 070#000EF200F8076000
(1447251157.751886) can0 075#1854000000000000
(1447251157.752136) can0 080#802600F200804FFF
(1447251157.752379) can0 0B0#A352C200A2698352
(1447251157.752570) can0 145#A11040FC8050F2FD
(1447251157.752812) can0 210#4E0D09D0A000DFAD
(1447251157.753052) can0 28C#00BE3800000040A0
(1447251157.753271) can0 2B5#0022ADB35200004B
(1447251157.753512) can0 2C0#E5A0000002000000
(1447251157.753755) can0 2C5#0000E00000008700
(1447251157.754053) can0 3AF#2000000000000000
(1447251157.754530) can0 1B0#EC00B00000008000
(1447251157.754799) can0 1B5#2FFFC0070C070DF9
(1447251157.755047) can0 1D8#6380303135303734
(1447251157.755347) can0 1E0#E017BD80C17B2000
(1447251157.755591) can0 2C3#505406FFFF013082
(1447251157.757157) can0 010#F831B02F80008000
(1447251157.757425) can0 291#0000000000000000
(1447251157.757668) can0 330#0000000000000000
(1447251157.760104) can0 008#80008000FB548034
(1447251157.761626) can0 072#2080000027FF00F0
(1447251157.761893) can0 360#01A0000349013082
(1447251157.764468) can0 0F5#40A2577F80008000
(1447251157.764712) can0 120#8956076F80008000
(1447251157.764955) can0 130#11FFA300001DFFAE
(1447251157.765270) can0 150#C0A3E7FF57FE0000
(1447251157.767079) can0 010#F831B02F80008000
(1447251157.767347) can0 1D0#6100ED218ADCC500
(1447251157.767590) can0 390#4F5D0A020000FF80
(1447251157.770105) can0 008#80008000EB648034
(1447251157.771157) can0 055#809C00B227FFF7FF
(1447251157.771425) can0 065#01DE8E00F7F6E000
(1447251157.771668) can0 070#000EF200F8076000
(1447251157.771911) can0 075#1854000000000000
(1447251157.772136) can0 080#802600F200804FFF
(1447251157.772348) can0 0B0#A352C200A2698352
(1447251157.772622) can0 145#211040FC8050F2FD
(1447251157.774548) can0 1B0#EC00B00000008000
(1447251157.774814) can0 1B5#2FFFC0070C070DF9
(1447251157.775078) can0 1D8#6380303135303734
(1447251157.775321) can0 1E0#E017BD80C16B2400
(1447251157.777078) can0 010#F931B02F80008000
(1447251157.777321) can0 072#20A0000027FF00F0
(1447251157.777585) can0 210#4E0D09D0A000DFAD
(1447251157.777856) can0 2A9#840000C0C20006AC
(1447251157.778103) can0 405#023F360031013082
(1447251157.780073) can0 008#80008000DB748034
(1447251157.784494) can0 0F5#40925B7F80008000
(1447251157.784763) can0 120#8956076F80008000
(1447251157.785052) can0 130#11FF9300001DFFB6
(1447251157.785291) can0 150#C093E7FF67FE0000
(1447251157.786880) can0 010#F831B02F80008000
(1447251157.787129) can0 1D0#610AED218ADCC500
(1447251157.787369) can0 291#0000000000000000
(1447251157.790079) can0 008#80008000CB848034
(1447251157.791130) can0 055#809C00B227FFF7FF
(1447251157.791399) can0 065#01DE8E00F7F6E000
(1447251157.791642) can0 070#000EF200F8076000
(1447251157.791911) can0 072#2080000027FF00F0
(1447251157.792136) can0 075#1854000000000000
(1447251157.792379) can0 080#802600F200804FFF
(1447251157.792622) can0 0B0#A352C200A2698352
(1447251157.792834) can0 145#210040FC8050F2FD
(1447251157.793051) can0 28C#00BE3800000040A0
(1447251157.793301) can0 2B5#0022ADB35200004B
(1447251157.793543) can0 3B0#00C400002836D800
(1447251157.794520) can0 1B0#EC00B00000008000
(1447251157.794789) can0 1B5#2FFFC0070C070DF9
(1447251157.795051) can0 1D8#6380303135303734
(1447251157.795322) can0 1E0#E017BD80816B2400
(1447251157.795565) can0 2C3#505406FFFF013082
(1447251157.796935) can0 010#F831B02F80008000
(1447251157.800079) can0 008#80008000BB948034
(1447251157.801469) can0 210#460D09D02000DFAD
(1447251157.804467) can0 0F5#40825F7F80008000
(1447251157.804737) can0 120#8956076F80008000
(1447251157.804979) can0 130#11FF8300001DFFBE
(1447251157.805270) can0 150#C083E7FF77FE0000
(1447251157.807077) can0 010#F831B02F80008000
(1447251157.807346) can0 072#20A0000027FF00F0
(1447251157.807589) can0 1D0#6100ED218ADCC500
(1447251157.810105) can0 008#80008000ABA48034
(1447251157.811156) can0 055#809C00B227FFF7FF
(1447251157.811423) can0 065#01DE8E00F7F6E000
(1447251157.811667) can0 070#000EF200F8076000
(1447251157.811909) can0 075#1854000000000000
(1447251157.812114) can0 080#802600F200804FFF
(1447251157.812353) can0 0B0#A352C200A2698352
(1447251157.812572) can0 145#A11040FC8050F2FD
(1447251157.812862) can0 2C0#E5A0000002000000
(1447251157.813103) can0 2C5#0000E00000008700
(1447251157.813345) can0 370#00D3435400900004
(1447251157.813589) can0 3E0#0080983E18000000
(1447251157.814545) can0 1B0#EC00B00000008000
(1447251157.814788) can0 1B5#2FFFC0070C070DF9
(1447251157.815051) can0 1D8#6380303135303734
(1447251157.815294) can0 1E0#E017BD80C15B2800
(1447251157.817051) can0 010#F831B02F80008000
(1447251157.817322) can0 291#0000000000000000
(1447251157.817562) can0 2A9#840000C0CA0006AC
(1447251157.820103) can0 008#800080009BB48034
(1447251157.821493) can0 072#2080000027FF00F0
(1447251157.824494) can0 0F5#4072637F80008000
(1447251157.824736) can0 120#8956076F80008000
(1447251157.824980) can0 130#11FF7300001DFFC6
(1447251157.825270) can0 150#C073E7FF87FE0000
(1447251157.827077) can0 010#F831B02F80008000
(1447251157.827267) can0 1D0#6100ED218ADCC500
(1447251157.827509) can0 210#460D09D0A000DFAD
(1447251157.830105) can0 008#800080008BC48034
(1447251157.831191) can0 055#809C00B227FFF7FF
(1447251157.831422) can0 065#01DE8E00F7F6E000
(1447251157.831663) can0 070#000EF200F8076000
(1447251157.831905) can0 075#1854000000000000
(1447251157.832157) can0 080#802600F200804FFF
(1447251157.832400) can0 0B0#A352C200A2698352
(1447251157.832645) can0 145#211040FC8050F2FD
(1447251157.832863) can0 28C#00BE3800000040A0
(1447251157.833135) can0 2B5#0022ADB35200004B
(1447251157.834544) can0 1B0#EC00B00000008000
(1447251157.834783) can0 1B5#2FFFC0070C070DF9
(1447251157.835091) can0 1D8#6380303135303734
(1447251157.835345) can0 1E0#E017BD80C14B2C00
(1447251157.835589) can0 2C3#505406FFFF013082
(1447251157.836975) can0 010#F831B02F80008000
(1447251157.837309) can0 072#20A0000027FF00F0
(1447251157.837550) can0 330#0000000000000000
(1447251157.840116) can0 008#800080007BD48034
(1447251157.844487) can0 0F5#4062677F80008000
(1447251157.844735) can0 120#8956076F80008000
(1447251157.844992) can0 130#11FF6300001DFFCE
(1447251157.845283) can0 150#C063E7FF97FE0000
(1447251157.846871) can0 581#8100FFFFFFFFFFFF
(1447251157.847148) can0 010#F831B02F80008000
(1447251157.847377) can0 1D0#6100ED218ADCC500
(1447251157.847621) can0 291#0000000000000000
(1447251157.847832) can0 400#1400030000000000
(1447251157.850072) can0 008#800080006BE48034
(1447251157.851194) can0 055#809C00B227FFF7FF
(1447251157.851463) can0 065#01DE8E00F7F6E000
(1447251157.851693) can0 070#000EF200F8076000
(1447251157.851904) can0 072#2080000027FF00F0
(1447251157.852200) can0 075#1854000000000000
(1447251157.852443) can0 080#802600F200804FFF
(1447251157.852686) can0 0B0#A352C200A2698352
(1447251157.852956) can0 145#210040FC8050F2FD
(1447251157.853149) can0 210#4E0D09D0A000DFAD
(1447251157.854538) can0 1B0#EC00B00000008000
(1447251157.854826) can0 1B5#2FFFC0070C070DF9
(1447251157.855089) can0 1D8#6380303135303734
(1447251157.855333) can0 1E0#E017BD80814B2C00
(1447251157.857071) can0 010#F931B02F80008000
(1447251157.857356) can0 2A9#840000C0DB0006AC
(1447251157.860116) can0 008#800080005BF48034
(1447251157.861689) can0 360#01A0000349013082
(1447251157.864506) can0 0F5#40526B7F80008000
(1447251157.864775) can0 120#8956076F80008000
(1447251157.865089) can0 130#11FF5300001DFFD6
(1447251157.865359) can0 150#C053E7FFA7FE0000
(1447251157.865601) can0 3CA#C000001600000000
(1447251157.867089) can0 010#F831B02F80008000
(1447251157.867358) can0 072#20A0000027FF00F0
(1447251157.867628) can0 1D0#610AED218ADCC500
(1447251157.867871) can0 390#4F5F02020000FF80
(1447251157.870047) can0 008#800080004B048034
(1447251157.871142) can0 055#809C00B227FFF7FF
(1447251157.871410) can0 065#01DE8E00F7F6E000
(1447251157.871640) can0 070#000EF200F8076000
(1447251157.871897) can0 075#1854000000000000
(1447251157.872102) can0 080#802600F200804FFF
(1447251157.872390) can0 0B0#A352C200A2698352
(1447251157.872686) can0 145#A11040FC8050F2FD
(1447251157.872955) can0 28C#00BE3800000040A0
(1447251157.873221) can0 2B5#0022ADB35200004B
(1447251157.873443) can0 2C0#E5A0000002000000
(1447251157.873744) can0 2C5#0000E00000008700
(1447251157.873745) can0 3AF#2000000000000000
(1447251157.874518) can0 1B0#EC00B00000008000
(1447251157.874786) can0 1B5#2FFFC0070C070DF9
(1447251157.875050) can0 1D8#6380303135303734
(1447251157.875317) can0 1E0#E017BD80C13B3000
(1447251157.875560) can0 2C3#505406FFFF013082
(1447251157.877050) can0 010#F831B02F80008000
(1447251157.877359) can0 210#460D09D0A000DFAD
(1447251157.877601) can0 291#0000000000000000
(1447251157.877804) can0 3D0#C2800186006109A0
(1447251157.880049) can0 008#800080003B148034
(1447251157.881793) can0 072#2080000027FF00F0
(1447251157.884479) can0 0F5#40426F7F80008000
(1447251157.884748) can0 120#8956076F80008000
(1447251157.884991) can0 130#11FF4300001DFFDE
(1447251157.885282) can0 150#C043E7FFB7FE0000
(1447251157.886842) can0 010#F831B02F80008000
(1447251157.887115) can0 1D0#6100ED218ADCC500
(1447251157.890117) can0 008#800080002B248034
(1447251157.891141) can0 055#809C00B227FFF7FF
(1447251157.891410) can0 065#01DE8E00F7F6E000
(1447251157.891653) can0 070#000EF200F8076000
(1447251157.891897) can0 075#1854000000000000
(1447251157.892141) can0 080#802600F200804FFF
(1447251157.892383) can0 0B0#A352C200A2698352
(1447251157.892581) can0 145#211040FC8050F2FD
(1447251157.894538) can0 1B0#EC00B00000008000
(1447251157.894779) can0 1B5#2FFFC0070C070DF9
(1447251157.895042) can0 1D8#6380303135303734
(1447251157.895305) can0 1E0#E017BD80C12B3400
(1447251157.896974) can0 010#F831B02F80008000
(1447251157.897307) can0 072#20A0000027FF00F0
(1447251157.897549) can0 2A9#840000C0C20006AC
(1447251157.900088) can0 008#800080001B348034
(1447251157.901480) can0 210#4E0D09D0A000DFAD
(1447251157.904504) can0 0F5#4032737F80008000
(1447251157.904773) can0 120#8956076F80008000
(1447251157.905089) can0 130#11FF3300001DFFE6
(1447251157.905332) can0 150#C033E7FFC7FE0000
(1447251157.906998) can0 010#F831B02F80008000
(1447251157.907280) can0 1D0#6100ED218ADCC500
(1447251157.907524) can0 291#0000000000000000
(1447251157.910090) can0 008#800080000B448034
(1447251157.911142) can0 055#809C00B227FFF7FF
(1447251157.911383) can0 065#01DE8E00F7F6E000
(1447251157.911652) can0 070#000EF200F8076000
(1447251157.911894) can0 072#2080000027FF00F0
(1447251157.912120) can0 075#1854000000000000
(1447251157.912338) can0 080#802600F200804FFF
(1447251157.912565) can0 0B0#A352C200A2698352
(1447251157.912786) can0 145#210040FC8050F2FD
(1447251157.913091) can0 28C#00BE3800000040A0
(1447251157.913288) can0 2B5#0022ADB35200004B
(1447251157.913502) can0 370#00D7435400900004
(1447251157.913752) can0 3B0#00C400002836D800
(1447251157.914523) can0 1B0#EC00B00000008000
(1447251157.914791) can0 1B5#2FFFC0070C070DF9
(1447251157.915049) can0 1D8#6380303135303734
(1447251157.915286) can0 1E0#E017BD80812B3400
(1447251157.915528) can0 2C3#505406FFFF013082
(1447251157.917041) can0 010#F831B02F80008000
(1447251157.917342) can0 330#0000000000000000
(1447251157.920074) can0 008#80008000FB548034
(1447251157.924491) can0 0F5#4022777F80008000
(1447251157.924733) can0 120#8956076F80008000
(1447251157.924976) can0 130#11FF2300001DFFEE
(1447251157.925267) can0 150#C023E7FFD7FE0000
(1447251157.926984) can0 010#F831B02F80008000
(1447251157.927263) can0 072#20A0000027FF00F0
(1447251157.927483) can0 1D0#6100ED218ADCC500
(1447251157.927697) can0 210#460D09D0A000DFAD
(1447251157.930054) can0 008#80008000EB648034
(1447251157.931127) can0 055#809C00B227FFF7FF
(1447251157.931394) can0 065#01DE8E00F7F6E000
(1447251157.931620) can0 070#000EF200F8076000
(1447251157.931851) can0 075#1854000000000000
(1447251157.932096) can0 080#802600F200804FFF
(1447251157.932339) can0 0B0#A352C200A2698352
(1447251157.932583) can0 145#A11040FC8050F2FD
(1447251157.932826) can0 2C0#E5A0000003000000
(1447251157.933073) can0 2C5#0000E00000008700
(1447251157.934568) can0 1B0#EC00B00000008000
(1447251157.934811) can0 1B5#2FFFC0070C070DF9
(1447251157.935074) can0 1D8#6380303135303734
(1447251157.935286) can0 1E0#E017BD80C11B3800
(1447251157.937041) can0 010#F931B02F80008000
(1447251157.937343) can0 291#0000000000000000
(1447251157.937584) can0 2A9#840000C0DB0006AC
(1447251157.940074) can0 008#80008000DB748034
(1447251157.941647) can0 072#2080000027FF00F0
(1447251157.944464) can0 0F5#40127B7F80008000
(1447251157.944732) can0 120#8956076F80008000
(1447251157.944976) can0 130#11FF1300001DFFF6
(1447251157.945267) can0 150#C013E7FFE7FE0000
(1447251157.946854) can0 010#F831B02F80008000
(1447251157.947100) can0 1D0#610AED218ADCC500
(1447251157.950075) can0 008#80008000CB848034
(1447251157.951126) can0 055#809C00B227FFF7FF
(1447251157.951394) can0 065#01DE8E00F7F6E000
(1447251157.951611) can0 070#000EF200F8076000
(1447251157.951881) can0 075#1854000000000000
(1447251157.952105) can0 080#802600F200804FFF
(1447251157.952349) can0 0B0#A352C200A2698352
(1447251157.952534) can0 145#211040FC8050F2FD
(1447251157.952808) can0 210#4E0D09D02000DFAD
(1447251157.953048) can0 28C#00BE3800000040A0
(1447251157.953286) can0 2B5#0022ADB35200004B
(1447251157.954536) can0 1B0#EC00B00000008000
(1447251157.954778) can0 1B5#2FFFC0070C070DF9
(1447251157.955042) can0 1D8#6380303135303734
(1447251157.955284) can0 1E0#E017BD80C10B3C00
(1447251157.955529) can0 2C3#505406FFFF013082
(1447251157.957099) can0 010#F831B02F80008000
(1447251157.957370) can0 072#20A0000027FF00F0
(1447251157.960074) can0 008#80008000BB948034
(1447251157.961598) can0 360#01A0000349013082
(1447251157.964467) can0 0F5#40027F7F80008000
(1447251157.964706) can0 120#8956076F80008000
(1447251157.964949) can0 130#11FF0300001DFFFE
(1447251157.965237) can0 150#C003E7FFF7FE0000
(1447251157.967073) can0 010#F831B02F80008000
(1447251157.967290) can0 1D0#6100ED218ADCC500
(1447251157.967559) can0 291#0000000000000000
(1447251157.967802) can0 390#4F5F02020000FF80
(1447251157.970074) can0 008#80008000ABA48034
(1447251157.971125) can0 055#809C00B227FFF7FF
(1447251157.971394) can0 065#01DE8E00F7F6E000
(1447251157.971637) can0 070#000EF200F8076000
(1447251157.971881) can0 072#2080000027FF00F0
(1447251157.972100) can0 075#1854000000000000
(1447251157.972342) can0 080#802600F200804FFF
(1447251157.972617) can0 0B0#A352C200A2698352
(1447251157.972860) can0 145#210040FC8050F2FD
(1447251157.974543) can0 1B0#EC00B00000008000
(1447251157.974784) can0 1B5#2FFFC0070C070DF9
(1447251157.975073) can0 1D8#6380303135303734
(1447251157.975316) can0 1E0#E017BD80810B3C00
(1447251157.976957) can0 010#F831B02F80008000
(1447251157.977292) can0 210#4E0D09D0A000DFAD
(1447251157.977533) can0 2A9#840000C0C20006AC
(1447251157.980073) can0 008#800080009BB48034
(1447251157.984464) can0 0F5#40F2437F80008000
(1447251157.984732) can0 120#8956076F80008000
(1447251157.984975) can0 130#11FFF300001DFF86
(1447251157.985266) can0 150#C0F3E7FF07FE0000
(1447251157.985507) can0 3CA#C000000000000000
(1447251157.986853) can0 010#F831B02F80008000
(1447251157.987124) can0 072#20A0000027FF00F0
(1447251157.987368) can0 1D0#6100ED218ADCC500
(1447251157.990043) can0 008#800080008BC48034
(1447251157.991093) can0 055#809C00B227FFF7FF
(1447251157.991394) can0 065#01DE8E00F7F6E000
(1447251157.991636) can0 070#000EF200F8076000
(1447251157.991879) can0 075#1854000000000000
(1447251157.992130) can0 080#802600F200804FFF
(1447251157.992373) can0 0B0#A352C200A2698352
(1447251157.992616) can0 145#A11040FC8050F2FD
(1447251157.992834) can0 28C#00BE3800000040A0
(1447251157.993047) can0 2B5#0022ADB35200004B
(1447251157.993285) can0 2C0#E5A0000002000000
(1447251157.993525) can0 2C5#0000E00000008700
(1447251157.993749) can0 3AF#2000000000000000
(1447251157.994515) can0 1B0#EC00B00000008000
(1447251157.994758) can0 1B5#2FFFC0070C070DF9
(1447251157.995046) can0 1D8#6380303135303734
(1447251157.995315) can0 1E0#E017BD80C1FB0000
(1447251157.995558) can0 2C3#505406FFFF013082
(1447251157.996879) can0 010#F831B02F80008000
(1447251157.997178) can0 291#0000000000000000
(1447251157.997393) can0 330#0000000000000000
(1447251158.000072) can0 008#800080007BD48034
(1447251158.001411) can0 072#2080000027FF00F0
(1447251158.001654) can0 210#460D09D0A000DFAD
(1447251158.004437) can0 0F5#40E2477F80008000
(1447251158.004731) can0 120#8956076F80008000
(1447251158.004948) can0 130#11FFE300001DFF8E
(1447251158.005235) can0 150#C0E3E7FF17FE0000
(1447251158.007054) can0 010#F831B02F80008000
(1447251158.007267) can0 1D0#6100ED218ADCC500
(1447251158.010073) can0 008#800080006BE48034
(1447251158.011121) can0 055#809C00B227FFF7FF
(1447251158.011363) can0 065#01DE8E00F7F6E000
(1447251158.011627) can0 070#000EF200F8076000
(1447251158.011855) can0 075#1854000000000000
(1447251158.012082) can0 080#802600F200804FFF
(1447251158.012319) can0 0B0#A352C200A2698352
(1447251158.012537) can0 145#211040FC8050F2FD
(1447251158.012806) can0 370#00D3435400900004
(1447251158.014542) can0 1B0#EC00B00000008000
(1447251158.014783) can0 1B5#2FFFC0070C070DF9
(1447251158.015041) can0 1D8#6380303135303734
(1447251158.015289) can0 1E0#E017BD80C1EB0400
(1447251158.017046) can0 010#F931B02F80008000
(1447251158.017311) can0 072#20A0000027FF00F0
(1447251158.017583) can0 2A9#840000C0CA0006AC
(1447251158.020072) can0 008#800080005BF48034
(1447251158.024462) can0 0F5#40D24B7F80008000
(1447251158.024731) can0 120#8956076F80008000
(1447251158.024974) can0 130#11FFD300001DFF96
(1447251158.025265) can0 150#C0D3E7FF27FE0000
(1447251158.027072) can0 010#F831B02F80008000
(1447251158.027339) can0 1D0#610AED218ADCC500
(1447251158.027609) can0 210#460E09D0A000DFAD
(1447251158.027878) can0 291#0000000000000000
(1447251158.028072) can0 405#050000000000078F
(1447251158.030044) can0 008#800080004B048034
(1447251158.031094) can0 055#809C00B227FFF7FF
(1447251158.031393) can0 065#01DE8E00F7F6E000
(1447251158.031635) can0 070#000EF200F8076000
(1447251158.031878) can0 072#2080000027FF00F0
(1447251158.032105) can0 075#1854000000000000
(1447251158.032342) can0 080#802600F200804FFF
(1447251158.032584) can0 0B0#A352C200A2698352
(1447251158.032826) can0 145#210040FC8050F2FD
(1447251158.033067) can0 28C#00BE3800000040A0
(1447251158.033314) can0 2B5#0022ADB35200004B
(1447251158.033533) can0 3B0#00C600002836D800
(1447251158.034514) can0 1B0#EC00B00000008000
(1447251158.034782) can0 1B5#2FFFC0070C070DF9
(1447251158.035046) can0 1D8#6380303135303734
(1447251158.035262) can0 1E0#E017BD8081EB0400
(1447251158.035499) can0 2C3#505406FFFF013082
(1447251158.037072) can0 010#F831B02F80008000
(1447251158.040071) can0 008#800080003B148034
(1447251158.044461) can0 0F5#40C24F7F80008000
(1447251158.044704) can0 120#8956076F80008000
(1447251158.044921) can0 130#11FFC300001DFF9E
(1447251158.045238) can0 150#C0C3E7FF37FE0000
(1447251158.047072) can0 010#F831B02F80008000
(1447251158.047314) can0 072#20A0000027FF00F0
(1447251158.047531) can0 1D0#6100ED218ADCC500
(1447251158.050073) can0 008#800080002B248034
(1447251158.051124) can0 055#809C00B327FFF7FF
(1447251158.051392) can0 065#01DE8E00F7F6E000
(1447251158.051635) can0 070#000EF200F8076000
(1447251158.051878) can0 075#1854000000000000
(1447251158.052104) can0 080#802600F200804FFF
(1447251158.052315) can0 0B0#A352C200A2698352
(1447251158.052588) can0 145#A11040FC8050F2FD
(1447251158.052806) can0 210#4E0E09D0A000DFAD
(1447251158.053072) can0 2C0#E5A0000001000000
(1447251158.053285) can0 2C5#0000E00000008700
(1447251158.054539) can0 1B0#EC00B00000008000
(1447251158.054807) can0 1B5#2FFFC0070C070DF9
(1447251158.055071) can0 1D8#6380303135303734
(1447251158.055314) can0 1E0#E017BD80C1DB0800
(1447251158.057123) can0 010#F831B02F80008000
(1447251158.057406) can0 291#0000000000000000
(1447251158.057604) can0 2A9#840000C0D30006AC
(1447251158.060039) can0 008#800080001B348034
(1447251158.061580) can0 072#2080000027FF00F0
(1447251158.061848) can0 360#01A0000349013082
(1447251158.064474) can0 0F5#40B2537F80008000
(1447251158.064744) can0 120#8956076F80008000
(1447251158.064973) can0 130#11FFB300001DFFA6
(1447251158.065278) can0 150#C0B3E7FF47FE0000
(1447251158.066994) can0 010#F831B02F80008000
(1447251158.067276) can0 1D0#6100ED218ADCC500
(1447251158.067519) can0 390#4F503E020000FF80
(1447251158.070041) can0 008#800080000B448034
(1447251158.071162) can0 055#809C00B367FFF7FF
(1447251158.071432) can0 065#01DE8E00F7F6E000
(1447251158.071675) can0 070#000EF200F8076000
(1447251158.071892) can0 075#1854000000000000
(1447251158.072142) can0 080#802600F200804FFF
(1447251158.072340) can0 0B0#A352C200A2698352
(1447251158.072628) can0 145#211040FC8050F2FD
(1447251158.072872) can0 28C#00BE3800000040A0
(1447251158.073090) can0 2B5#0022ADB35200004B
(1447251158.074509) can0 1B0#EC00B00000008000
(1447251158.074807) can0 1B5#2FFFC0070C070DF9
(1447251158.075084) can0 1D8#6380303135303734
(1447251158.075352) can0 1E0#E017BD80C1CB0C00
(1447251158.075557) can0 2C3#505406FFFF013082
(1447251158.077073) can0 010#F831B02F80008000
(1447251158.077380) can0 072#20A0000027FF00F0
(1447251158.077623) can0 210#460D09D0A000DFAD
(1447251158.077840) can0 330#0000000000000000
(1447251158.078045) can0 3D0#C2800186006109A0
(1447251158.080039) can0 008#80008000FB548034
(1447251158.084475) can0 0F5#40A157BF80008000
(1447251158.084743) can0 120#8956076F80008000
(1447251158.084986) can0 130#11FFA300001DFFAE
(1447251158.085277) can0 150#C0A3E7FF57FE0000
(1447251158.086968) can0 010#F831B02F80008000
(1447251158.087301) can0 1D0#6100ED218ADCC500
(1447251158.087544) can0 291#0000000000000000
(1447251158.090085) can0 008#80008000EB648034
(1447251158.091163) can0 055#809C00B367FFF7FF
(1447251158.091431) can0 065#01DE8E00F7F6E000
(1447251158.091674) can0 070#000EF200F8076000
(1447251158.091917) can0 072#2080000027FF00F0
(1447251158.092169) can0 075#1854000000000000
(1447251158.092410) can0 080#802600F200804FFF
(1447251158.092583) can0 0B0#A352C200A2698352
(1447251158.092824) can0 145#210040FC8050F2FD
(1447251158.094507) can0 1B0#EC00B00000008000
(1447251158.094748) can0 1B5#2FFFC0070C070DF9
(1447251158.095084) can0 1D8#6380303135303734
(1447251158.095327) can0 1E0#E017BD8081CB0C00
(1447251158.097084) can0 010#F931B02F80008000
(1447251158.097327) can0 2A9#840000C0CA0006AC
(1447251158.097544) can0 400#1500000000000001
(1447251158.100083) can0 008#80008000DB748034
(1447251158.101502) can0 210#4E0D09D02000DFAD
(1447251158.104473) can0 0F5#40915BBF80008000
(1447251158.104742) can0 120#8956076F80008000
(1447251158.104986) can0 130#11FF9300001DFFB6
(1447251158.105294) can0 150#C093E7FF67FE0000
(1447251158.105543) can0 3CA#C000001100000000
(1447251158.107043) can0 010#F831B02F80008000
(1447251158.107287) can0 072#20A0000027FF00F0
(1447251158.107528) can0 1D0#610AED218ADCC500
(1447251158.110086) can0 008#80008000CB848034
(1447251158.111172) can0 055#809C00B367FFF7FF
(1447251158.111413) can0 065#01DE8E00F7F6E000
(1447251158.111656) can0 070#000EF200F8076000
(1447251158.111900) can0 075#1854000000000000
(1447251158.112144) can0 080#802600F200804FFF
(1447251158.112367) can0 0B0#A352C200A2698352
(1447251158.112611) can0 145#A11040FC8050F2FD
(1447251158.112838) can0 28C#00BE3800000040A0
(1447251158.113064) can0 2B5#0022ADB35200004B
(1447251158.113307) can0 2C0#E5A0000002000000
(1447251158.113548) can0 2C5#0000E00000008700
(1447251158.113837) can0 370#00D3435400900004
(1447251158.114044) can0 3AF#2000000000000000
(1447251158.114287) can0 3E0#0080983E18000000
(1447251158.114530) can0 1B0#EC00B00000008000
(1447251158.114773) can0 1B5#2FFFC0070C070DF9
(1447251158.115044) can0 1D8#6380303135303734
(1447251158.115306) can0 1E0#E017BD80C1BB1000
(1447251158.115548) can0 2C3#505406FFFF013082
(1447251158.117088) can0 010#F831B02F80008000
(1447251158.117365) can0 291#0000000000000000
(1447251158.120083) can0 008#80008000BB948034
(1447251158.121630) can0 072#2080000027FF00F0
(1447251158.124473) can0 0F5#40815FBF80008000
(1447251158.124742) can0 120#8956076F80008000
(1447251158.124919) can0 130#11FF8300001DFFBE
(1447251158.125234) can0 150#C083E7FF77FE0000
(1447251158.126884) can0 010#F831B02F80008000
(1447251158.127128) can0 1D0#6100ED218ADCC500
(1447251158.127372) can0 210#460E09D0A000DFAD
(1447251158.130071) can0 008#80008000ABA48034
(1447251158.131175) can0 055#809C00B367FFF7FF
(1447251158.131416) can0 065#01DE8E00F7F6E000
(1447251158.131685) can0 070#000EF200F8076000
(1447251158.131903) can0 075#1854000000000000
(1447251158.132143) can0 080#802600F200804FFF
(1447251158.132386) can0 0B0#A352C200A2698352
(1447251158.132629) can0 145#211040FC8050F2FD
(1447251158.134542) can0 1B0#EC00B00000008000
(1447251158.134806) can0 1B5#2FFFC0070C070DF9
(1447251158.135043) can0 1D8#6380303135303734
(1447251158.135286) can0 1E0#E017BD80C1AB1400
(1447251158.137043) can0 010#F831B02F80008000
(1447251158.137307) can0 072#20A0000027FF00F0
(1447251158.137548) can0 2A9#840000C0D30006AC
(1447251158.140082) can0 008#800080009BB48034
(1447251158.144473) can0 0F5#407163BF80008000
(1447251158.144741) can0 120#8956076F80008000
(1447251158.144985) can0 130#11FF7300001DFFC6
(1447251158.145275) can0 150#C073E7FF87FE0000
(1447251158.147082) can0 010#F831B02F80008000
(1447251158.147326) can0 1D0#6100ED218ADCC500
(1447251158.147554) can0 291#0000000000000000
(1447251158.150084) can0 008#800080008BC48034
(1447251158.151160) can0 055#809C00B367FFF7FF
(1447251158.151429) can0 065#01DE8E00F7F6E000
(1447251158.151672) can0 070#000EF200F8076000
(1447251158.151915) can0 072#2080000027FF00F0
(1447251158.152166) can0 075#1854000000000000
(1447251158.152364) can0 080#802600F200804FFF
(1447251158.152606) can0 0B0#A352C200A2698352
(1447251158.152895) can0 145#210040FC8050F2FD
(1447251158.153095) can0 210#4E0D09D0A000DFA8
(1447251158.153332) can0 28C#00BE3800000040A0
(1447251158.153581) can0 2B5#0022ADB35200004B
(1447251158.153824) can0 3B0#00C400002C36FC00
(1447251158.154517) can0 1B0#EC00B00000008000
(1447251158.154785) can0 1B5#2FFFC0070C070DF9
(1447251158.155042) can0 1D8#6380303135303734
(1447251158.155285) can0 1E0#E017BD8081AB1400
(1447251158.155528) can0 2C3#505406FFFF013082
(1447251158.157089) can0 010#F831B02F80008000
(1447251158.157358) can0 330#0000000000000000
(1447251158.160082) can0 008#800080007BD48034
(1447251158.161552) can0 360#01A0000349013082
(1447251158.164472) can0 0F5#406167BF80008000
(1447251158.164702) can0 120#8956076F80008000
(1447251158.164984) can0 130#11FF6300001DFFCE
(1447251158.165235) can0 150#C063E7FF97FE0000
(1447251158.167082) can0 010#F831B02F80008000
(1447251158.167311) can0 072#20A0000027FF00F0
(1447251158.167594) can0 1D0#6100ED218ADCC500
(1447251158.167837) can0 390#6F513A020000FF80
(1447251158.170038) can0 008#800080006BE48034
(1447251158.171108) can0 055#809C00B367FFF7FF
(1447251158.171377) can0 065#01DE8E00F7F6E000
(1447251158.171620) can0 070#000EF200F8076000
(1447251158.171889) can0 075#1854000000000000
(1447251158.172069) can0 080#802600F200804FFF
(1447251158.172310) can0 0B0#A352C200A2698352
(1447251158.172598) can0 145#A11040FC8050F2FD
(1447251158.172802) can0 2C0#E5A0000001000000
(1447251158.173082) can0 2C5#0000E00000008700
(1447251158.174536) can0 1B0#EC00B00000008000
(1447251158.174777) can0 1B5#2FFFC0070C070DF9
(1447251158.175039) can0 1D8#6380303135303734
(1447251158.175305) can0 1E0#E017BD80C19B1800
(1447251158.177082) can0 010#F931B02F80008000
(1447251158.177324) can0 210#4E0D09D0A000DFA8
(1447251158.177541) can0 291#0000000000000000
(1447251158.177784) can0 2A9#840000C0CA0006AC
(1447251158.180082) can0 008#800080005BF48034
(1447251158.181577) can0 072#2080000027FF00F0
(1447251158.184472) can0 0F5#40516BBF80008000
(1447251158.184726) can0 120#8956076F80008000
(1447251158.184984) can0 130#11FF5300001DFFD6
(1447251158.185274) can0 150#C053E7FFA7FE0000
(1447251158.187081) can0 010#F831B02F80008000
(1447251158.187324) can0 1D0#610AED218ADCC500
(1447251158.190082) can0 008#800080004B048034
(1447251158.191134) can0 055#809C00B367FFF7FF
(1447251158.191388) can0 065#01DE8E00F7F6E000
(1447251158.191645) can0 070#000EF200F8076000
(1447251158.191874) can0 075#1854000000000000
(1447251158.192114) can0 080#802600F200804FFF
(1447251158.192356) can0 0B0#A352C200A2698352
(1447251158.192554) can0 145#211040FC8050F2FD
(1447251158.192843) can0 28C#00BE3800000040A0
(1447251158.193081) can0 2B5#0022ADB35200004B
(1447251158.194506) can0 1B0#EC00B00000008000
(1447251158.194804) can0 1B5#2FFFC0070C070DF9
(1447251158.195081) can0 1D8#6380303135303734
(1447251158.195336) can0 1E0#E017BD80C18B1C00
(1447251158.195528) can0 2C3#505406FFFF013082
(1447251158.197041) can0 010#F831B02F80008000
(1447251158.197326) can0 072#20A0000027FF00F0
(1447251158.200081) can0 008#800080003B148034
(1447251158.201524) can0 210#460E09D0A000DFA8
(1447251158.204472) can0 0F5#40416FBF80008000
(1447251158.204740) can0 120#8956076F80008000
(1447251158.204983) can0 130#11FF4300001DFFDE
(1447251158.205273) can0 150#C043E7FFB7FE0000
(1447251158.207081) can0 010#F831B02F80008000
(1447251158.207323) can0 1D0#6100ED218ADCC500
(1447251158.207566) can0 291#0000000000000000
(1447251158.210082) can0 008#800080002B248034
(1447251158.211133) can0 055#809C00B367FFF7FF
(1447251158.211387) can0 065#01DE8E00F7F6E000
(1447251158.211645) can0 070#000EF200F8076000
(1447251158.211874) can0 072#2080000027FF00F0
(1447251158.212138) can0 075#1854000000000000
(1447251158.212310) can0 080#802600F200804FFF
(1447251158.212555) can0 0B0#A352C200A2698352
(1447251158.212818) can0 145#210040FC8050F2FD
(1447251158.213036) can0 370#00D7435400900004
(1447251158.214505) can0 1B0#EC00B00000008000
(1447251158.214771) can0 1B5#2FFFC0070C070DF9
(1447251158.215080) can0 1D8#6380303135303734
(1447251158.215284) can0 1E0#E017BD80818B1C00
(1447251158.216952) can0 010#F831B02F80008000
(1447251158.217230) can0 2A9#840000C0C20006AC
(1447251158.219991) can0 008#800080001B348034
(1447251158.224457) can0 0F5#403173BF80008000
(1447251158.224700) can0 120#8956076F80008000
(1447251158.224968) can0 130#11FF3300001DFFE6
(1447251158.225257) can0 150#C033E7FFC7FE0000
(1447251158.225504) can0 3CA#C000001200000000
(1447251158.227043) can0 010#F831B02F80008000
(1447251158.227281) can0 072#20A0000027FF00F0
(1447251158.227526) can0 1D0#6100ED218ADCC500
(1447251158.227768) can0 210#460D09D0A000DFA8
(1447251158.230046) can0 008#800080000B448034
(1447251158.231120) can0 055#809C00B367FFF7FF
(1447251158.231361) can0 065#01DE8E00F7F6E000
(1447251158.231586) can0 070#000EF200F8076000
(1447251158.231844) can0 075#1854000000000000
(1447251158.232063) can0 080#802600F200804FFF
(1447251158.232304) can0 0B0#A352C200A2698352
(1447251158.232546) can0 145#A11040FC8050F2FD
(1447251158.232792) can0 28C#00BE3800000040A0
(1447251158.233036) can0 2B5#0022ADB35200004B
(1447251158.233280) can0 2C0#E5A0000002000000
(1447251158.233494) can0 2C5#0000E00000008700
(1447251158.233744) can0 3AF#2000000000000000
(1447251158.234489) can0 1B0#EC00B00000008000
(1447251158.234758) can0 1B5#2FFFC0070C070DF9
(1447251158.235040) can0 1D8#6380303135303734
(1447251158.235308) can0 1E0#E017BD80C17B2000
(1447251158.235551) can0 2C3#505406FFFF013082
(1447251158.237040) can0 010#F831B02F80008000
(1447251158.237310) can0 291#0000000000000000
(1447251158.237520) can0 330#0000000000000000
(1447251158.239944) can0 008#80008000FB548034
(1447251158.241562) can0 072#2080000027FF00F0
(1447251158.244456) can0 0F5#402177BF80008000
(1447251158.244699) can0 120#8956076F80008000
(1447251158.244941) can0 130#11FF2300001DFFEE
(1447251158.245259) can0 150#C023E7FFD7FE0000
(1447251158.246976) can0 010#F831B02F80008000
(1447251158.247256) can0 1D0#6100ED218ADCC500
(1447251158.249978) can0 008#80008000EB648034
(1447251158.251118) can0 055#809C00B367FFF7FF
(1447251158.251361) can0 065#01DE8E00F7F6E000
(1447251158.251604) can0 070#000EF200F8076000
(1447251158.251846) can0 075#1854000000000000
(1447251158.252098) can0 080#802600F200804FFF
(1447251158.252315) can0 0B0#A352C200A2698352
(1447251158.252527) can0 145#211040FC8050F2FD
(1447251158.252801) can0 210#4E0D09D02000DFA8
(1447251158.254510) can0 1B0#EC00B00000008000
(1447251158.254777) can0 1B5#2FFFC0070C070DF9
(1447251158.255066) can0 1D8#6380303135303734
(1447251158.255283) can0 1E0#E017BD80C16B2400
(1447251158.257092) can0 010#F931B02F80008000
(1447251158.257361) can0 072#20A0000027FF00F0
(1447251158.257601) can0 2A9#840000C0DB0006AC
(1447251158.259976) can0 008#80008000DB748034
(1447251158.261534) can0 360#01A0000349013082
(1447251158.264429) can0 0F5#40117BBF80008000
(1447251158.264699) can0 120#8956076F80008000
(1447251158.264941) can0 130#11FF1300001DFFF6
(1447251158.265258) can0 150#C013E7FFE7FE0000
(1447251158.266950) can0 010#F831B02F80008000
(1447251158.267283) can0 1D0#610AED218ADCC500
(1447251158.267551) can0 291#0000000000000000
(1447251158.267769) can0 390#4F5236020000FF80
(1447251158.269977) can0 008#80008000CB848034
(1447251158.271118) can0 055#809C00B367FFF7FF
(1447251158.271363) can0 065#01DE8E00F7F6E000
(1447251158.271631) can0 070#000EF200F8076000
(1447251158.271874) can0 072#2080000027FF00F0
(1447251158.272117) can0 075#1854000000000000
(1447251158.272329) can0 080#802600F200804FFF
(1447251158.272603) can0 0B0#A352C200A2698352
(1447251158.272846) can0 145#210040FC8050F2FD
(1447251158.273064) can0 28C#00BE3800000040A0
(1447251158.273308) can0 2B5#0022ADB35200004B
(1447251158.273525) can0 3B0#00C400002836D800
(1447251158.274503) can0 1B0#EC00B00000008000
(1447251158.274776) can0 1B5#2FFFC0070C070DF9
(1447251158.275065) can0 1D8#6380303135303734
(1447251158.275334) can0 1E0#E017BD80816B2400
(1447251158.275577) can0 2C3#505406FFFF013082
(1447251158.277040) can0 010#F831B02F80008000
(1447251158.277310) can0 210#460E09D0A000DFA8
(1447251158.277525) can0 3D0#C2800187006109A0
(1447251158.277768) can0 405#114D563834383144
(1447251158.279950) can0 008#80008000BB948034
(1447251158.281691) can0 430#C6380000002E0830
(1447251158.284455) can0 0F5#40017FBF80008000
(1447251158.284698) can0 120#8956076F80008000
(1447251158.284940) can0 130#11FF0300001DFFFE
(1447251158.285238) can0 150#C003E7FFF7FE0000
(1447251158.286975) can0 010#F831B02F80008000
(1447251158.287281) can0 072#20A0000027FF00F0
(1447251158.287524) can0 1D0#6100ED218ADCC500
(1447251158.289976) can0 008#80008000ABA48034
(1447251158.291117) can0 055#809C00B367FFF7FF
(1447251158.291386) can0 065#01DE8E00F7F6E000
(1447251158.291629) can0 070#000EF200F8076000
(1447251158.291846) can0 075#1854000000000000
(1447251158.292097) can0 080#802600F200804FFF
(1447251158.292340) can0 0B0#A352C200A2698352
(1447251158.292551) can0 145#A11040FC8050F2FD
(1447251158.292827) can0 2C0#E5A0000002000000
(1447251158.293065) can0 2C5#0000E00000008700
(1447251158.294477) can0 1B0#EC00B00000008000
(1447251158.294776) can0 1B5#2FFFC0070C070DF9
(1447251158.295064) can0 1D8#6380303135303734
(1447251158.295308) can0 1E0#E017BD80C15B2800
(1447251158.296845) can0 010#F831B02F80008000
(1447251158.297143) can0 291#0000000000000000
(1447251158.297386) can0 2A9#840000C0C20006AC
(1447251158.299975) can0 008#800080009BB48034
(1447251158.301691) can0 072#2080000027FF00F0
(1447251158.301957) can0 210#4E0D09D0A000DFA8
(1447251158.304455) can0 0F5#40F143BF80008000
(1447251158.304724) can0 120#8956076F80008000
(1447251158.304967) can0 130#11FFF300001DFF86
(1447251158.305257) can0 150#C0F3E7FF07FE0000
(1447251158.306897) can0 010#F831B02F80008000
(1447251158.307168) can0 1D0#6100ED218ADCC500
(1447251158.309975) can0 008#800080008BC48034
(1447251158.311115) can0 055#809C00B367FFF7FF
(1447251158.311357) can0 065#01DE8E00F7F6E000
(1447251158.311600) can0 070#000EF200F8076000
(1447251158.311843) can0 075#1854000000000000
(1447251158.312087) can0 080#802600F200804FFF
(1447251158.312330) can0 0B0#A352C200A2698352
(1447251158.312547) can0 145#211040FC8050F2FD
(1447251158.312790) can0 28C#00BE3800000040A0
(1447251158.313033) can0 2B5#0022ADB35200004B
(1447251158.313277) can0 370#00D3435400900004
(1447251158.314507) can0 1B0#EC00B00000008000
(1447251158.314776) can0 1B5#2FFFC0070C070DF9
(1447251158.315064) can0 1D8#6380303135303734
(1447251158.315307) can0 1E0#E017BD80C14B2C00
(1447251158.315550) can0 2C3#505406FFFF013082
(1447251158.317065) can0 010#F831B02F80008000
(1447251158.317361) can0 072#20A0000027FF00F0
(1447251158.317577) can0 330#0000000000000000
(1447251158.319948) can0 008#800080007BD48034
(1447251158.324428) can0 0F5#40E147BF80008000
(1447251158.324698) can0 120#8956076F80008000
(1447251158.324939) can0 130#11FFE300001DFF8E
(1447251158.325258) can0 150#C0E3E7FF17FE0000
(1447251158.326948) can0 010#F831B02F80008000
(1447251158.327280) can0 1D0#6100ED218ADCC500
(1447251158.327528) can0 210#460D09D0A000DFA8
(1447251158.327766) can0 291#0000000000000000
(1447251158.329948) can0 008#800080006BE48034
(1447251158.331091) can0 055#809C00B227FFF7FF
(1447251158.331358) can0 065#01DE8E00F7F6E000
(1447251158.331605) can0 070#000EF200F8076000
(1447251158.331842) can0 072#2080000027FF00F0
(1447251158.332060) can0 075#1854000000000000
(1447251158.332327) can0 080#802600F200804FFF
(1447251158.332572) can0 0B0#A352C200A2698352
(1447251158.332815) can0 145#210040FC8050F2FD
(1447251158.334509) can0 1B0#EC00B00000008000
(1447251158.334775) can0 1B5#2FFFC0070C070DF9
(1447251158.335064) can0 1D8#6380303135303734
(1447251158.335281) can0 1E0#E017BD80814B2C00
(1447251158.337064) can0 010#F931B02F80008000
(1447251158.337308) can0 2A9#840000C0DB0006AC
(1447251158.339949) can0 008#800080005BF48034
(1447251158.344455) can0 0F5#40D14BBF80008000
(1447251158.344697) can0 120#8956076F80008000
(1447251158.344939) can0 130#11FFD300001DFF96
(1447251158.345283) can0 150#C0D3E7FF27FE0000
(1447251158.345524) can0 3CA#C000001300000000
(1447251158.347064) can0 010#F831B02F80008000
(1447251158.347332) can0 072#20A0000027FF00F0
(1447251158.347575) can0 1D0#610AED218ADCC500
(1447251158.347792) can0 400#1600000001010107
(1447251158.349944) can0 008#800080004B048034
(1447251158.351117) can0 055#809C00B227FFF7FF
(1447251158.351384) can0 065#01DE8E00F7F6E000
(1447251158.351627) can0 070#000EF200F8076000
(1447251158.351870) can0 075#1854000000000000
(1447251158.352095) can0 080#802600F200804FFF
(1447251158.352307) can0 0B0#A352C200A2698352
(1447251158.352555) can0 145#A11040FC8050F2FD
(1447251158.352773) can0 210#4E0D09D0A000DFA8
(1447251158.353032) can0 28C#00BE3800000040A0
(1447251158.353276) can0 2B5#0022ADB35200004B
(1447251158.353524) can0 2C0#E5A0000002000000
(1447251158.353767) can0 2C5#0000E00000008700
(1447251158.354037) can0 3AF#2000000000000000
(1447251158.354487) can0 1B0#EC00B00000008000
(1447251158.354756) can0 1B5#2FFFC0070C070DF9
(1447251158.355037) can0 1D8#6380303135303734
(1447251158.355305) can0 1E0#E017BD80C13B3000
(1447251158.355522) can0 2C3#505406FFFF013082
(1447251158.357058) can0 010#F831B02F80008000
(1447251158.357329) can0 291#0000000000000000
(1447251158.359947) can0 008#800080003B148034
(1447251158.361404) can0 072#2080000027FF00F0
(1447251158.361644) can0 360#01A0000349013082
(1447251158.364427) can0 0F5#40C24F7F80008000
(1447251158.364670) can0 120#8956076F80008000
(1447251158.364912) can0 130#11FFC300001DFF9E
(1447251158.365256) can0 150#C0C3E7FF37FE0000
(1447251158.367063) can0 010#F831B02F80008000
(1447251158.367306) can0 1D0#6100ED218ADCC500
(1447251158.367548) can0 390#4F542E020000FF80
(1447251158.369949) can0 008#800080002B248034
(1447251158.371141) can0 055#809C00B227FFF7FF
(1447251158.371410) can0 065#01DE8E00F7F6E000
(1447251158.371653) can0 070#000EF200F8076000
(1447251158.371896) can0 075#1854000000000000
(1447251158.372121) can0 080#802600F200804FFF
(1447251158.372333) can0 0B0#A352C200A2698352
(1447251158.372580) can0 145#211040FC8050F2FD
(1447251158.374507) can0 1B0#EC00B00000008000
(1447251158.374774) can0 1B5#2FFFC0070C070DF9
(1447251158.375031) can0 1D8#6380303135303734
(1447251158.375306) can0 1E0#E017BD80C12B3400
(1447251158.376973) can0 010#F831B02F80008000
(1447251158.377254) can0 072#20A0000027FF00F0
(1447251158.377470) can0 210#4E0D09D0A000DFA8
(1447251158.377712) can0 2A9#840000C0C20006AC
(1447251158.379947) can0 008#800080001B348034
(1447251158.384428) can0 0F5#40B2537F80008000
(1447251158.384696) can0 120#8956076F80008000
(1447251158.384938) can0 130#11FFB300001DFFA6
(1447251158.385255) can0 150#C0B3E7FF47FE0000
(1447251158.387062) can0 010#F831B02F80008000
(1447251158.387305) can0 1D0#6100ED218ADCC500
(1447251158.387548) can0 291#0000000000000000
(1447251158.389947) can0 008#800080000B448034
(1447251158.391141) can0 055#809C00B227FFF7FF
(1447251158.391409) can0 065#01DE8E00F7F6E000
(1447251158.391626) can0 070#000EF200F8076000
(1447251158.391895) can0 072#2080000027FF00F0
(1447251158.392121) can0 075#1854000000000000
(1447251158.392363) can0 080#802600F200804FFF
(1447251158.392606) can0 0B0#A352C200A2698352
(1447251158.392824) can0 145#210040FC8050F2FD
(1447251158.393063) can0 28C#00BE3800000040A0
(1447251158.393307) can0 2B5#0022ADB35200004B
(1447251158.393524) can0 3B0#02C400002836D800
(1447251158.394476) can0 1B0#EC00B00000008000
(1447251158.394720) can0 1B5#2FFFC0070C070DF9
(1447251158.395030) can0 1D8#6380303135303734
(1447251158.395302) can0 1E0#E017BD80812B3400
(1447251158.395543) can0 2C3#505406FFFF013082
(1447251158.397037) can0 010#F831B02F80008000
(1447251158.397305) can0 330#0000000000000000
(1447251158.399920) can0 008#80008000FB548034
(1447251158.401740) can0 210#460D09D02000DFA8
(1447251158.404426) can0 0F5#40A2577F80008000
(1447251158.404669) can0 120#8956076F80008000
(1447251158.404939) can0 130#11FFA300001DFFAE
(1447251158.405255) can0 150#C0A3E7FF57FE0000
(1447251158.407062) can0 010#F831B02F80008000
(1447251158.407305) can0 072#20A0000027FF00F0
(1447251158.407522) can0 1D0#6100ED218ADCC500
(1447251158.409947) can0 008#80008000EB648034
(1447251158.411140) can0 055#809C00B227FFF7FF
(1447251158.411409) can0 065#01DE8E00F7F6E000
(1447251158.411652) can0 070#000EF200F8076000
(1447251158.411895) can0 075#1854000000000000
(1447251158.412146) can0 080#802600F200804FFF
(1447251158.412389) can0 0B0#A352C200A2698352
(1447251158.412606) can0 145#A11040FC8050F2FD
(1447251158.412818) can0 2C0#E5A0000002000000
(1447251158.413061) can0 2C5#0000E00000008700
(1447251158.413318) can0 370#00D7435400900004
(1447251158.413560) can0 3E0#0080983E18000000
(1447251158.414514) can0 1B0#EC00B00000008000
(1447251158.414754) can0 1B5#2FFFC0070C070DF9
(1447251158.415036) can0 1D8#6380303135303734
(1447251158.415278) can0 1E0#E017BD80C11B3800
(1447251158.417036) can0 010#F931B02F80008000
(1447251158.417274) can0 291#0000000000000000
(1447251158.417514) can0 2A9#840000C0CA0006AC
(1447251158.419947) can0 008#80008000DB748034
(1447251158.421556) can0 072#2080000027FF00F0
(1447251158.424426) can0 0F5#40925B7F80008000
(1447251158.424695) can0 120#8956076F80008000
(1447251158.424938) can0 130#11FF9300001DFFB6
(1447251158.425254) can0 150#C093E7FF67FE0000
(1447251158.427062) can0 010#F831B02F80008000
(1447251158.427330) can0 1D0#610AED218ADCC500
(1447251158.427573) can0 210#460D09D0A000DF7D
(1447251158.429898) can0 008#80008000CB848034
(1447251158.431115) can0 055#809C00B227FFF7FF
(1447251158.431381) can0 065#01DE8E00F7F6E000
(1447251158.431623) can0 070#000EF200F8076000
(1447251158.431881) can0 075#1854000000000000
(1447251158.432091) can0 080#802600F200804FFF
(1447251158.432334) can0 0B0#A352C200A2698352
(1447251158.432577) can0 145#211040FC8050F2FD
(1447251158.432820) can0 28C#00BE3800000040A0
(1447251158.433030) can0 2B5#0022ADB35200004B
(1447251158.434485) can0 1B0#EC00B00000008000
(1447251158.434717) can0 1B5#2FFFC0070C070DF9
(1447251158.435034) can0 1D8#6380303135303734
(1447251158.435331) can0 1E0#E017BD80C10B3C00
(1447251158.435573) can0 2C3#505406FFFF013082
(1447251158.437061) can0 010#F831B02F80008000
(1447251158.437275) can0 072#20A0000027FF00F0
(1447251158.439920) can0 008#80008000BB948034
(1447251158.444425) can0 0F5#40825F7F80008000
(1447251158.444694) can0 120#8956076F80008000
(1447251158.444938) can0 130#11FF8300001DFFBE
(1447251158.445222) can0 150#C083E7FF77FE0000
(1447251158.447039) can0 010#F831B02F80008000
(1447251158.447275) can0 1D0#6100ED218ADCC500
(1447251158.447545) can0 291#0000000000000000
(1447251158.449889) can0 008#80008000ABA48034
(1447251158.451133) can0 055#809C00B227FFF7FF
(1447251158.451434) can0 065#01DE8E00F7F6E000
(1447251158.451677) can0 070#000EF200F8076000
(1447251158.451920) can0 072#2080000027FF00F0
(1447251158.452171) can0 075#1854000000000000
(1447251158.452414) can0 080#802600F200804FFF
(1447251158.452657) can0 0B0#A352C200A2698352
(1447251158.452848) can0 145#210040FC8050F2FD
(1447251158.453088) can0 210#4E0D09D0A000DF7D
(1447251158.454472) can0 1B0#EC00B00000008000
(1447251158.454739) can0 1B5#2FFFC0070C070DF9
(1447251158.455061) can0 1D8#6380303135303734
(1447251158.455277) can0 1E0#E017BD80810B3C00
(1447251158.457035) can0 010#F831B02F80008000
(1447251158.457330) can0 2A9#840000C0D30006AC
(1447251158.459921) can0 008#800080009BB48034
(1447251158.461504) can0 360#01A0000349013082
(1447251158.464424) can0 0F5#4072637F80008000
(1447251158.464694) can0 120#8956076F80008000
(1447251158.464935) can0 130#11FF7300001DFFC6
(1447251158.465279) can0 150#C073E7FF87FE0000
(1447251158.465520) can0 3CA#C000001400000000
(1447251158.466971) can0 010#F831B02F80008000
(1447251158.467224) can0 072#20A0000027FF00F0
(1447251158.467468) can0 1D0#6100ED218ADCC500
(1447251158.467684) can0 390#4F542E020000FF80
(1447251158.469920) can0 008#800080008BC48034
(1447251158.471113) can0 055#809C00B227FFF7FF
(1447251158.471355) can0 065#01DE8E00F7F6E000
(1447251158.471599) can0 070#000EF200F8076000
(1447251158.471841) can0 075#1854000000000000
(1447251158.472061) can0 080#802600F200804FFF
(1447251158.472309) can0 0B0#A352C200A2698352
(1447251158.472552) can0 145#A11040FC8050F2FD
(1447251158.472795) can0 28C#00BE3800000040A0
(1447251158.473034) can0 2B5#0022ADB35200004B
(1447251158.473277) can0 2C0#E5A0000002000000
(1447251158.473519) can0 2C5#0000E00000008700
(1447251158.473736) can0 3AF#2000000000000000
(1447251158.474502) can0 1B0#EC00B00000008000
(1447251158.474745) can0 1B5#2FFFC0070C070DF9
(1447251158.475034) can0 1D8#6380303135303734
(1447251158.475302) can0 1E0#E017BD80C1FB0000
(1447251158.475513) can0 2C3#505406FFFF013082
(1447251158.477028) can0 010#F831B02F80008000
(1447251158.477330) can0 210#460D09D0A000DF7D
(1447251158.477545) can0 291#0000000000000000
(1447251158.477813) can0 330#0000000000000000
(1447251158.478060) can0 3D0#C2800187006109A0
(1447251158.479892) can0 008#800080007BD48034
(1447251158.481790) can0 072#2080000027FF00F0
(1447251158.484398) can0 0F5#4062677F80008000
(1447251158.484668) can0 120#8956076F80008000
(1447251158.484910) can0 130#11FF6300001DFFCE
(1447251158.485165) can0 150#C063E7FF97FE0000
(1447251158.486840) can0 010#F831B02F80008000
(1447251158.487112) can0 1D0#6100ED218ADCC500
(1447251158.489919) can0 008#800080006BE48034
(1447251158.491112) can0 055#809C00B227FFF7FF
(1447251158.491381) can0 065#01DE8E00F7F6E000
(1447251158.491598) can0 070#000EF200F8076000
(1447251158.491867) can0 075#1854000000000000
(1447251158.492093) can0 080#802600F200804FFF
(1447251158.492335) can0 0B0#A352C200A2698352
(1447251158.492552) can0 145#211040FC8050F2FD
(1447251158.494477) can0 1B0#EC00B00000008000
(1447251158.494744) can0 1B5#2FFFC0070C070DF9
(1447251158.494929) can0 1D8#6380303135303734
(1447251158.495251) can0 1E0#E017BD80C1EB0400
(1447251158.497060) can0 010#F931B02F80008000
(1447251158.497304) can0 072#20A0000027FF00F0
(1447251158.497545) can0 2A9#840000C0CA0006AC
(1447251158.499917) can0 008#800080005BF48034
(1447251158.501660) can0 210#4E0D09D0A000DF7D
(1447251158.504424) can0 0F5#40526B7F80008000
(1447251158.504667) can0 120#8956076F80008000
(1447251158.504910) can0 130#11FF5300001DFFD6
(1447251158.505164) can0 150#C053E7FFA7FE0000
(1447251158.506969) can0 010#F831B02F80008000
(1447251158.507250) can0 1D0#610AED218ADCC500
(1447251158.507492) can0 291#0000000000000000
(1447251158.509918) can0 008#800080004B048034
(1447251158.511112) can0 055#809C00B227FFF7FF
(1447251158.511354) can0 065#01DE8E00F7F6E000
(1447251158.511597) can0 070#000EF200F8076000
(1447251158.511866) can0 072#2080000027FF00F0
(1447251158.512093) can0 075#1854000000000000
(1447251158.512303) can0 080#802600F200804FFF
(1447251158.512574) can0 0B0#A352C200A2698352
(1447251158.512816) can0 145#210040FC8050F2FD
(1447251158.513057) can0 28C#00BE3800000040A0
(1447251158.513271) can0 2B5#0022ADB35200004B
(1447251158.513544) can0 370#00D3435400900004
(1447251158.513789) can0 3B0#00C400002836D800
(1447251158.514483) can0 1B0#EC00B00000008000
(1447251158.514724) can0 1B5#2FFFC0070C070DF9
(1447251158.515033) can0 1D8#6380303135303734
(1447251158.515301) can0 1E0#E017BD8081EB0400
(1447251158.515544) can0 2C3#505406FFFF013082
(1447251158.517033) can0 010#F831B02F80008000
(1447251158.519917) can0 008#800080003B148034
(1447251158.524397) can0 0F5#40426F7F80008000
(1447251158.524666) can0 120#8956076F80008000
(1447251158.524909) can0 130#11FF4300001DFFDE
(1447251158.525164) can0 150#C043E7FFB7FE0000
(1447251158.527059) can0 010#F831B02F80008000
(1447251158.527328) can0 072#20A0000027FF00F0
(1447251158.527597) can0 1D0#6100ED218ADCC500
(1447251158.527866) can0 210#460D09D0A000DF7D
(1447251158.528060) can0 405#016439DE39B707D5
(1447251158.529911) can0 008#800080002B248034
(1447251158.531113) can0 055#809C00B227FFF7FF
(1447251158.531379) can0 065#01DE8E00F7F6E000
(1447251158.531621) can0 070#000EF200F8076000
(1447251158.531864) can0 075#1854000000000000
(1447251158.532088) can0 080#802600F200804FFF
(1447251158.532330) can0 0B0#A352C200A2698352
(1447251158.532547) can0 145#A11040FC8050F2FD
(1447251158.532817) can0 2C0#E5A0000002000000
(1447251158.533027) can0 2C5#0000E00000008700
(1447251158.534477) can0 1B0#EC00B00000008000
(1447251158.534740) can0 1B5#2FFFC0070C070DF9
(1447251158.535040) can0 1D8#6380303135303734
(1447251158.535301) can0 1E0#E017BD80C1DB0800
(1447251158.537059) can0 010#F831B02F80008000
(1447251158.537332) can0 291#0000000000000000
(1447251158.537570) can0 2A9#840000C0D30006AC
(1447251158.539891) can0 008#800080001B348034
(1447251158.541372) can0 072#2080000027FF00F0
(1447251158.544397) can0 0F5#4032737F80008000
(1447251158.544665) can0 120#8956076F80008000
(1447251158.544908) can0 130#11FF3300001DFFE6
(1447251158.545163) can0 150#C033E7FFC7FE0000
(1447251158.547059) can0 010#F831B02F80008000
(1447251158.547301) can0 1D0#6100ED218ADCC500
(1447251158.549892) can0 008#800080000B448034
(1447251158.551111) can0 055#809C00B227FFF7FF
(1447251158.551379) can0 065#01DE8E00F7F6E000
(1447251158.551597) can0 070#000EF200F8076000
(1447251158.551866) can0 075#1854000000000000
(1447251158.552084) can0 080#802600F200804FFF
(1447251158.552327) can0 0B0#A352C200A2698352
(1447251158.552538) can0 145#211040FC8050F2FD
(1447251158.552812) can0 210#4E0D09D02000DF7D
(1447251158.553033) can0 28C#00BE3800000040A0
(1447251158.553275) can0 2B5#0022ADB35200004B
(1447251158.554474) can0 1B0#EC00B00000008000
(1447251158.554717) can0 1B5#2FFFC0070C070DF9
(1447251158.555032) can0 1D8#6380303135303734
(1447251158.555300) can0 1E0#E017BD80C1CB0C00
(1447251158.555543) can0 2C3#505406FFFF013082
(1447251158.557189) can0 010#F831B02F80008000
(1447251158.557483) can0 072#20A0000027FF00F0
(1447251158.557752) can0 330#0000000000000000
(1447251158.559888) can0 008#80008000FB548034
(1447251158.561525) can0 360#01A0000349013082
(1447251158.564405) can0 0F5#4022777F80008000
(1447251158.564665) can0 120#8956076F80008000
(1447251158.564908) can0 130#11FF2300001DFFEE
(1447251158.565111) can0 150#C023E7FFD7FE0000
(1447251158.567058) can0 010#F831B02F80008000
(1447251158.567275) can0 1D0#6100ED218ADCC500
(1447251158.567518) can0 291#0000000000000000
(1447251158.567761) can0 390#4F5626020000FF80
(1447251158.569892) can0 008#80008000EB648034
(1447251158.571110) can0 055#809C00B227FFF7FF
(1447251158.571330) can0 065#01DE8E00F7F6E000
(1447251158.571595) can0 070#000EF200F8076000
(1447251158.571838) can0 072#2080000027FF00F0
(1447251158.572110) can0 075#1854000000000000
(1447251158.572353) can0 080#802600F200804FFF
(1447251158.572622) can0 0B0#A352C200A2698352
(1447251158.572865) can0 145#210040FC8050F2FD
(1447251158.574475) can0 1B0#EC00B00000008000
(1447251158.574743) can0 1B5#2FFFC0070C070DF9
(1447251158.575057) can0 1D8#6380303135303734
(1447251158.575275) can0 1E0#E017BD8081CB0C00
(1447251158.576911) can0 010#F931B02F80008000
(1447251158.577276) can0 210#4E0D09D0A000DF7D
(1447251158.577518) can0 2A9#840000C0CA0006AC
(1447251158.579889) can0 008#80008000DB748034
(1447251158.584424) can0 0F5#40127B7F80008000
(1447251158.584664) can0 120#8956076F80008000
(1447251158.584907) can0 130#11FF1300001DFFF6
(1447251158.585162) can0 150#C013E7FFE7FE0000
(1447251158.585405) can0 3CA#C000001500000000
(1447251158.587058) can0 010#F831B02F80008000
(1447251158.587300) can0 072#20A0000027FF00F0
(1447251158.587543) can0 1D0#610AED218ADCC500
(1447251158.589861) can0 008#80008000CB848034
(1447251158.591078) can0 055#809C00B227FFF7FF
(1447251158.591352) can0 065#01DE8E00F7F6E000
(1447251158.591621) can0 070#000EF200F8076000
(1447251158.591838) can0 075#1854000000000000
(1447251158.592089) can0 080#802600F200804FFF
(1447251158.592333) can0 0B0#A352C200A2698352
(1447251158.592575) can0 145#A11040FC8050F2FD
(1447251158.592818) can0 28C#00BE3800000040A0
(1447251158.593032) can0 2B5#0022ADB35200004B
(1447251158.593271) can0 2C0#E5A0000002000000
(1447251158.593485) can0 2C5#0000E00000008700
(1447251158.593733) can0 3AF#2000000000000000
(1447251158.594473) can0 1B0#EC00B00000008000
(1447251158.594716) can0 1B5#2FFFC0070C070DF9
(1447251158.595031) can0 1D8#6380303135303734
(1447251158.595300) can0 1E0#E017BD80C1BB1000
(1447251158.595543) can0 2C3#505406FFFF013082
(1447251158.597032) can0 010#F831B02F80008000
(1447251158.597301) can0 291#0000000000000000
(1447251158.597516) can0 400#1701010401030101
(1447251158.599864) can0 008#80008000BB948034
(1447251158.601553) can0 072#2080000027FF00F0
(1447251158.601793) can0 210#460D09D0A000DF7D
(1447251158.604395) can0 0F5#40027F7F80008000
(1447251158.604664) can0 120#8956076F80008000
(1447251158.604907) can0 130#11FF0300001DFFFE
(1447251158.605161) can0 150#C003E7FFF7FE0000
(1447251158.606889) can0 010#F831B02F80008000
(1447251158.607135) can0 1D0#6100ED218ADCC500
(1447251158.609891) can0 008#80008000ABA48034
(1447251158.611109) can0 055#809C00B227FFF7FF
(1447251158.611352) can0 065#01DE8E00F7F6E000
(1447251158.611594) can0 070#000EF200F8076000
(1447251158.611838) can0 075#1854000000000000
(1447251158.612089) can0 080#802600F200804FFF
(1447251158.612329) can0 0B0#A352C200A2698352
(1447251158.612543) can0 145#211040FC8050F2FD
(1447251158.612815) can0 370#00D7435400900004
(1447251158.614445) can0 1B0#EC00B00000008000
(1447251158.614709) can0 1B5#2FFFC0070C070DF9
(1447251158.614927) can0 1D8#6380303135303734
(1447251158.615224) can0 1E0#E017BD80C1AB1400
(1447251158.616897) can0 010#F831B02F80008000
(1447251158.617161) can0 072#20A0000027FF00F0
(1447251158.617404) can0 2A9#840000C0C20006AC
(1447251158.619888) can0 008#800080009BB48034
(1447251158.624395) can0 0F5#40F2437F80008000
(1447251158.624663) can0 120#8956076F80008000
(1447251158.624906) can0 130#11FFF300001DFF86
(1447251158.625161) can0 150#C0F3E7FF07FE0000
(1447251158.627056) can0 010#F831B02F80008000
(1447251158.627324) can0 1D0#6100ED218ADCC500
(1447251158.627593) can0 210#460E09D0A000DF7D
(1447251158.627837) can0 291#0000000000000000
(1447251158.629835) can0 008#800080008BC48034
(1447251158.631054) can0 055#809C00B227FFF7FF
(1447251158.631351) can0 065#01DE8E00F7F6E000
(1447251158.631593) can0 070#000EF200F8076000
(1447251158.631839) can0 072#2080000027FF00F0
(1447251158.632088) can0 075#1854000000000000
(1447251158.632331) can0 080#802600F200804FFF
(1447251158.632573) can0 0B0#A352C200A2698352
(1447251158.632815) can0 145#210040FC8050F2FD
(1447251158.633025) can0 28C#00BE3800000040A0
(1447251158.633266) can0 2B5#0022ADB35200004B
(1447251158.633525) can0 3B0#00C400002836D800
(1447251158.634447) can0 1B0#EC00B00000008000
(1447251158.634713) can0 1B5#2FFFC0070C070DF9
(1447251158.635035) can0 1D8#6380303135303734
(1447251158.635355) can0 1E0#E017BD8081AB1400
(1447251158.635598) can0 2C3#505406FFFF013082
(1447251158.637056) can0 010#F831B02F80008000
(1447251158.637279) can0 330#0000000000000000
(1447251158.639862) can0 008#800080007BD48034
(1447251158.644396) can0 0F5#40E2477F80008000
(1447251158.644662) can0 120#8956076F80008000
(1447251158.644907) can0 130#11FFE300001DFF8E
(1447251158.645134) can0 150#C0E3E7FF17FE0000
(1447251158.647056) can0 010#F831B02F80008000
(1447251158.647299) can0 072#20A0000027FF00F0
(1447251158.647517) can0 1D0#6100ED218ADCC500
(1447251158.649863) can0 008#800080006BE48034
(1447251158.651109) can0 055#809C00B227FFF7FF
(1447251158.651377) can0 065#01DE8E00F7F6E000
(1447251158.651594) can0 070#000EF200F8076000
(1447251158.651837) can0 075#1854000000000000
(1447251158.652088) can0 080#802600F200804FFF
(1447251158.652299) can0 0B0#A352C200A2698352
(1447251158.652573) can0 145#A11040FC8050F2FD
(1447251158.652817) can0 210#4E0E09D0A000DF7D
(1447251158.653056) can0 2C0#E5A0000002000000
(1447251158.653269) can0 2C5#0000E00000008700
(1447251158.654439) can0 1B0#EC00B00000008000
(1447251158.654740) can0 1B5#2FFFC0070C070DF9
(1447251158.655055) can0 1D8#6380303135303734
(1447251158.655273) can0 1E0#E017BD80C19B1800
(1447251158.657082) can0 010#F931B02F80008000
(1447251158.657352) can0 291#0000000000000000
(1447251158.657589) can0 2A9#840000C0DB0006AC
(1447251158.659862) can0 008#800080005BF48034
(1447251158.661694) can0 072#2080000027FF00F0
(1447251158.661923) can0 360#01A0000349013082
(1447251158.664368) can0 0F5#40D24B7F80008000
(1447251158.664677) can0 120#8956076F80008000
(1447251158.664919) can0 130#11FFD300001DFF96
(1447251158.665147) can0 150#C0D3E7FF27FE0000
(1447251158.666861) can0 010#F831B02F80008000
(1447251158.667104) can0 1D0#610AED218ADCC500
(1447251158.667347) can0 390#4F5626020000FF80
(1447251158.669876) can0 008#800080004B048034
(1447251158.671148) can0 055#809C00B227FFF7FF
(1447251158.671390) can0 065#01DE8E00F7F6E000
(1447251158.671636) can0 070#000EF200F8076000
(1447251158.671876) can0 075#1854000000000000
(1447251158.672082) can0 080#802600F200804FFF
(1447251158.672369) can0 0B0#A352C200A2698352
(1447251158.672612) can0 145#211040FC8050F2FD
(1447251158.672816) can0 28C#00BE3800000040A0
(1447251158.673056) can0 2B5#0022ADB35200004B
(1447251158.674468) can0 1B0#EC00B00000008000
(1447251158.674780) can0 1B5#2FFFC0070C070DF9
(1447251158.675069) can0 1D8#6380303135303734
(1447251158.675337) can0 1E0#E017BD80C18B1C00
(1447251158.675543) can0 2C3#505406FFFF013082
(1447251158.677029) can0 010#F831B02F80008000
(1447251158.677339) can0 072#20A0000027FF00F0
(1447251158.677554) can0 210#460D09D0A000DF7D
(1447251158.677797) can0 3D0#C2800187006109A0
(1447251158.679835) can0 008#800080003B148034
(1447251158.684409) can0 0F5#40C24F7F80008000
(1447251158.684676) can0 120#8956076F80008000
(1447251158.684919) can0 130#11FFC300001DFF9E
(1447251158.685159) can0 150#C0C3E7FF37FE0000
(1447251158.687069) can0 010#F831B02F80008000
(1447251158.687311) can0 1D0#6100ED218ADCC500
(1447251158.687554) can0 291#0000000000000000
(1447251158.689876) can0 008#800080002B248034
(1447251158.691121) can0 055#809C00B227FFF7FF
(1447251158.691389) can0 065#01DE8E00F7F6E000
(1447251158.691633) can0 070#000EF200F8076000
(1447251158.691875) can0 072#2080000027FF00F0
(1447251158.692126) can0 075#1854000000000000
(1447251158.692325) can0 080#802600F200804FFF
(1447251158.692566) can0 0B0#A352C200A2698352
(1447251158.692828) can0 145#210040FC8050F2FD
(1447251158.694467) can0 1B0#EC00B00000008000
(1447251158.694707) can0 1B5#2FFFC0070C070DF9
(1447251158.695068) can0 1D8#6380303135303734
(1447251158.695286) can0 1E0#E017BD80818B1C00
(1447251158.697069) can0 010#F831B02F80008000
(1447251158.697313) can0 2A9#840000C0C20006AC
(1447251158.699875) can0 008#800080001B348034
(1447251158.701564) can0 210#4E0D09D02000DF90
(1447251158.704432) can0 0F5#40B2537F80008000
(1447251158.704701) can0 120#8956076F80008000
(1447251158.704944) can0 130#11FFB300001DFFA6
(1447251158.705313) can0 150#C0B3E7FF47FE0000
(1447251158.705540) can0 3CA#C000001600000000
(1447251158.707069) can0 010#F831B02F80008000
(1447251158.707337) can0 072#20A0000027FF00F0
(1447251158.707540) can0 1D0#6100ED218ADCC500
(1447251158.709876) can0 008#800080000B448034
(1447251158.711147) can0 055#809C00B227FFF7FF
(1447251158.711401) can0 065#01DE8E00F7F6E000
(1447251158.711659) can0 070#000EF200F8076000
(1447251158.711901) can0 075#1854000000000000
(1447251158.712152) can0 080#802600F200804FFF
(1447251158.712349) can0 0B0#A352C200A2698352
(1447251158.712622) can0 145#A11040FC8050F2FD
(1447251158.712865) can0 28C#00BE3800000040A0
(1447251158.713111) can0 2B5#0022ADB35200004B
(1447251158.713303) can0 2C0#E5A0000002000000
(1447251158.713569) can0 2C5#0000E00000008700
(1447251158.713764) can0 370#00D3435400900004
(1447251158.714052) can0 3AF#2000000000000000
(1447251158.714272) can0 3E0#0080983E18000000
(1447251158.714515) can0 1B0#EC00B00000008000
(1447251158.714757) can0 1B5#2FFFC0070C070DF9
(1447251158.715028) can0 1D8#6380303135303734
(1447251158.715296) can0 1E0#E017BD80C17B2000
(1447251158.715539) can0 2C3#505406FFFF013082
(1447251158.717075) can0 010#F831B02F80008000
(1447251158.717344) can0 291#0000000000000000
(1447251158.717611) can0 330#0000000000000000
(1447251158.719874) can0 008#80008000FB548034
(1447251158.721407) can0 072#2080000027FF00F0
(1447251158.724406) can0 0F5#40A2577F80008000
(1447251158.724675) can0 120#8956076F80008000
(1447251158.724918) can0 130#11FFA300001DFFAE
(1447251158.725172) can0 150#C0A3E7FF57FE0000
(1447251158.726953) can0 010#F831B02F80008000
(1447251158.727284) can0 1D0#6100ED218ADCC500
(1447251158.727513) can0 210#460D09D0A000DF90
(1447251158.729877) can0 008#80008000EB648034
(1447251158.731133) can0 055#809C00B227FFF7FF
(1447251158.731413) can0 065#01DE8E00F7F6E000
(1447251158.731657) can0 070#000EF200F8076000
(1447251158.731900) can0 075#1854000000000000
(1447251158.732137) can0 080#802600F200804FFF
(1447251158.732394) can0 0B0#A352C200A2698352
(1447251158.732596) can0 145#211040FC8050F2FD
(1447251158.734462) can0 1B0#EC00B00000008000
(1447251158.734707) can0 1B5#2FFFC0070C070DF9
(1447251158.735021) can0 1D8#6380303135303734
(1447251158.735310) can0 1E0#E017BD80C16B2400
(1447251158.737068) can0 010#F931B02F80008000
(1447251158.737310) can0 072#20A0000027FF00F0
(1447251158.737553) can0 2A9#840000C0CA0006AC
(1447251158.739874) can0 008#80008000DB748034
(1447251158.744433) can0 0F5#40925B7F80008000
(1447251158.744660) can0 120#8956076F80008000
(1447251158.744917) can0 130#11FF9300001DFFB6
(1447251158.745146) can0 150#C093E7FF67FE0000
(1447251158.747053) can0 010#F831B02F80008000
(1447251158.747322) can0 1D0#610AED218ADCC500
(1447251158.747564) can0 291#0000000000000000
(1447251158.749835) can0 008#80008000CB848034
(1447251158.751132) can0 055#809C00B227FFF7FF
(1447251158.751400) can0 065#01DE8E00F7F6E000
(1447251158.751644) can0 070#000EF200F8076000
(1447251158.751886) can0 072#2080000027FF00F0
(1447251158.752137) can0 075#1854000000000000
(1447251158.752349) can0 080#802600F200804FFF
(1447251158.752590) can0 0B0#A352C200A2698352
(1447251158.752840) can0 145#210040FC8050F2FD
(1447251158.753080) can0 210#4E0D09D0A000DF90
(1447251158.753297) can0 28C#00BE3800000040A0
(1447251158.753538) can0 2B5#0022ADB35200004B
(1447251158.753755) can0 3B0#00C400002C36FC00
(1447251158.754444) can0 1B0#EC00B00000008000
(1447251158.754712) can0 1B5#2FFFC0070C070DF9
(1447251158.755027) can0 1D8#6380303135303734
(1447251158.755290) can0 1E0#E017BD80816B2400
(1447251158.755513) can0 2C3#505406FFFF013082
(1447251158.757027) can0 010#F831B02F80008000
(1447251158.759833) can0 008#80008000BB948034
(1447251158.761654) can0 360#01A0000349013082
(1447251158.764391) can0 0F5#40825F7F80008000
(1447251158.764661) can0 120#8956076F80008000
(1447251158.764902) can0 130#11FF8300001DFFBE
(1447251158.765132) can0 150#C083E7FF77FE0000
(1447251158.767053) can0 010#F831B02F80008000
(1447251158.767296) can0 072#20A0000027FF00F0
(1447251158.767538) can0 1D0#6100ED218ADCC500
(1447251158.767782) can0 390#6F5722020000FF80
(1447251158.769804) can0 008#80008000ABA48034
(1447251158.771105) can0 055#809C00B227FFF7FF
(1447251158.771348) can0 065#01DE8E00F7F6E000
(1447251158.771617) can0 070#000EF200F8076000
(1447251158.771859) can0 075#1854000000000000
(1447251158.772053) can0 080#802600F200804FFF
(1447251158.772295) can0 0B0#A352C200A2698352
(1447251158.772569) can0 145#A11040FC8050F2FD
(1447251158.772787) can0 2C0#E5A0000002000000
(1447251158.773053) can0 2C5#0000E00000008700
(1447251158.774470) can0 1B0#EC00B00000008000
(1447251158.774739) can0 1B5#2FFFC0070C070DF9
(1447251158.775052) can0 1D8#6380303135303734
(1447251158.775270) can0 1E0#E017BD80C15B2800
(1447251158.777053) can0 010#F831B02F80008000
(1447251158.777323) can0 210#4E0D09D0A000DF90
(1447251158.777591) can0 291#0000000000000000
(1447251158.777859) can0 2A9#840000C0D30006AC
(1447251158.778085) can0 405#023F360031013082
(1447251158.779807) can0 008#800080009BB48034
(1447251158.781548) can0 072#2080000027FF00F0
(1447251158.784390) can0 0F5#4072637F80008000
(1447251158.784660) can0 120#8956076F80008000
(1447251158.784902) can0 130#11FF7300001DFFC6
(1447251158.785157) can0 150#C073E7FF87FE0000
(1447251158.786962) can0 010#F831B02F80008000
(1447251158.787242) can0 1D0#6100ED218ADCC500
(1447251158.789834) can0 008#800080008BC48034
(1447251158.791105) can0 055#809C00B227FFF7FF
(1447251158.791347) can0 065#01DE8E00F7F6E000
(1447251158.791590) can0 070#000EF200F8076000
(1447251158.791859) can0 075#1854000000000000
(1447251158.792110) can0 080#802600F200804FFF
(1447251158.792379) can0 0B0#A352C200A2698352
(1447251158.792616) can0 145#211040FC8050F2FD
(1447251158.792916) can0 28C#00BE3800000040A0
(1447251158.793156) can0 2B5#0022ADB35200004B
(1447251158.794411) can0 1B0#EC00B00000008000
(1447251158.794711) can0 1B5#2FFFC0070C070DF9
(1447251158.794928) can0 1D8#6380303135303734
(1447251158.795270) can0 1E0#E017BD80C14B2C00
(1447251158.795513) can0 2C3#505406FFFF013082
(1447251158.797026) can0 010#F831B02F80008000
(1447251158.797271) can0 072#20A0000027FF00F0
(1447251158.797538) can0 330#0000000000000000
(1447251158.799806) can0 008#800080007BD48034
(1447251158.801574) can0 210#460D09D0A000DF90
(1447251158.804390) can0 0F5#4062677F80008000
(1447251158.804659) can0 120#8956076F80008000
(1447251158.804902) can0 130#11FF6300001DFFCE
(1447251158.805131) can0 150#C063E7FF97FE0000
(1447251158.807052) can0 010#F831B02F80008000
(1447251158.807295) can0 1D0#6100ED218ADCC500
(1447251158.807537) can0 291#0000000000000000
(1447251158.809827) can0 008#800080006BE48034
(1447251158.811104) can0 055#809C00B227FFF7FF
(1447251158.811347) can0 065#01DE8E00F7F6E000
(1447251158.811590) can0 070#000EF200F8076000
(1447251158.811859) can0 072#2080000027FF00F0
(1447251158.812084) can0 075#1854000000000000
(1447251158.812296) can0 080#802600F200804FFF
(1447251158.812569) can0 0B0#A352C200A2698352
(1447251158.812811) can0 145#210040FC8050F2FD
(1447251158.813051) can0 370#00D3435400900004
(1447251158.814413) can0 1B0#EC00B00000008000
(1447251158.814711) can0 1B5#2FFFC0070C070DF9
(1447251158.814953) can0 1D8#6380303135303734
(1447251158.815243) can0 1E0#E017BD80814B2C00
(1447251158.816937) can0 010#F931B02F80008000
(1447251158.817220) can0 2A9#840000C0CA0006AC
(1447251158.819832) can0 008#800080005BF48034
(1447251158.824390) can0 0F5#40526B7F80008000
(1447251158.824659) can0 120#8956076F80008000
(1447251158.824901) can0 130#11FF5300001DFFD6
(1447251158.825130) can0 150#C053E7FFA7FE0000
(1447251158.825386) can0 3CA#C000000000000000
(1447251158.827065) can0 010#F831B02F80008000
(1447251158.827308) can0 072#20A0000027FF00F0
(1447251158.827537) can0 1D0#610AED218ADCC500
(1447251158.827794) can0 210#460D09D0A000DF90
(1447251158.829805) can0 008#800080004B048034
(1447251158.831073) can0 055#809C00B227FFF7FF
(1447251158.831364) can0 065#01DE8E00F7F6E000
(1447251158.831602) can0 070#000EF200F8076000
(1447251158.831835) can0 075#1854000000000000
(1447251158.832063) can0 080#802600F200804FFF
(1447251158.832303) can0 0B0#A352C200A2698352
(1447251158.832577) can0 145#A11040FC8050F2FD
(1447251158.832795) can0 28C#00BE3800000040A0
(1447251158.833064) can0 2B5#0022ADB35200004B
(1447251158.833265) can0 2C0#E5A0000002000000
(1447251158.833482) can0 2C5#0000E00000008700
(1447251158.833723) can0 3AF#2000000000000000
(1447251158.834438) can0 1B0#EC00B00000008000
(1447251158.834731) can0 1B5#2FFFC0070C070DF9
(1447251158.835021) can0 1D8#6380303135303734
(1447251158.835288) can0 1E0#E017BD80C13B3000
(1447251158.835507) can0 2C3#505406FFFF013082
(1447251158.836934) can0 010#F831B02F80008000
(1447251158.837247) can0 291#0000000000000000
(1447251158.839805) can0 008#800080003B148034
(1447251158.841742) can0 072#2080000027FF00F0
(1447251158.844403) can0 0F5#40426F7F80008000
(1447251158.844672) can0 120#8956076F80008000
(1447251158.844901) can0 130#11FF4300001DFFDE
(1447251158.845169) can0 150#C043E7FFB7FE0000
(1447251158.846897) can0 581#8100FFFFFFFFFFFF
(1447251158.847175) can0 010#F831B02F80008000
(1447251158.847418) can0 1D0#6100ED218ADCC500
(1447251158.847661) can0 400#1801010201000101
(1447251158.849775) can0 008#800080002B248034
(1447251158.851117) can0 055#809C00B227FFF7FF
(1447251158.851386) can0 065#01DE8E00F7F6E000
(1447251158.851629) can0 070#000EF200F8076000
(1447251158.851826) can0 075#1854000000000000
(1447251158.852096) can0 080#802600F200804FFF
(1447251158.852298) can0 0B0#A352C200A2698352
(1447251158.852543) can0 145#211040FC8050F2FD
(1447251158.852785) can0 210#4E0D09D02000DF90
(1447251158.854442) can0 1B0#EC00B00000008000
(1447251158.854749) can0 1B5#2FFFC0070C070DF9
(1447251158.855064) can0 1D8#6380303135303734
(1447251158.855268) can0 1E0#E017BD80C12B3400
(1447251158.857025) can0 010#F831B02F80008000
(1447251158.857334) can0 072#20A0000027FF00F0
(1447251158.857575) can0 2A9#840000C0D30006AC
(1447251158.859819) can0 008#800080001B348034
(1447251158.861689) can0 360#01A0000349013082
(1447251158.864402) can0 0F5#4032737F80008000
(1447251158.864672) can0 120#8956076F80008000
(1447251158.864915) can0 130#11FF3300001DFFE6
(1447251158.865143) can0 150#C033E7FFC7FE0000
(1447251158.866961) can0 010#F831B02F80008000
(1447251158.867240) can0 1D0#6100ED218ADCC500
(1447251158.867483) can0 291#0000000000000000
(1447251158.867701) can0 390#4F581E020000FF80
(1447251158.869806) can0 008#800080000B448034
(1447251158.871102) can0 055#809C00B227FFF7FF
(1447251158.871371) can0 065#01DE8E00F7F6E000
(1447251158.871588) can0 070#000EF200F8076000
(1447251158.871831) can0 072#2080000027FF00F0
(1447251158.872082) can0 075#1854000000000000
(1447251158.872294) can0 080#802600F200804FFF
(1447251158.872542) can0 0B0#A352C200A2698352
(1447251158.872785) can0 145#210040FC8050F2FD
(1447251158.873019) can0 28C#00BE3800000040A0
(1447251158.873262) can0 2B5#0022ADB35200004B
(1447251158.873537) can0 3B0#00C400002836D800
(1447251158.874466) can0 1B0#EC00B00000008000
(1447251158.874709) can0 1B5#2FFFC0070C070DF9
(1447251158.874952) can0 1D8#6380303135303734
(1447251158.875267) can0 1E0#E017BD80812B3400
(1447251158.875510) can0 2C3#505406FFFF013082
(1447251158.877025) can0 010#F831B02F80008000
(1447251158.877270) can0 210#460D09D0A000DF90
(1447251158.877538) can0 330#0000000000000000
(1447251158.877773) can0 3D0#C2800187006109A0
(1447251158.879772) can0 008#80008000FB548034
(1447251158.881687) can0 430#C6380000002E0830
(1447251158.884336) can0 0F5#4022777F80008000
(1447251158.884644) can0 120#8956076F80008000
(1447251158.884887) can0 130#11FF2300001DFFEE
(1447251158.885116) can0 150#C023E7FFD7FE0000
(1447251158.886935) can0 010#F831B02F80008000
(1447251158.887208) can0 072#20A0000027FF00F0
(1447251158.887488) can0 1D0#6100ED218ADCC500
(1447251158.889819) can0 008#80008000EB648034
(1447251158.891116) can0 055#809C00B227FFF7FF
(1447251158.891358) can0 065#01DE8E00F7F6E000
(1447251158.891602) can0 070#000EF200F8076000
(1447251158.891845) can0 075#1854000000000000
(1447251158.892096) can0 080#802600F200804FFF
(1447251158.892294) can0 0B0#A352C200A2698352
(1447251158.892535) can0 145#A11040FC8050F2FD
(1447251158.892824) can0 2C0#E5A0000002000000
(1447251158.893024) can0 2C5#0000E00000008700
(1447251158.894410) can0 1B0#EC00B00000008000
(1447251158.894722) can0 1B5#2FFFC0070C070DF9
(1447251158.894951) can0 1D8#6280303135303734
(1447251158.895254) can0 1E0#E017BD80C11B3800
(1447251158.897024) can0 010#F931B02F80008000
(1447251158.897333) can0 291#0000000000000000
(1447251158.897574) can0 2A9#840000C0CA0006AC
(1447251158.899818) can0 008#80008000DB748034
(1447251158.901403) can0 072#2080000027FF00F0
(1447251158.901622) can0 210#4E0D09D0A000DF90
(1447251158.904401) can0 0F5#40127B7F80008000
(1447251158.904644) can0 120#8956076F80008000
(1447251158.904887) can0 130#11FF1300001DFFF6
(1447251158.905142) can0 150#C013E7FFE7FE0000
(1447251158.906960) can0 010#F831B02F80008000
(1447251158.907257) can0 1D0#610AED218ADCC500
(1447251158.909816) can0 008#80008000CB848034
(1447251158.911116) can0 055#809C00B227FFF7FF
(1447251158.911358) can0 065#01DE8E00F7F6E000
(1447251158.911601) can0 070#000EF200F8076000
(1447251158.911844) can0 075#1854000000000000
(1447251158.912072) can0 080#802600F200804FFF
(1447251158.912294) can0 0B0#A352C200A2698352
(1447251158.912535) can0 145#211040FC8050F2FD
(1447251158.912780) can0 28C#00BE3800000040A0
(1447251158.913019) can0 2B5#0022ADB35200004B
(1447251158.913262) can0 370#00D3435400900004
(1447251158.914411) can0 1B0#EC00B00000008000
(1447251158.914722) can0 1B5#2FFFC0070C070DF9
(1447251158.914939) can0 1D8#6380303135303734
(1447251158.915280) can0 1E0#E017BD80C10B3C00
(1447251158.915523) can0 2C3#505406FFFF013082
(1447251158.917101) can0 010#F831B02F80008000
(1447251158.917345) can0 072#20A0000027FF00F0
(1447251158.919778) can0 008#80008000BB948034
(1447251158.924401) can0 0F5#40027F7F80008000
(1447251158.924670) can0 120#8956076F80008000
(1447251158.924888) can0 130#11FF0300001DFFFE
(1447251158.925167) can0 150#C003E7FFF7FE0000
(1447251158.927049) can0 010#F831B02F80008000
(1447251158.927331) can0 1D0#6100ED218ADCC500
(1447251158.927600) can0 210#460D09D0A000DF90
(1447251158.927800) can0 291#0000000000000000
(1447251158.929780) can0 008#80008000ABA48034
(1447251158.931070) can0 055#809C00B227FFF7FF
(1447251158.931368) can0 065#01DE8E00F7F6E000
(1447251158.931627) can0 070#000EF200F8076000
(1447251158.931827) can0 072#2080000027FF00F0
(1447251158.932078) can0 075#1854000000000000
(1447251158.932321) can0 080#802600F200804FFF
(1447251158.932563) can0 0B0#A352C200A2698352
(1447251158.932780) can0 145#210040FC8050F2FD
(1447251158.934459) can0 1B0#EC00B00000008000
(1447251158.934702) can0 1B5#2FFFC0070C070DF9
(1447251158.935018) can0 1D8#6380303135303734
(1447251158.935306) can0 1E0#E017BD80810B3C00
(1447251158.937063) can0 010#F831B02F80008000
(1447251158.937308) can0 2A9#840000C0D30006AC
(1447251158.939816) can0 008#800080009BB48034
(1447251158.944401) can0 0F5#40F2437F80008000
(1447251158.944644) can0 120#8956076F80008000
(1447251158.944913) can0 130#11FFF300001DFF86
(1447251158.945141) can0 150#C0F3E7FF07FE0000
(1447251158.945369) can0 3CA#C000001100000000
(1447251158.947049) can0 010#F831B02F80008000
(1447251158.947317) can0 072#20A0000027FF00F0
(1447251158.947560) can0 1D0#6100ED218ADCC500
(1447251158.949778) can0 008#800080008BC48034
(1447251158.951102) can0 055#809C00B227FFF7FF
(1447251158.951369) can0 065#01DE8E00F7F6E000
(1447251158.951612) can0 070#000EF200F8076000
(1447251158.951829) can0 075#1854000000000000
(1447251158.952080) can0 080#802600F200804FFF
(1447251158.952292) can0 0B0#A352C200A2698352
(1447251158.952566) can0 145#A11040FC8050F2FD
(1447251158.952784) can0 210#4E0D09D0A000DF90
(1447251158.953023) can0 28C#00BE3800000040A0
