(1447251246.576407) can0 010#F831B02F80008000
(1447251246.576669) can0 291#0000000000000000
(1447251246.576909) can0 330#0000000000000000
(1447251246.581036) can0 072#2080000027FF00F0
(1447251246.585892) can0 581#8100FFFFFFFFFFFF
(1447251246.586371) can0 010#F831B02F80008000
(1447251246.586614) can0 1D0#6108ED218ADCC500
(1447251246.590943) can0 210#460C09D02000DFCB
(1447251246.596372) can0 010#F831B02F80008000
(1447251246.596639) can0 072#20A0000027FF00F0
(1447251246.596883) can0 2A9#840000C0CA0006AE
(1447251246.601020) can0 360#01A0000341013082
(1447251246.605632) can0 008#80008000FD0D8000
(1447251246.606188) can0 010#F931B02F80008000
(1447251246.606432) can0 1D0#6102ED218ADCC500
(1447251246.606700) can0 291#0000000000000000
(1447251246.606944) can0 390#6F581E020000FF80
(1447251246.611111) can0 072#2080000027FF00F0
(1447251246.611379) can0 3B0#02C400002C36D800
(1447251246.615657) can0 008#80008000ED1D8000
(1447251246.616266) can0 010#F831B02F80008000
(1447251246.616508) can0 210#4E0C09D0A000DFCB
(1447251246.616752) can0 3D0#C28001A3006109A0
(1447251246.620943) can0 430#C638000000300832
(1447251246.625658) can0 008#80008000DD2D8000
(1447251246.626292) can0 010#F831B02F80008000
(1447251246.626534) can0 072#20A0000027FF00F0
(1447251246.626778) can0 1D0#6100ED218ADCC500
(1447251246.635631) can0 008#80008000CD3D8000
(1447251246.636317) can0 010#F831B02F80008000
(1447251246.636586) can0 291#0000000000000000
(1447251246.636829) can0 2A9#840000C0D30006AC
(1447251246.640916) can0 072#2080000027FF00F0
(1447251246.641222) can0 210#460C09D0A000DFC9
(1447251246.645631) can0 008#80008000BD4D8000
(1447251246.646369) can0 010#F831B02F80008000
(1447251246.646612) can0 1D0#6100ED218ADCC500
(1447251246.655629) can0 008#80008000AD5D8000
(1447251246.656135) can0 010#F831B02F80008000
(1447251246.656404) can0 072#20A0000027FF00F0
(1447251246.656647) can0 330#0000000000000000
(1447251246.665657) can0 008#800080009D6D8000
(1447251246.666239) can0 010#F831B02F80008000
(1447251246.666482) can0 1D0#6108ED218ADCC500
(1447251246.666725) can0 210#460C09D0A000DFC9
(1447251246.667031) can0 291#0000000000000000
(1447251246.667299) can0 055#8004000147FFD7FF
(1447251246.667569) can0 065#0200020027FF2000
(1447251246.667836) can0 070#0000020017FF0000
(1447251246.668113) can0 075#0000000000000000
(1447251246.668353) can0 080#0006000200000FFF
(1447251246.668646) can0 0B0#2000020002000000
(1447251246.668647) can0 145#000000FC0020F1C0
(1447251246.668919) can0 28C#0006370000000000
(1447251246.669195) can0 2B5#0000000000000005
(1447251246.669437) can0 2C0#4000000000000000
(1447251246.669686) can0 2C5#0000000000000000
(1447251246.669920) can0 370#00D1015400000000
(1447251246.670222) can0 3AF#0000000000000000
(1447251246.670414) can0 3E0#0000182800000000
(1447251246.671170) can0 072#2080000027FF00F0
(1447251246.675611) can0 008#800080008D7D8000
(1447251246.676291) can0 010#F831B02F80008000
(1447251246.676560) can0 2A9#840000C0CA0006AC
(1447251246.685630) can0 008#800080007D8D8000
(1447251246.686395) can0 010#F831B02F80008000
(1447251246.686664) can0 072#20A0000027FF00F0
(1447251246.686905) can0 1D0#6102ED218ADCC500
(1447251246.687247) can0 055#809C00B367FFF808
(1447251246.687516) can0 065#02008E00D7FFE000
(1447251246.687786) can0 070#000EF20057FF6000
(1447251246.688088) can0 075#0854000000000000
(1447251246.688089) can0 080#802200E200805009
(1447251246.688357) can0 0B0#8352C222A2008352
(1447251246.688570) can0 145#A11060FC8050F2F8
(1447251246.691000) can0 210#460C09D0A000DFC9
(1447251246.695597) can0 008#800080006D9D8000
(1447251246.696290) can0 010#F831B02F80008000
(1447251246.696559) can0 291#0000000000000000
(1447251246.701030) can0 072#2080000027FF00F0
(1447251246.701274) can0 360#01A0000341013082
(1447251246.705655) can0 008#800080005DAD8000
(1447251246.706160) can0 010#F831B02F80008000
(1447251246.706429) can0 1D0#6100ED218ADCC500
(1447251246.706671) can0 390#4F591A020000FF80
(1447251246.707030) can0 055#809C00B367FFF7FF
(1447251246.707247) can0 065#01DE8E00D7F8E000
(1447251246.707490) can0 070#000EF20058076000
(1447251246.707733) can0 075#1854000000000000
(1447251246.707950) can0 080#802600E200805009
(1447251246.708217) can0 0B0#8352C200A2698352
(1447251246.708484) can0 145#211060FC8050F2F8
(1447251246.708784) can0 28C#00BE370000000000
(1447251246.709029) can0 2B5#0000AD935200004B
(1447251246.715604) can0 008#800080004DBD8000
(1447251246.716186) can0 010#F831B02F80008000
(1447251246.716455) can0 072#20A0000027FF00F0
(1447251246.716698) can0 210#460C09D0A000DFC9
(1447251246.716941) can0 2A9#840000C0D30006AC
(1447251246.726264) can0 008#8000800004CC803B
(1447251246.726533) can0 010#F831B02F80008000
(1447251246.726775) can0 1D0#6100ED218ADCC500
(1447251246.727030) can0 055#809C00B367FFF7FF
(1447251246.727241) can0 065#01DE8E00D7F7E000
(1447251246.727458) can0 070#000EF20058076000
(1447251246.727699) can0 075#1854000000000000
(1447251246.728030) can0 080#802600E200804FFF
(1447251246.728297) can0 0B0#A352C200A2698352
(1447251246.728567) can0 145#210040FC8050F2FD
(1447251246.728835) can0 291#0000000000000000
(1447251246.729108) can0 2C0#F5A0000000000000
(1447251246.729108) can0 2C5#0000E00000008700
(1447251246.731084) can0 072#2080000027FF00F0
(1447251246.731376) can0 3B0#00C600002836FC00
(1447251246.736264) can0 008#80008000F4DC803B
(1447251246.736531) can0 010#F831B02F80008000
(1447251246.736775) can0 330#0000000000000000
(1447251246.740914) can0 210#460C09D02000DFC9
(1447251246.746264) can0 008#80008000E4EC803B
(1447251246.746532) can0 010#F831B02F80008000
(1447251246.746750) can0 072#20A0000027FF00F0
(1447251246.747029) can0 055#809C00B367FFF7FF
(1447251246.747272) can0 065#01DE8E00D7F6E000
(1447251246.747514) can0 070#000EF20058076000
(1447251246.747732) can0 075#1854000000000000
(1447251246.747998) can0 080#802600E200804FFF
(1447251246.748265) can0 0B0#A352C200A2698352
(1447251246.748566) can0 145#A11040FC8050F2FD
(1447251246.748835) can0 1D0#6108ED218ADCC500
(1447251246.749133) can0 28C#00BE370000005000
(1447251246.749134) can0 2B5#0022ADB35200004B
(1447251246.756158) can0 010#F931B02F80008000
(1447251246.756428) can0 008#80008000D4FC803B
(1447251246.756670) can0 291#0000000000000000
(1447251246.756913) can0 2A9#840000C0CA0006AC
(1447251246.761134) can0 072#2080000027FF00F0
(1447251246.762172) can0 0F5#00811CB500000000
(1447251246.762442) can0 120#0800AF0500000000
(1447251246.762684) can0 130#01FF8300000C9938
(1447251246.762927) can0 150#0083C7FF75560000
(1447251246.763189) can0 3CA#0000000000000000
(1447251246.766252) can0 008#80008000C40C803B
(1447251246.766520) can0 010#F831B02F80008000
(1447251246.766763) can0 1D0#6102ED218ADCC500
(1447251246.767042) can0 055#809C00B367FFF7FF
(1447251246.767241) can0 065#01DE8E00D7F6E000
(1447251246.767527) can0 070#000EF20058076000
(1447251246.767797) can0 075#1854000000000000
(1447251246.768074) can0 080#802600E200804FFF
(1447251246.768298) can0 0B0#A352C200A2698352
(1447251246.768594) can0 145#211040FC8050F2FD
(1447251246.768594) can0 210#460C09D0A000DFC9
(1447251246.768866) can0 370#00D3435400900004
(1447251246.772108) can0 1B0#E400B00000004000
(1447251246.772343) can0 1B5#2FFFC000000000F9
(1447251246.772618) can0 1D8#6380000000000000
(1447251246.772833) can0 1E0#E016BD8001BB1000
(1447251246.773076) can0 2C3#505400FFFF013082
(1447251246.776250) can0 008#80008000B41C803B
(1447251246.776519) can0 010#F831B02F80008000
(1447251246.776762) can0 072#20A0000027FF00F0
(1447251246.777042) can0 405#023F350030013082
(1447251246.782122) can0 0F5#007163B580008000
(1447251246.782363) can0 120#89546C4580008000
(1447251246.782606) can0 130#11FF7300001C99C4
(1447251246.782804) can0 150#C073C7FF84CE0000
(1447251246.786205) can0 008#80008000A42C803B
(1447251246.786473) can0 010#F831B02F80008000
(1447251246.786747) can0 1D0#6100ED218ADCC500
(1447251246.787042) can0 055#809C00B367FFF7FF
(1447251246.787310) can0 065#01DE8E00F7F6E000
(1447251246.787579) can0 070#000EF200F8076000
(1447251246.787834) can0 075#1854000000000000
(1447251246.788100) can0 080#802600E200804FFF
(1447251246.788101) can0 0B0#A352C200A2698352
(1447251246.788415) can0 145#210040FC8050F2FD
(1447251246.788646) can0 28C#00BE370000005000
(1447251246.788880) can0 291#0000000000000000
(1447251246.789221) can0 2B5#0022ADB35200004B
(1447251246.789496) can0 2C0#E5A0000001000000
(1447251246.789758) can0 2C5#0000E00000008700
(1447251246.790002) can0 3AF#2000000000000000
(1447251246.791002) can0 072#2080000027FF00F0
(1447251246.791309) can0 210#460C09D0A000DFC9
(1447251246.792137) can0 1B0#EC00B00000008000
(1447251246.792421) can0 1B5#2FFFC000000000F9
(1447251246.792664) can0 1D8#6380000000000000
(1447251246.792892) can0 1E0#E016BD8041AB1400
(1447251246.796251) can0 008#80008000943C803B
(1447251246.796519) can0 010#F831B02F80008000
(1447251246.796762) can0 2A9#840000C0D30006AC
(1447251246.801004) can0 360#01A0000340013082
(1447251246.802095) can0 0F5#006167B580008000
(1447251246.802363) can0 120#8954294580008000
(1447251246.802580) can0 130#11FF6300001C99CC
(1447251246.802809) can0 150#C063C7FF94460000
(1447251246.806251) can0 008#80008000844C803B
(1447251246.806519) can0 010#F831B02F80008000
(1447251246.806761) can0 072#20A0000027FF00F0
(1447251246.807027) can0 055#809C00B367FFF7FF
(1447251246.807265) can0 065#01DE8E00F7F6E000
(1447251246.807532) can0 070#000EF200F8076000
(1447251246.807846) can0 075#1854000000000000
(1447251246.808120) can0 080#802600E200804FFF
(1447251246.808414) can0 0B0#A352C200A2698352
(1447251246.808415) can0 145#A11040FC8050F2FD
(1447251246.808657) can0 1D0#6100ED218ADCC500
(1447251246.808901) can0 390#4F5A16020000FF80
(1447251246.812147) can0 1B0#EC00B00000008000
(1447251246.812415) can0 1B5#2FFFC000000000F9
(1447251246.812657) can0 1D8#6380000000000000
(1447251246.812856) can0 1E0#E016BD80419B1800
(1447251246.813079) can0 2C3#505400FFFF013082
(1447251246.816251) can0 008#80008000745C803B
(1447251246.816518) can0 010#F831B02F80008000
(1447251246.816721) can0 210#4E0C09D0A000DFC9
(1447251246.817041) can0 291#0000000000000000
(1447251246.817259) can0 330#0000000000000000
(1447251246.817502) can0 3D0#C28001A3006109A0
(1447251246.820900) can0 072#2080000027FF00F0
(1447251246.822120) can0 0F5#00516BB580008000
(1447251246.822362) can0 120#8954004580008000
(1447251246.822606) can0 130#11FF5300001C99D4
(1447251246.822848) can0 150#C053C7FFA3BD0000
(1447251246.826251) can0 008#80008000646C803B
(1447251246.826518) can0 010#F831B02F80008000
(1447251246.826762) can0 1D0#6100ED218ADCC500
(1447251246.827027) can0 055#809C00B367FFF7FF
(1447251246.827265) can0 065#01DE8E00F7F6E000
(1447251246.827533) can0 070#000EF200F8076000
(1447251246.827850) can0 075#1854000000000000
(1447251246.828145) can0 080#802600E200804FFF
(1447251246.828146) can0 0B0#A352C200A2698352
(1447251246.828414) can0 145#211040FC8050F2FD
(1447251246.828657) can0 28C#00BE370000005000
(1447251246.828861) can0 2B5#0022ADB35200004B
(1447251246.832237) can0 1B0#EC00B00000008000
(1447251246.832544) can0 1B5#2FFFC000000000F9
(1447251246.832773) can0 1D8#6380000000000000
(1447251246.833041) can0 1E0#E016BD80019B1800
(1447251246.836180) can0 008#80008000547C803B
(1447251246.836492) can0 010#F931B02F80008000
(1447251246.836761) can0 072#20A0000027FF00F0
(1447251246.837040) can0 2A9#840000C0CA0006AC
(1447251246.837259) can0 400#0161020101780201
(1447251246.840911) can0 210#4E0C09D0A000DFC9
(1447251246.842147) can0 0F5#00416FB580008000
(1447251246.842398) can0 120#8954004580008000
(1447251246.842640) can0 130#11FF4300001C99DC
(1447251246.842884) can0 150#C043C7FFB3350000
(1447251246.846180) can0 008#80008000448C803B
(1447251246.846484) can0 010#F831B02F80008000
(1447251246.846736) can0 1D0#610AED218ADCC500
(1447251246.847041) can0 055#809C00B367FFF7FF
(1447251246.847296) can0 065#01DE8E00F7F6E000
(1447251246.847533) can0 070#000EF200F8076000
(1447251246.847833) can0 075#1854000000000000
(1447251246.848144) can0 080#802600F200804FFF
(1447251246.848145) can0 0B0#A352C200A2698352
(1447251246.848414) can0 145#210040FC8050F2FD
(1447251246.848617) can0 291#0000000000000000
(1447251246.848860) can0 2C0#E5A0000001000000
(1447251246.849111) can0 2C5#0000E00000008700
(1447251246.851003) can0 072#2080000027FF00F0
(1447251246.851308) can0 3B0#00C400002836D800
(1447251246.852196) can0 1B0#EC00B00000008000
(1447251246.852466) can0 1B5#2FFFC000000000F9
(1447251246.852708) can0 1D8#6380000000000000
(1447251246.852913) can0 1E0#E016BD80418B1C00
(1447251246.853200) can0 2C3#505400FFFF013082
(1447251246.856134) can0 010#F831B02F80008000
(1447251246.856440) can0 008#80008000349C803B
(1447251246.862094) can0 0F5#003173B580008000
(1447251246.862362) can0 120#8954004580008000
(1447251246.862604) can0 130#11FF3300001C99E4
(1447251246.862848) can0 150#C033C7FFC2AD0000
(1447251246.866250) can0 008#8000800024AC803B
(1447251246.866478) can0 010#F831B02F80008000
(1447251246.866703) can0 072#20A0000027FF00F0
(1447251246.867040) can0 055#809C00B367FFF7FF
(1447251246.867309) can0 065#01DE8E00F7F6E000
(1447251246.867533) can0 070#000EF200F8076000
(1447251246.867846) can0 075#1854000000000000
(1447251246.868144) can0 080#802600F200804FFF
(1447251246.868145) can0 0B0#A352C200A2698352
(1447251246.868413) can0 145#A11040FC8050F2FD
(1447251246.868650) can0 1D0#6100ED218ADCC500
(1447251246.868899) can0 210#460C09D0A000DFC9
(1447251246.869150) can0 28C#00BE370000005000
(1447251246.869376) can0 2B5#0022ADB35200004B
(1447251246.869619) can0 370#00D3435400900004
(1447251246.872130) can0 1B0#EC00B00000008000
(1447251246.872393) can0 1B5#2FFFC000000000F9
(1447251246.872665) can0 1D8#6380000000000000
(1447251246.872907) can0 1E0#E016BD80417B2000
(1447251246.876216) can0 008#8000800014BC803B
(1447251246.876477) can0 010#F831B02F80008000
(1447251246.876720) can0 291#0000000000000000
(1447251246.877026) can0 2A9#840000C0C20006AC
(1447251246.881028) can0 072#2080000027FF00F0
(1447251246.882105) can0 0F5#002177B580008000
(1447251246.882373) can0 120#8954004580008000
(1447251246.882616) can0 130#11FF2300001C99EC
(1447251246.882833) can0 150#C023C7FFD2250000
(1447251246.883084) can0 3CA#C000001100000000
(1447251246.886208) can0 008#8000800004CC803B
(1447251246.886478) can0 010#F831B02F80008000
(1447251246.886720) can0 1D0#6100ED218ADCC500
(1447251246.886995) can0 055#809C00B367FFF7FF
(1447251246.887262) can0 065#01DE8E00F7F6E000
(1447251246.887578) can0 070#000EF200F8076000
(1447251246.887839) can0 075#1854000000000000
(1447251246.888105) can0 080#802600F200804FFF
(1447251246.888105) can0 0B0#A352C200A2698352
(1447251246.888348) can0 145#211040FC8050F2FD
(1447251246.891004) can0 210#4E0C09D02000DFC9
(1447251246.892104) can0 1B0#EC00B00000008000
(1447251246.892342) can0 1B5#2FFFC000000000F9
(1447251246.892611) can0 1D8#6380000000000000
(1447251246.892827) can0 1E0#E016BD80017B2000
(1447251246.893081) can0 2C3#505400FFFF013082
(1447251246.896176) can0 008#80008000F4DC803B
(1447251246.896477) can0 010#F831B02F80008000
(1447251246.896720) can0 072#20A0000027FF00F0
(1447251246.897026) can0 330#0000000000000000
(1447251246.901026) can0 360#01A0000340013082
(1447251246.902130) can0 0F5#00117BB580008000
(1447251246.902399) can0 120#8954004580008000
(1447251246.902642) can0 130#11FF1300001C99F4
(1447251246.902885) can0 150#C013C7FFE19C0000
(1447251246.906209) can0 008#80008000E4EC803B
(1447251246.906477) can0 010#F831B02F80008000
(1447251246.906719) can0 1D0#6100ED218ADCC500
(1447251246.907026) can0 055#809C00B367FFF7FF
(1447251246.907294) can0 065#01DE8E00F7F6E000
(1447251246.907532) can0 070#000EF200F8076000
(1447251246.907832) can0 075#1854000000000000
(1447251246.908129) can0 080#802600F200804FFF
(1447251246.908130) can0 0B0#A352C200A2698352
(1447251246.908373) can0 145#210040FC8050F2FD
(1447251246.908616) can0 28C#00BE370000004000
(1447251246.908884) can0 291#0000000000000000
(1447251246.909135) can0 2B5#0022ADB35200004B
(1447251246.909378) can0 2C0#E5A0000001000000
(1447251246.909648) can0 2C5#0000E00000008700
(1447251246.909916) can0 390#4F5B12020000FF80
(1447251246.910191) can0 3AF#2000000000000000
(1447251246.911156) can0 072#2080000027FF00F0
(1447251246.912156) can0 1B0#EC00B00000008000
(1447251246.912424) can0 1B5#2FFFC000000000F9
(1447251246.912667) can0 1D8#6380000000000000
(1447251246.912883) can0 1E0#E016BD80416B2400
(1447251246.916183) can0 008#80008000D4FC803B
(1447251246.916476) can0 010#F931B02F80008000
(1447251246.916719) can0 210#4E0C09D0A000DF93
(1447251246.917025) can0 2A9#840000C0DB0006AC
(1447251246.922130) can0 0F5#00017FB580008000
(1447251246.922372) can0 120#8954004580008000
(1447251246.922615) can0 130#11FF0300001C99FC
(1447251246.922858) can0 150#C003C7FFF1140000
(1447251246.926209) can0 008#80008000C40C803B
(1447251246.926476) can0 010#F831B02F80008000
(1447251246.926720) can0 072#20A0000027FF00F0
(1447251246.926994) can0 055#809C00B367FFF7FF
(1447251246.927294) can0 065#01DE8E00F7F6E000
(1447251246.927562) can0 070#000EF200F8076000
(1447251246.927832) can0 075#1854000000000000
(1447251246.928129) can0 080#802600F200804FFF
(1447251246.928130) can0 0B0#A352C200A2698352
(1447251246.928398) can0 145#A11040FC8050F2FD
(1447251246.928616) can0 1D0#610AED218ADCC500
(1447251246.932104) can0 1B0#EC00B00000008000
(1447251246.932399) can0 1B5#2FFFC000000000F9
(1447251246.932641) can0 1D8#6380000000000000
(1447251246.932884) can0 1E0#E016BD80415B2800
(1447251246.933135) can0 2C3#505400FFFF013082
(1447251246.936221) can0 008#80008000B41C803B
(1447251246.936490) can0 010#F831B02F80008000
(1447251246.936733) can0 291#0000000000000000
(1447251246.940924) can0 072#2080000027FF00F0
(1447251246.941187) can0 210#460C09D0A000DF93
(1447251246.942073) can0 0F5#00F143B580008000
(1447251246.942386) can0 120#8954004580008000
(1447251246.942628) can0 130#11FFF300001C9984
(1447251246.942871) can0 150#C0F3C7FF008C0000
(1447251246.946222) can0 008#80008000A42C803B
(1447251246.946490) can0 010#F831B02F80008000
(1447251246.946733) can0 1D0#6100ED218ADCC500
(1447251246.946993) can0 055#809C00B227FFF7FF
(1447251246.947261) can0 065#01DE8E00F7F6E000
(1447251246.947576) can0 070#000EF200F8076000
(1447251246.947844) can0 075#1854000000000000
(1447251246.948143) can0 080#802600F200804FFF
(1447251246.948144) can0 0B0#A352C200A2698352
(1447251246.948386) can0 145#211040FC8050F2FD
(1447251246.948628) can0 28C#00BE370000004000
(1447251246.948872) can0 2B5#0022ADB35200004B
(1447251246.952081) can0 1B0#EC00B00000008000
(1447251246.952362) can0 1B5#2FFFC000000000F9
(1447251246.952630) can0 1D8#6380000000000000
(1447251246.952853) can0 1E0#E016BD80015B2800
(1447251246.956194) can0 008#80008000943C803B
(1447251246.956464) can0 010#F831B02F80008000
(1447251246.956732) can0 072#20A0000027FF00F0
(1447251246.957038) can0 2A9#840000C0C20006AC
(1447251246.962099) can0 0F5#00E147B580008000
(1447251246.962365) can0 120#8954004580008000
(1447251246.962653) can0 130#11FFE300001C998C
(1447251246.962896) can0 150#C0E3C7FF10040000
(1447251246.966195) can0 008#80008000844C803B
(1447251246.966463) can0 010#F831B02F80008000
(1447251246.966706) can0 1D0#6100ED218ADCC500
(1447251246.966949) can0 055#809C00B227FFF7FF
(1447251246.967257) can0 065#01DE8E00F7F6E000
(1447251246.967490) can0 070#000EF200F8076000
(1447251246.967754) can0 075#1854000000000000
(1447251246.968020) can0 080#802600F200804FFF
(1447251246.968316) can0 0B0#A352C200A2698352
(1447251246.968317) can0 145#210040FC8050F2FD
(1447251246.968559) can0 210#460C09D0A000DF93
(1447251246.968833) can0 291#0000000000000000
(1447251246.969080) can0 2C0#E5A0000000000000
(1447251246.969306) can0 2C5#0000E00000008700
(1447251246.969537) can0 370#00D3435400900004
(1447251246.969786) can0 3E0#0080983F18000000
(1447251246.971005) can0 072#2080000027FF00F0
(1447251246.971267) can0 3B0#00C400002836D800
(1447251246.972072) can0 1B0#EC00B00000008000
(1447251246.972385) can0 1B5#2FFFC000000000F9
(1447251246.972655) can0 1D8#6380000000000000
(1447251246.972865) can0 1E0#E016BD80414B2C00
(1447251246.973115) can0 2C3#505400FFFF013082
(1447251246.976155) can0 008#80008000745C803B
(1447251246.976463) can0 010#F831B02F80008000
(1447251246.976732) can0 330#0000000000000000
(1447251246.982092) can0 0F5#00D24B7580008000
(1447251246.982333) can0 120#8954004580008000
(1447251246.982576) can0 130#11FFD300001C9994
(1447251246.982819) can0 150#C0D3C7FF20000000
(1447251246.986196) can0 008#80008000646C803B
(1447251246.986463) can0 010#F831B02F80008000
(1447251246.986693) can0 072#20A0000027FF00F0
(1447251246.986952) can0 1D0#6108ED218ADCC500
(1447251246.987261) can0 055#809C00B227FFF7FF
(1447251246.987529) can0 065#01DE8E00F7F6E000
(1447251246.987798) can0 070#000EF200F8076000
(1447251246.988064) can0 075#1854000000000000
(1447251246.988319) can0 080#802600F200804FFF
(1447251246.988320) can0 0B0#A352C200A2698352
(1447251246.988588) can0 145#A11040FC8050F2FD
(1447251246.988831) can0 28C#00BE370000004000
(1447251246.989056) can0 2B5#0022ADB35200004B
(1447251246.991207) can0 210#460C09D0A000DF93
(1447251246.992142) can0 1B0#EC00B00000008000
(1447251246.992411) can0 1B5#2FFFC000000000F9
(1447251246.992653) can0 1D8#6380000000000000
(1447251246.992897) can0 1E0#E016BD80413B3000
(1447251246.996193) can0 008#80008000547C803B
(1447251246.996463) can0 010#F931B02F80008000
(1447251246.996706) can0 291#0000000000000000
(1447251246.996949) can0 2A9#840000C0CA0006AC
(1447251247.000993) can0 072#2080000027FF00F0
(1447251247.001209) can0 360#01A0000341013082
(1447251247.002116) can0 0F5#00C24F7580008000
(1447251247.002359) can0 120#8954004580008000
(1447251247.002602) can0 130#11FFC300001C999C
(1447251247.002844) can0 150#C0C3C7FF30000000
(1447251247.003095) can0 3CA#C000001200000000
(1447251247.006195) can0 008#80008000448C803B
(1447251247.006462) can0 010#F831B02F80008000
(1447251247.006660) can0 1D0#6102ED218ADCC500
(1447251247.006876) can0 390#4F5C0E020000FF80
(1447251247.007259) can0 055#809C00B227FFF7FF
(1447251247.007528) can0 065#01DE8E00F7F6E000
(1447251247.007797) can0 070#000EF200F8076000
(1447251247.008063) can0 075#1854000000000000
(1447251247.008359) can0 080#802600F200804FFF
(1447251247.008359) can0 0B0#A352C200A2698352
(1447251247.008602) can0 145#211040FC8050F2FD
(1447251247.012116) can0 1B0#EC00B00000008000
(1447251247.012384) can0 1B5#2FFFC000000000F9
(1447251247.012582) can0 1D8#6380000000000000
(1447251247.012824) can0 1E0#E016BD80013B3000
(1447251247.013069) can0 2C3#505400FFFF013082
(1447251247.016227) can0 008#80008000349C803B
(1447251247.016471) can0 010#F831B02F80008000
(1447251247.016688) can0 072#20A0000027FF00F0
(1447251247.016957) can0 210#4E0C09D0A000DF93
(1447251247.017229) can0 3D0#C28001A3006109A0
(1447251247.022115) can0 0F5#00B2537580008000
(1447251247.022384) can0 120#8954004580008000
(1447251247.022627) can0 130#11FFB300001C99A4
(1447251247.022825) can0 150#C0B3C7FF40000000
(1447251247.026149) can0 008#8000800024AC803B
(1447251247.026417) can0 010#F831B02F80008000
(1447251247.026705) can0 1D0#6100ED218ADCC500
(1447251247.026948) can0 291#0000000000000000
(1447251247.027256) can0 055#809C00B227FFF7FF
(1447251247.027525) can0 065#01DE8E00F7F6E000
(1447251247.027793) can0 070#000EF200F8076000
(1447251247.028063) can0 075#1854000000000000
(1447251247.028358) can0 080#802600F200804FFF
(1447251247.028359) can0 0B0#A352C200A2698352
(1447251247.028562) can0 145#210040FC8050F2FD
(1447251247.028799) can0 28C#00BE370000004000
(1447251247.029048) can0 2B5#0022ADB35200004B
(1447251247.029292) can0 2C0#E5A0000001000000
(1447251247.029540) can0 2C5#0000E00000008700
(1447251247.029782) can0 3AF#2000000000000000
(1447251247.030023) can0 405#0000000000000000
(1447251247.031049) can0 072#2080000027FF00F0
(1447251247.032101) can0 1B0#EC00B00000008000
(1447251247.032410) can0 1B5#2FFFC000000000F9
(1447251247.032613) can0 1D8#6380000000000000
(1447251247.032830) can0 1E0#E016BD80412B3400
(1447251247.036154) can0 008#8000800014BC803B
(1447251247.036461) can0 010#F831B02F80008000
(1447251247.036704) can0 2A9#840000C0D30006AC
(1447251247.041090) can0 210#4E0C09D02000DF93
(1447251247.042088) can0 0F5#00A2577580008000
(1447251247.042357) can0 120#8954004580008000
(1447251247.042600) can0 130#11FFA300001C99AC
(1447251247.042844) can0 150#C0A3C7FF50000000
(1447251247.046179) can0 008#8000800004CC803B
(1447251247.046448) can0 010#F831B02F80008000
(1447251247.046691) can0 072#20A0000027FF00F0
(1447251247.046933) can0 1D0#6100ED218ADCC500
(1447251247.047208) can0 055#809C00B227FFF7FF
(1447251247.047507) can0 065#01DE8E00F7F6E000
(1447251247.047777) can0 070#000EF200F8076000
(1447251247.048049) can0 075#1854000000000000
(1447251247.048344) can0 080#802600F200804FFF
(1447251247.048345) can0 0B0#A352C200A2698352
(1447251247.048556) can0 145#A11040FC8050F2FD
(1447251247.052104) can0 1B0#EC00B00000008000
(1447251247.052367) can0 1B5#2FFFC000000000F9
(1447251247.052589) can0 1D8#6380000000000000
(1447251247.052867) can0 1E0#E016BD80411B3800
(1447251247.053073) can0 2C3#505400FFFF013082
(1447251247.056150) can0 008#80008000F4DC803B
(1447251247.056447) can0 010#F831B02F80008000
(1447251247.056716) can0 291#0000000000000000
(1447251247.057022) can0 330#0000000000000000
(1447251247.061024) can0 072#2080000027FF00F0
(1447251247.062075) can0 0F5#00925B7580008000
(1447251247.062344) can0 120#8954004580008000
(1447251247.062587) can0 130#11FF9300001C99B4
(1447251247.062803) can0 150#C093C7FF60000000
(1447251247.066180) can0 008#80008000E4EC803B
(1447251247.066447) can0 010#F831B02F80008000
(1447251247.066663) can0 1D0#6108ED218ADCC500
(1447251247.066907) can0 210#460C09D0A000DF93
(1447251247.067234) can0 055#809C00B227FFF7FF
(1447251247.067502) can0 065#01DE8E00F7F6E000
(1447251247.067804) can0 070#000EF200F8076000
(1447251247.068080) can0 075#1854000000000000
(1447251247.068081) can0 080#802600F200804FFF
(1447251247.068321) can0 0B0#A352C200A2698352
(1447251247.068563) can0 145#211040FC8050F2FD
(1447251247.068805) can0 28C#00BE370000004000
(1447251247.069024) can0 2B5#0022ADB35200004B
(1447251247.069268) can0 370#00D3435400900004
(1447251247.072113) can0 1B0#EC00B00000008000
(1447251247.072338) can0 1B5#2FFFC000000000F9
(1447251247.072579) can0 1D8#6380000000000000
(1447251247.072853) can0 1E0#E016BD80011B3800
(1447251247.076181) can0 008#80008000D4FC803B
(1447251247.076421) can0 010#F931B02F80008000
(1447251247.076663) can0 072#20A0000027FF00F0
(1447251247.076907) can0 2A9#840000C0CA0006AC
(1447251247.082102) can0 0F5#00825F7580008000
(1447251247.082343) can0 120#8954004580008000
(1447251247.082586) can0 130#11FF8300001C99BC
(1447251247.082798) can0 150#C083C7FF70000000
(1447251247.086178) can0 008#80008000C40C803B
(1447251247.086447) can0 010#F831B02F80008000
(1447251247.086659) can0 1D0#6102ED218ADCC500
(1447251247.086933) can0 055#809C00B227FFF7FF
(1447251247.087264) can0 065#01DE8E00F7F6E000
(1447251247.087533) can0 070#000EF200F8076000
(1447251247.087771) can0 075#1854000000000000
(1447251247.088067) can0 080#802600F200804FFF
(1447251247.088068) can0 0B0#A352C200A2698352
(1447251247.088368) can0 145#210040FC8050F2FD
(1447251247.088612) can0 291#0000000000000000
(1447251247.088829) can0 2C0#E5A0000000000000
(1447251247.089074) can0 2C5#0000E00000008700
(1447251247.089318) can0 400#0201440113010102
(1447251247.091178) can0 072#2080000027FF00F0
(1447251247.091446) can0 210#4E0C09D0A000DF93
(1447251247.091689) can0 3B0#00C400002836D800
(1447251247.092125) can0 1B0#EC00B00000008000
(1447251247.092395) can0 1B5#2FFFC000000000F9
(1447251247.092637) can0 1D8#6380000000000000
(1447251247.092881) can0 1E0#E016BD80410B3C00
(1447251247.093106) can0 2C3#505400FFFF013082
(1447251247.096153) can0 008#80008000B41C803B
(1447251247.096421) can0 010#F831B02F80008000
(1447251247.100823) can0 360#01A0000341013082
(1447251247.102099) can0 0F5#0072637580008000
(1447251247.102368) can0 120#8954004580008000
(1447251247.102586) can0 130#11FF7300001C99C4
(1447251247.102855) can0 150#C073C7FF80000000
(1447251247.106153) can0 008#80008000A42C803B
(1447251247.106446) can0 010#F831B02F80008000
(1447251247.106715) can0 072#20A0000027FF00F0
(1447251247.107022) can0 055#809C00B227FFF7FF
(1447251247.107289) can0 065#01DE8E00F7F6E000
(1447251247.107558) can0 070#000EF200F8076000
(1447251247.107827) can0 075#1854000000000000
(1447251247.108094) can0 080#802600F200804FFF
(1447251247.108095) can0 0B0#A352C200A2698352
(1447251247.108362) can0 145#A11040FC8050F2FD
(1447251247.108638) can0 1D0#6100ED218ADCC500
(1447251247.108854) can0 28C#00BE370000004000
(1447251247.109080) can0 2B5#0022ADB35200004B
(1447251247.109324) can0 390#4F5C0E020000FF80
(1447251247.112099) can0 1B0#EC00B00000008000
(1447251247.112393) can0 1B5#2FFFC000000000F9
(1447251247.112636) can0 1D8#6380000000000000
(1447251247.112879) can0 1E0#E016BD8041FB0000
(1447251247.116153) can0 008#80008000943C803B
(1447251247.116420) can0 010#F831B02F80008000
(1447251247.116662) can0 210#4E0C09D0A000DF93
(1447251247.116905) can0 291#0000000000000000
(1447251247.117212) can0 2A9#840000C0D30006AC
(1447251247.120905) can0 072#2080000027FF00F0
(1447251247.122073) can0 0F5#0062677580008000
(1447251247.122342) can0 120#8954004580008000
(1447251247.122585) can0 130#11FF6300001C99CC
(1447251247.122802) can0 150#C063C7FF90000000
(1447251247.123053) can0 3CA#C000001300000000
(1447251247.126152) can0 008#80008000844C803B
(1447251247.126419) can0 010#F831B02F80008000
(1447251247.126662) can0 1D0#6100ED218ADCC500
(1447251247.126900) can0 055#809C00B227FFF7FF
(1447251247.127238) can0 065#01DE8E00F7F6E000
(1447251247.127506) can0 070#000EF200F8076000
(1447251247.127776) can0 075#1854000000000000
(1447251247.128027) can0 080#802600F200804FFF
(1447251247.128322) can0 0B0#A352C200A2698352
(1447251247.128323) can0 145#211040FC8050F2FD
(1447251247.132074) can0 1B0#EC00B00000008000
(1447251247.132368) can0 1B5#2FFFC000000000F9
(1447251247.132611) can0 1D8#6380000000000000
(1447251247.132827) can0 1E0#E016BD8001FB0000
(1447251247.133079) can0 2C3#505400FFFF013082
(1447251247.136153) can0 008#80008000745C803B
(1447251247.136420) can0 010#F831B02F80008000
(1447251247.136662) can0 072#20A0000027FF00F0
(1447251247.136905) can0 330#0000000000000000
(1447251247.141042) can0 210#460C09D0A000DF93
(1447251247.142043) can0 0F5#00526B7F80008000
(1447251247.142342) can0 120#8954004F80008000
(1447251247.142554) can0 130#11FF5300001C99D4
(1447251247.142828) can0 150#C053C7FFA0000000
(1447251247.146152) can0 008#80008000646C803B
(1447251247.146446) can0 010#F831B02F80008000
(1447251247.146689) can0 1D0#6108ED218ADCC500
(1447251247.146932) can0 055#809C00B227FFF7FF
(1447251247.147236) can0 065#01DE8E00F7F6E000
(1447251247.147505) can0 070#000EF200F8076000
(1447251247.147744) can0 075#1854000000000000
(1447251247.148047) can0 080#802600F200804FFF
(1447251247.148341) can0 0B0#A352C200A2698352
(1447251247.148342) can0 145#210040FC8050F2FD
(1447251247.148611) can0 28C#00BE370000004000
(1447251247.148853) can0 291#0000000000000000
(1447251247.149079) can0 2B5#0022ADB35200004B
(1447251247.149349) can0 2C0#E5A0000001000000
(1447251247.149592) can0 2C5#0000E00000008700
(1447251247.149833) can0 3AF#2000000000000000
(1447251247.150990) can0 072#2080000027FF00F0
(1447251247.152070) can0 1B0#EC00B00000008000
(1447251247.152340) can0 1B5#2FFFC000000000F9
(1447251247.152614) can0 1D8#6380000000000000
(1447251247.152882) can0 1E0#E016BD8041EB0400
(1447251247.156150) can0 008#80008000547C803B
(1447251247.156523) can0 010#F931B02F80008000
(1447251247.156766) can0 2A9#840000C0CA0006AC
(1447251247.162074) can0 0F5#00426F7F80008000
(1447251247.162342) can0 120#8954004F80008000
(1447251247.162558) can0 130#11FF4300001C99DC
(1447251247.162827) can0 150#C043C7FFB0000000
(1447251247.166152) can0 008#80008000448C803B
(1447251247.166419) can0 010#F831B02F80008000
(1447251247.166662) can0 072#20A0000027FF00F0
(1447251247.166874) can0 1D0#6102ED218ADCC500
(1447251247.167237) can0 055#809C00B227FFF7FF
(1447251247.167485) can0 065#01DE8E00F7F6E000
(1447251247.167748) can0 070#000EF200F8076000
(1447251247.168045) can0 075#1854000000000000
(1447251247.168046) can0 080#802600F200804FFF
(1447251247.168287) can0 0B0#A352C200A2698352
(1447251247.168530) can0 145#A11040FC8050F2FD
(1447251247.168771) can0 210#460C09D0A000DF93
(1447251247.168995) can0 370#00D3435400900004
(1447251247.172095) can0 1B0#EC00B00000008000
(1447251247.172361) can0 1B5#2FFFC000000000F9
(1447251247.172637) can0 1D8#6380000000000000
(1447251247.172882) can0 1E0#E016BD8041DB0800
(1447251247.173102) can0 2C3#505400FFFF013082
(1447251247.176124) can0 008#80008000349C803B
(1447251247.176393) can0 010#F831B02F80008000
(1447251247.176661) can0 291#0000000000000000
(1447251247.181019) can0 072#2080000027FF00F0
(1447251247.182074) can0 0F5#0032737F80008000
(1447251247.182341) can0 120#8954004F80008000
(1447251247.182584) can0 130#11FF3300001C99E4
(1447251247.182827) can0 150#C033C7FFC0000000
(1447251247.186124) can0 008#8000800024AC803B
(1447251247.186393) can0 010#F831B02F80008000
(1447251247.186636) can0 1D0#6100ED218ADCC500
(1447251247.186905) can0 055#809C00B227FFF7FF
(1447251247.187232) can0 065#01DE8E00F7F6E000
(1447251247.187499) can0 070#000EF200F8076000
(1447251247.187800) can0 075#1854000000000000
(1447251247.188098) can0 080#802600F200804FFF
(1447251247.188098) can0 0B0#A352C200A2698352
(1447251247.188315) can0 145#211040FC8050F2FD
(1447251247.188557) can0 28C#00BE370000004000
(1447251247.188800) can0 2B5#0022ADB35200004B
(1447251247.191203) can0 210#460C09D02000DF88
(1447251247.192124) can0 1B0#EC00B00000008000
(1447251247.192393) can0 1B5#2FFFC000000000F9
(1447251247.192604) can0 1D8#6380000000000000
(1447251247.192846) can0 1E0#E016BD8001DB0800
(1447251247.196125) can0 008#8000800014BC803B
(1447251247.196392) can0 010#F831B02F80008000
(1447251247.196661) can0 072#20A0000027FF00F0
(1447251247.196904) can0 2A9#840000C0C20006AC
(1447251247.201019) can0 360#01A0000341013082
(1447251247.202097) can0 0F5#0022777F80008000
(1447251247.202366) can0 120#8954004F80008000
(1447251247.202609) can0 130#11FF2300001C99EC
(1447251247.202827) can0 150#C023C7FFD0000000
(1447251247.206125) can0 008#8000800004CC803B
(1447251247.206392) can0 010#F831B02F80008000
(1447251247.206635) can0 1D0#6100ED218ADCC500
(1447251247.206878) can0 291#0000000000000000
(1447251247.207098) can0 055#809C00B227FFF7FF
(1447251247.207340) can0 065#01DE8E00F7F6E000
(1447251247.207614) can0 070#000EF200F8076000
(1447251247.207857) can0 075#1854000000000000
(1447251247.208097) can0 080#802600F200804FFF
(1447251247.208314) can0 0B0#A352C200A2698352
(1447251247.208557) can0 145#210040FC8050F2FD
(1447251247.208800) can0 2C0#E5A0000000000000
(1447251247.209051) can0 2C5#0000E00000008700
(1447251247.209265) can0 390#6F5E06020000FF80
(1447251247.211014) can0 072#2080000027FF00F0
(1447251247.211282) can0 3B0#00C400002C36D800
(1447251247.212123) can0 1B0#EC00B00000008000
(1447251247.212392) can0 1B5#2FFFC000000000F9
(1447251247.212635) can0 1D8#6380000000000000
(1447251247.212878) can0 1E0#E016BD8041CB0C00
(1447251247.213104) can0 2C3#505400FFFF013082
(1447251247.216125) can0 008#80008000F4DC803B
(1447251247.216393) can0 010#F831B02F80008000
(1447251247.216636) can0 210#4E0C09D0A000DF88
(1447251247.216880) can0 330#0000000000000000
(1447251247.217123) can0 3D0#C28001A3006109A0
(1447251247.221019) can0 430#C6380000002E0830
(1447251247.222071) can0 0F5#00127B7F80008000
(1447251247.222339) can0 120#8954004F80008000
(1447251247.222583) can0 130#11FD1300001C99F4
(1447251247.222800) can0 150#C013C7FFE0000000
(1447251247.226125) can0 008#80008000E4EC803B
(1447251247.226392) can0 010#F831B02F80008000
(1447251247.226635) can0 072#20A0000027FF00F0
(1447251247.226852) can0 1D0#6100ED218ADCC500
(1447251247.227103) can0 055#809C00B227FFF7FF
(1447251247.227315) can0 065#01DE8E00F7F6E000
(1447251247.227556) can0 070#000EF200F8076000
(1447251247.227831) can0 075#1854000000000000
(1447251247.228071) can0 080#802600F200804FFF
(1447251247.228314) can0 0B0#A352C200A2698352
(1447251247.228505) can0 145#A11040FC8050F2FD
(1447251247.228749) can0 28C#00BE3700000040A0
(1447251247.228993) can0 2B5#0022ADB35200004B
(1447251247.232073) can0 1B0#EC00B00000008000
(1447251247.232366) can0 1B5#2FFFC000000000F9
(1447251247.232635) can0 1D8#6380000000000000
(1447251247.232878) can0 1E0#E016BD80C1BB1000
(1447251247.236125) can0 008#80008000D4FC803B
(1447251247.236417) can0 010#F931B02F80008000
(1447251247.236686) can0 291#0000000000000000
(1447251247.236903) can0 2A9#840000C0DB0006AC
(1447251247.241020) can0 072#2080000027FF00F0
(1447251247.241235) can0 210#4E0C09D0A000DF88
(1447251247.242097) can0 0F5#00027F7F80008000
(1447251247.242365) can0 120#8954004F80008000
(1447251247.242609) can0 130#11F70300001C99FC
(1447251247.242877) can0 150#C003C7FFF0000000
(1447251247.243128) can0 3CA#C000001400000000
(1447251247.246094) can0 008#80008000C40C803B
(1447251247.246469) can0 010#F831B02F80008000
(1447251247.246713) can0 1D0#610AED218ADCC500
(1447251247.247018) can0 055#809C00B227FFF7FF
(1447251247.247256) can0 065#01DE8E00F7F6E000
(1447251247.247555) can0 070#000EF200F8076000
(1447251247.247825) can0 075#1854000000000000
(1447251247.248122) can0 080#802600F200804FFF
(1447251247.248123) can0 0B0#A352C200A2698352
(1447251247.248391) can0 145#211040FC8050F2FD
(1447251247.252122) can0 1B0#EC00B00000008000
(1447251247.252369) can0 1B5#2FFFC000000000F9
(1447251247.252633) can0 1D8#6380000000000000
(1447251247.252876) can0 1E0#E016BD8081BB1000
(1447251247.253092) can0 2C3#505400FFFF013082
(1447251247.256093) can0 008#80008000B41C803B
(1447251247.256438) can0 010#F831B02F80008000
(1447251247.256738) can0 072#20A0000027FF00F0
(1447251247.262124) can0 0F5#00F2437F80008000
(1447251247.262391) can0 120#8954004F80008000
(1447251247.262634) can0 130#11FDF300001C9984
(1447251247.262877) can0 150#C0F3C7FF00000000
(1447251247.266123) can0 008#80008000A42C803B
(1447251247.266391) can0 010#F831B02F80008000
(1447251247.266608) can0 1D0#6100ED218ADCC500
(1447251247.266851) can0 210#460C09D0A000DF88
(1447251247.267045) can0 055#809C00B227FFF7FF
(1447251247.267287) can0 065#01DE8E00F7F6E000
(1447251247.267562) can0 070#000EF200F8076000
(1447251247.267803) can0 075#1854000000000000
(1447251247.268047) can0 080#802600F200804FFF
(1447251247.268290) can0 0B0#A352C200A2698352
(1447251247.268517) can0 145#210040FC8050F2FD
(1447251247.268760) can0 28C#00BE3700000040A0
(1447251247.268995) can0 291#0000000000000000
(1447251247.269209) can0 2B5#0022ADB35200004B
(1447251247.269450) can0 2C0#E5A0000001000000
(1447251247.269694) can0 2C5#0000E00000008700
(1447251247.269987) can0 370#00D3435400900004
(1447251247.270235) can0 3AF#2000000000000000
(1447251247.270478) can0 3E0#0080983F18000000
(1447251247.271195) can0 072#2080000027FF00F0
(1447251247.272131) can0 1B0#EC00B00000008000
(1447251247.272415) can0 1B5#2FFFC000000000F9
(1447251247.272640) can0 1D8#6380000000000000
(1447251247.272860) can0 1E0#E016BD80C1AB1400
(1447251247.276099) can0 008#80008000943C803B
(1447251247.276365) can0 010#F831B02F80008000
(1447251247.276608) can0 2A9#840000C0C20006AC
(1447251247.276869) can0 405#0000000000000000
(1447251247.282096) can0 0F5#00E2477F80008000
(1447251247.282365) can0 120#8954004F80008000
(1447251247.282577) can0 130#11FFE300001C998C
(1447251247.282818) can0 150#C0E3C7FF10000000
(1447251247.286095) can0 008#80008000844C803B
(1447251247.286443) can0 010#F831B02F80008000
(1447251247.286685) can0 072#20A0000027FF00F0
(1447251247.286929) can0 1D0#6100ED218ADCC500
(1447251247.287234) can0 055#809C00B227FFF7FF
(1447251247.287503) can0 065#01DE8E00F7F6E000
(1447251247.287771) can0 070#000EF200F8076000
(1447251247.288018) can0 075#1854000000000000
(1447251247.288307) can0 080#802600F200804FFF
(1447251247.288308) can0 0B0#A352C200A2698352
(1447251247.288575) can0 145#A11040FC8050F2FD
(1447251247.291148) can0 210#4E0C09D0A000DF88
(1447251247.292121) can0 1B0#EC00B00000008000
(1447251247.292390) can0 1B5#2FFFC000000000F9
(1447251247.292659) can0 1D8#6280000000000000
(1447251247.292902) can0 1E0#E016BD80C19B1800
(1447251247.293210) can0 2C3#505400FFFF013082
(1447251247.296095) can0 008#80008000745C803B
(1447251247.296364) can0 010#F831B02F80008000
(1447251247.296633) can0 291#0000000000000000
(1447251247.296845) can0 330#0000000000000000
(1447251247.300869) can0 072#2080000027FF00F0
(1447251247.301210) can0 360#01A0000341013082
(1447251247.302095) can0 0F5#00D24B7F80008000
(1447251247.302364) can0 120#8954004F80008000
(1447251247.302607) can0 130#11FFD300001C9994
(1447251247.302850) can0 150#C0D3C7FF20000000
(1447251247.306066) can0 008#80008000646C803B
(1447251247.306436) can0 010#F831B02F80008000
(1447251247.306710) can0 1D0#6108ED218ADCC500
(1447251247.307018) can0 390#4F5F02020000FF80
(1447251247.307287) can0 055#809C00B227FFF7FF
(1447251247.307555) can0 065#01DE8E00F7F6E000
(1447251247.307824) can0 070#000EF200F8076000
(1447251247.308102) can0 075#1854000000000000
(1447251247.308396) can0 080#802600F200804FFF
(1447251247.308397) can0 0B0#A352C200A2698352
(1447251247.308639) can0 145#211040FC8050F2FD
(1447251247.308851) can0 28C#00BE3700000040A0
(1447251247.309089) can0 2B5#0022ADB35200004B
(1447251247.312097) can0 1B0#EC00B00000008000
(1447251247.312390) can0 1B5#2FFFC000000000F9
(1447251247.312633) can0 1D8#6380000000000000
(1447251247.312850) can0 1E0#E016BD80819B1800
(1447251247.316097) can0 008#80008000547C803B
(1447251247.316364) can0 010#F931B02F80008000
(1447251247.316606) can0 072#20A0000027FF00F0
(1447251247.316850) can0 210#4E0C09D0A000DF88
(1447251247.317101) can0 2A9#840000C0DB0006AC
(1447251247.322090) can0 0F5#00C24F7F80008000
(1447251247.322331) can0 120#8954004F80008000
(1447251247.322632) can0 130#11FFC300001C999C
(1447251247.322849) can0 150#C0C3C7FF30000000
(1447251247.326096) can0 008#80008000448C803B
(1447251247.326442) can0 010#F831B02F80008000
(1447251247.326685) can0 1D0#6102ED218ADCC500
(1447251247.326928) can0 055#809C00B227FFF7FF
(1447251247.327207) can0 065#01DE8E00F7F6E000
(1447251247.327449) can0 070#000EF200F8076000
(1447251247.327693) can0 075#1854000000000000
(1447251247.327905) can0 080#802600F200804FFF
(1447251247.328208) can0 0B0#A352C200A2698352
(1447251247.328477) can0 145#210040FC8050F2FD
(1447251247.328746) can0 291#0000000000000000
(1447251247.329022) can0 2C0#E5A0000001000000
(1447251247.329267) can0 2C5#0000E00000008700
(1447251247.330991) can0 072#2080000027FF00F0
(1447251247.331260) can0 3B0#02C400002836FC00
(1447251247.332095) can0 1B0#EC00B00000008000
(1447251247.332364) can0 1B5#2FFFC000000000F9
(1447251247.332601) can0 1D8#6280000000000000
(1447251247.332824) can0 1E0#E016BD80C18B1C00
(1447251247.333069) can0 2C3#505400FFFF013082
(1447251247.336096) can0 008#80008000349C803B
(1447251247.336390) can0 010#F831B02F80008000
(1447251247.336658) can0 400#0303050101010101
(1447251247.341018) can0 210#460C09D02000DF88
(1447251247.342094) can0 0F5#00B2537F80008000
(1447251247.342363) can0 120#8954004F80008000
(1447251247.342581) can0 130#11FFB300001C99A4
(1447251247.342824) can0 150#C0B3C7FF40000000
(1447251247.346065) can0 008#8000800024AC803B
(1447251247.346363) can0 010#F831B02F80008000
(1447251247.346607) can0 072#20A0000027FF00F0
(1447251247.346849) can0 1D0#6100ED218ADCC500
(1447251247.347075) can0 055#809C00B227FFF7FF
(1447251247.347317) can0 065#01DE8E00F7F6E000
(1447251247.347561) can0 070#000EF200F8076000
(1447251247.347798) can0 075#1854000000000000
(1447251247.348074) can0 080#802600F200804FFF
(1447251247.348343) can0 0B0#A352C200A2698352
(1447251247.348581) can0 145#A11040FC8050F2FD
(1447251247.348881) can0 28C#00BE3700000040A0
(1447251247.349121) can0 2B5#0022ADB35200004B
(1447251247.352098) can0 1B0#EC00B00000008000
(1447251247.352359) can0 1B5#2FFFC000000000F9
(1447251247.352646) can0 1D8#6380000000000000
(1447251247.352886) can0 1E0#E016BD80C17B2000
(1447251247.356094) can0 008#8000800014BC803B
(1447251247.356649) can0 010#F831B02F80008000
(1447251247.356917) can0 291#0000000000000000
(1447251247.357208) can0 2A9#840000C0C20006AC
(1447251247.361016) can0 072#2080000027FF00F0
(1447251247.362096) can0 0F5#00A2577F80008000
(1447251247.362363) can0 120#8954004F80008000
(1447251247.362606) can0 130#11FFA300001C99AC
(1447251247.362849) can0 150#C0A3C7FF50000000
(1447251247.363100) can0 3CA#C000001500000000
(1447251247.366064) can0 008#8000800004CC803B
(1447251247.366363) can0 010#F831B02F80008000
(1447251247.366606) can0 1D0#6100ED218ADCC500
(1447251247.366849) can0 210#460C09D0A000DF88
(1447251247.367043) can0 055#809C00B227FFF7FF
(1447251247.367284) can0 065#01DE8E00F7F6E000
(1447251247.367559) can0 070#000EF200F8076000
(1447251247.367828) can0 075#1854000000000000
(1447251247.368040) can0 080#802600F200804FFF
(1447251247.368255) can0 0B0#A352C200A2698352
(1447251247.368523) can0 145#211040FC8050F2FD
(1447251247.368739) can0 370#00D3435400900004
(1447251247.372081) can0 1B0#EC00B00000008000
(1447251247.372362) can0 1B5#2FFFC000000000F9
(1447251247.372605) can0 1D8#6380000000000000
(1447251247.372847) can0 1E0#E016BD80817B2000
(1447251247.373073) can0 2C3#505400FFFF013082
(1447251247.376069) can0 008#80008000F4DC803B
(1447251247.376389) can0 010#F831B02F80008000
(1447251247.376657) can0 072#20A0000027FF00F0
(1447251247.376925) can0 330#0000000000000000
(1447251247.382122) can0 0F5#00925B7F80008000
(1447251247.382362) can0 120#8954004F80008000
(1447251247.382606) can0 130#11FF9300001C99B4
(1447251247.382848) can0 150#C093C7FF60000000
(1447251247.386069) can0 008#80008000E4EC803B
(1447251247.386388) can0 010#F831B02F80008000
(1447251247.386631) can0 1D0#6108ED218ADCC500
(1447251247.386875) can0 291#0000000000000000
(1447251247.387125) can0 055#809C00B227FFF7FF
(1447251247.387338) can0 065#01DE8E00F7F6E000
(1447251247.387611) can0 070#000EF200F8076000
(1447251247.387855) can0 075#1854000000000000
(1447251247.388099) can0 080#802600F200804FFF
(1447251247.388317) can0 0B0#A352C200A2698352
(1447251247.388528) can0 145#210040FC8050F2FD
(1447251247.388777) can0 28C#00BE3700000040A0
(1447251247.389022) can0 2B5#0022ADB35200004B
(1447251247.389266) can0 2C0#E5A0000001000000
(1447251247.389507) can0 2C5#0000E00000008700
(1447251247.389750) can0 3AF#2000000000000000
(1447251247.391068) can0 072#2080000027FF00F0
(1447251247.391331) can0 210#460C09D0A000DF88
(1447251247.392087) can0 1B0#EC00B00000008000
(1447251247.392388) can0 1B5#2FFFC000000000F9
(1447251247.392630) can0 1D8#6380000000000000
(1447251247.392847) can0 1E0#E016BD80C16B2400
(1447251247.396095) can0 008#80008000D4FC803B
(1447251247.396362) can0 010#F931B02F80008000
(1447251247.396605) can0 2A9#840000C0CA0006AC
(1447251247.401067) can0 360#01A0000341013082
(1447251247.402083) can0 0F5#00825F7F80008000
(1447251247.402342) can0 120#8954004F80008000
(1447251247.402585) can0 130#11FF8300001C99BC
(1447251247.402828) can0 150#C083C7FF70000000
(1447251247.406068) can0 008#80008000C40C803B
(1447251247.406336) can0 010#F831B02F80008000
(1447251247.406579) can0 072#20A0000027FF00F0
(1447251247.406822) can0 1D0#6102ED218ADCC500
(1447251247.407036) can0 055#809C00B227FFF7FF
(1447251247.407277) can0 065#01DE8E00F7F6E000
(1447251247.407552) can0 070#000EF200F8076000
(1447251247.407795) can0 075#1854000000000000
(1447251247.408041) can0 080#802600F200804FFF
(1447251247.408258) can0 0B0#A352C200A2698352
(1447251247.408500) can0 145#A11040FC8050F2FD
(1447251247.408744) can0 390#4F503E020000FF80
(1447251247.412145) can0 1B0#EC00B00000008000
(1447251247.412414) can0 1B5#2FFFC000000000F9
(1447251247.412625) can0 1D8#6380000000000000
(1447251247.412840) can0 1E0#E016BD80C15B2800
(1447251247.413119) can0 2C3#505400FFFF013082
(1447251247.416067) can0 008#80008000B41C803B
(1447251247.416362) can0 010#F831B02F80008000
(1447251247.416631) can0 210#4E0C09D0A000DF88
(1447251247.416874) can0 291#0000000000000000
(1447251247.417124) can0 3D0#C28001A3006109A0
(1447251247.421015) can0 072#2080000027FF00F0
(1447251247.422119) can0 0F5#0072637F80008000
(1447251247.422388) can0 120#8954004F80008000
(1447251247.422631) can0 130#11FF7300001C99C4
(1447251247.422817) can0 150#C073C7FF80000000
(1447251247.426036) can0 008#80008000A42C803B
(1447251247.426387) can0 010#F831B02F80008000
(1447251247.426656) can0 1D0#6100ED218ADCC500
(1447251247.426899) can0 055#809C00B227FFF7FF
(1447251247.427232) can0 065#01DE8E00F7F6E000
(1447251247.427500) can0 070#000EF200F8076000
(1447251247.427769) can0 075#1854000000000000
(1447251247.428073) can0 080#802600F200804FFF
(1447251247.428073) can0 0B0#A352C200A2698352
(1447251247.428342) can0 145#211040FC8050F2FD
(1447251247.428585) can0 28C#00BE3700000040A0
(1447251247.428771) can0 2B5#0022ADB35200004B
(1447251247.432087) can0 1B0#EC00B00000008000
(1447251247.432362) can0 1B5#2FFFC000000000F9
(1447251247.432631) can0 1D8#6380000000000000
(1447251247.432874) can0 1E0#E016BD80815B2800
(1447251247.436068) can0 008#80008000943C803B
(1447251247.436413) can0 010#F831B02F80008000
(1447251247.436682) can0 072#20A0000027FF00F0
(1447251247.436924) can0 2A9#840000C0D30006AC
(1447251247.440926) can0 210#4E0C09D0A000DF88
(1447251247.442119) can0 0F5#0062677F80008000
(1447251247.442364) can0 120#8954004F80008000
(1447251247.442600) can0 130#11FF6300001C99CC
(1447251247.442872) can0 150#C063C7FF90000000
(1447251247.446067) can0 008#80008000844C803B
(1447251247.446413) can0 010#F831B02F80008000
(1447251247.446655) can0 1D0#6100ED218ADCC500
(1447251247.446924) can0 291#0000000000000000
(1447251247.447231) can0 055#809C00B227FFF7FF
(1447251247.447499) can0 065#01DE8E00F7F6E000
(1447251247.447768) can0 070#000EF200F8076000
(1447251247.448009) can0 075#1854000000000000
(1447251247.448302) can0 080#802600F200804FFF
(1447251247.448303) can0 0B0#A352C200A2698352
(1447251247.448577) can0 145#210040FC8050F2FD
(1447251247.448794) can0 2C0#E5A0000001000000
(1447251247.449041) can0 2C5#0000E00000008700
(1447251247.451171) can0 072#2080000027FF00F0
(1447251247.451465) can0 3B0#00C400002836D800
(1447251247.452118) can0 1B0#EC00B00000008000
(1447251247.452388) can0 1B5#2FFFC000000000F9
(1447251247.452630) can0 1D8#6380000000000000
(1447251247.452844) can0 1E0#E016BD80C14B2C00
(1447251247.453069) can0 2C3#505400FFFF013082
(1447251247.456043) can0 008#80008000745C803B
(1447251247.456465) can0 010#F831B02F80008000
(1447251247.456734) can0 330#0000000000000000
(1447251247.462093) can0 0F5#00526B7F80008000
(1447251247.462362) can0 120#8954004F80008000
(1447251247.462578) can0 130#11FF5300001C99D4
(1447251247.462821) can0 150#C053C7FFA0000000
(1447251247.466067) can0 008#80008000646C803B
(1447251247.466439) can0 010#F831B02F80008000
(1447251247.466682) can0 072#20A0000027FF00F0
(1447251247.466925) can0 055#809C00B227FFF7FF
(1447251247.467203) can0 065#01DE8E00F7F6E000
(1447251247.467415) can0 070#000EF200F8076000
(1447251247.467664) can0 075#1854000000000000
(1447251247.467906) can0 080#802600F200804FFF
(1447251247.468230) can0 0B0#A352C200A2698352
(1447251247.468500) can0 145#A11040FC8050F2FD
(1447251247.468763) can0 1D0#6108ED218ADCC500
(1447251247.468764) can0 210#460C09D0A000DFA7
(1447251247.469036) can0 28C#00BE3700000040A0
(1447251247.469280) can0 2B5#0022ADB35200004B
(1447251247.469521) can0 370#00D3435400900004
(1447251247.472129) can0 1B0#EC00B00000008000
(1447251247.472390) can0 1B5#2FFFC000000000F9
(1447251247.472625) can0 1D8#6380000000000000
(1447251247.472865) can0 1E0#E016BD80C13B3000
(1447251247.476074) can0 008#80008000547C803B
(1447251247.476335) can0 010#F931B02F80008000
(1447251247.476604) can0 291#0000000000000000
(1447251247.476847) can0 2A9#840000C0CA0006AC
(1447251247.480923) can0 072#2080000027FF00F0
(1447251247.482093) can0 0F5#00426F7F80008000
(1447251247.482361) can0 120#8954004F80008000
(1447251247.482565) can0 130#11FF4300001C99DC
(1447251247.482824) can0 150#C043C7FFB0000000
(1447251247.483065) can0 3CA#C000001600000000
(1447251247.486067) can0 008#80008000448C803B
(1447251247.486438) can0 010#F831B02F80008000
(1447251247.486708) can0 1D0#6102ED218ADCC500
(1447251247.486924) can0 055#809C00B227FFF7FF
(1447251247.487203) can0 065#01DE8E00F7F6E000
(1447251247.487421) can0 070#000EF200F8076000
(1447251247.487663) can0 075#1854000000000000
(1447251247.487875) can0 080#802600F200804FFF
(1447251247.488204) can0 0B0#A352C200A2698352
(1447251247.488447) can0 145#211040FC8050F2FD
(1447251247.490990) can0 210#4E0C09D02000DFA7
(1447251247.492091) can0 1B0#EC00B00000008000
(1447251247.492360) can0 1B5#2FFFC000000000F9
(1447251247.492603) can0 1D8#6380000000000000
(1447251247.492846) can0 1E0#E016BD80813B3000
(1447251247.493097) can0 2C3#505400FFFF013082
(1447251247.496041) can0 008#80008000349C803B
(1447251247.496334) can0 010#F831B02F80008000
(1447251247.496603) can0 072#20A0000027FF00F0
(1447251247.501114) can0 360#01A0000341013082
(1447251247.502035) can0 0F5#0032737F80008000
(1447251247.502344) can0 120#8954004F80008000
(1447251247.502577) can0 130#11FF3300001C99E4
(1447251247.502820) can0 150#C033C7FFC0000000
(1447251247.506040) can0 008#8000800024AC803B
(1447251247.506464) can0 010#F831B02F80008000
(1447251247.506682) can0 1D0#6100ED218ADCC500
(1447251247.507013) can0 055#809C00B227FFF7FF
(1447251247.507281) can0 065#01DE8E00F7F6E000
(1447251247.507550) can0 070#000EF200F8076000
(1447251247.507819) can0 075#1854000000000000
(1447251247.508117) can0 080#802600F200804FFF
(1447251247.508118) can0 0B0#A352C200A2698352
(1447251247.508386) can0 145#210040FC8050F2FD
(1447251247.508603) can0 28C#00BE3700000040A0
(1447251247.508872) can0 291#0000000000000000
(1447251247.509123) can0 2B5#0022ADB35200004B
(1447251247.509366) can0 2C0#E5A0000001000000
(1447251247.509558) can0 2C5#0000E00000008700
(1447251247.509801) can0 390#4F513A020000FF80
(1447251247.510045) can0 3AF#2000000000000000
(1447251247.510987) can0 072#2080000027FF00F0
(1447251247.512091) can0 1B0#EC00B00000008000
(1447251247.512386) can0 1B5#2FFFC000000000F9
(1447251247.512629) can0 1D8#6380000000000000
(1447251247.512846) can0 1E0#E016BD80C12B3400
(1447251247.516014) can0 008#8000800014BC803B
(1447251247.516334) can0 010#F831B02F80008000
(1447251247.516603) can0 210#4E0C09D0A000DFA7
(1447251247.516846) can0 2A9#840000C0D30006AC
(1447251247.522064) can0 0F5#0022777F80008000
(1447251247.522333) can0 120#8954004F80008000
(1447251247.522577) can0 130#11FF2300001C99EC
(1447251247.522820) can0 150#C023C7FFD0000000
(1447251247.526040) can0 008#8000800004CC803B
(1447251247.526438) can0 010#F831B02F80008000
(1447251247.526681) can0 072#20A0000027FF00F0
(1447251247.526924) can0 055#809C00B227FFF7FF
(1447251247.527203) can0 065#01DE8E00F7F6E000
(1447251247.527414) can0 070#000EF200F8076000
(1447251247.527662) can0 075#1854000000000000
(1447251247.527905) can0 080#802600F200804FFF
(1447251247.528229) can0 0B0#A352C200A2698352
(1447251247.528474) can0 145#A11040FC8050F2FD
(1447251247.528762) can0 1D0#6100ED218ADCC500
(1447251247.528763) can0 405#016439DE3D31F82A
(1447251247.532091) can0 1B0#EC00B00000008000
(1447251247.532386) can0 1B5#2FFFC000000000F9
(1447251247.532628) can0 1D8#6380000000000000
(1447251247.532871) can0 1E0#E016BD80C11B3800
(1447251247.533097) can0 2C3#505400FFFF013082
(1447251247.536014) can0 008#80008000F4DC803B
(1447251247.536411) can0 010#F831B02F80008000
(1447251247.536654) can0 291#0000000000000000
(1447251247.536922) can0 330#0000000000000000
(1447251247.540923) can0 072#2080000027FF00F0
(1447251247.541179) can0 210#460C09D0A000DFA7
(1447251247.542070) can0 0F5#00127B7F80008000
(1447251247.542313) can0 120#8954004F80008000
(1447251247.542581) can0 130#11FF1300001C99F4
(1447251247.542824) can0 150#C013C7FFE0000000
(1447251247.546038) can0 008#80008000E4EC803B
(1447251247.546360) can0 010#F831B02F80008000
(1447251247.546602) can0 1D0#6100ED218ADCC500
(1447251247.546871) can0 055#809C00B227FFF7FF
(1447251247.547148) can0 065#01DE8E00F7F6E000
(1447251247.547391) can0 070#000EF200F8076000
(1447251247.547634) can0 075#1854000000000000
(1447251247.547851) can0 080#802600F200804FFF
(1447251247.548065) can0 0B0#A352C200A2698352
(1447251247.548307) can0 145#211040FC8050F2FD
(1447251247.548582) can0 28C#00BE3700000040A0
(1447251247.548825) can0 2B5#0022ADB35200004B
(1447251247.552068) can0 1B0#EC00B00000008000
(1447251247.552337) can0 1B5#2FFFC000000000F9
(1447251247.552625) can0 1D8#6380000000000000
(1447251247.552847) can0 1E0#E016BD80811B3800
(1447251247.556038) can0 008#80008000D4FC803B
(1447251247.556541) can0 010#F931B02F80008000
(1447251247.556810) can0 072#20A0000027FF00F0
(1447251247.557038) can0 2A9#840000C0CA0006AC
(1447251247.562092) can0 0F5#00027F7F80008000
(1447251247.562359) can0 120#8954004F80008000
(1447251247.562602) can0 130#11FF0300001C99FC
(1447251247.562845) can0 150#C003C7FFF0000000
(1447251247.566038) can0 008#80008000C40C803B
(1447251247.566384) can0 010#F831B02F80008000
(1447251247.566627) can0 1D0#610AED218ADCC500
(1447251247.566871) can0 210#460C09D0A000DFA7
(1447251247.567096) can0 055#809C00B227FFF7FF
(1447251247.567308) can0 065#01DE8E00F7F6E000
(1447251247.567564) can0 070#000EF200F8076000
(1447251247.567798) can0 075#1854000000000000
(1447251247.568042) can0 080#802600F200804FFF
(1447251247.568285) can0 0B0#A352C200A2698352
(1447251247.568525) can0 145#210040FC8050F2FD
(1447251247.568742) can0 291#0000000000000000
(1447251247.568990) can0 2C0#E5A0000001000000
(1447251247.569242) can0 2C5#0000E00000008700
(1447251247.569485) can0 370#00D3435400900004
(1447251247.569728) can0 3E0#0080983F18000000
(1447251247.571084) can0 072#2080000027FF00F0
(1447251247.571353) can0 3B0#00C400002836D800
(1447251247.572097) can0 1B0#EC00B00000008000
(1447251247.572384) can0 1B5#2FFFC000000000F9
(1447251247.572609) can0 1D8#6380000000000000
(1447251247.572855) can0 1E0#E016BD80C10B3C00
(1447251247.573079) can0 2C3#505400FFFF013082
(1447251247.576012) can0 008#80008000B41C803B
(1447251247.576385) can0 010#F831B02F80008000
(1447251247.582063) can0 0F5#00F2437F80008000
(1447251247.582332) can0 120#8954004F80008000
(1447251247.582576) can0 130#11FFF300001C9984
(1447251247.582818) can0 150#C0F3C7FF00000000
(1447251247.586039) can0 008#80008000A42C803B
(1447251247.586307) can0 581#8100FFFFFFFFFFFF
(1447251247.586550) can0 010#F831B02F80008000
(1447251247.586792) can0 072#20A0000027FF00F0
(1447251247.587013) can0 055#809C00B227FFF7FF
(1447251247.587228) can0 065#01DE8E00F7F6E000
(1447251247.587504) can0 070#000EF200F8076000
(1447251247.587746) can0 075#1854000000000000
(1447251247.587986) can0 080#802600F200804FFF
(1447251247.588229) can0 0B0#A352C200A2698352
(1447251247.588498) can0 145#A11040FC8050F2FD
(1447251247.588767) can0 1D0#6100ED218ADCC500
(1447251247.589044) can0 28C#00BE3700000040A0
(1447251247.589315) can0 2B5#0022ADB35200004B
(1447251247.589555) can0 400#0401020101040201
(1447251247.591038) can0 210#460C09D0A000DFA7
(1447251247.592084) can0 1B0#EC00B00000008000
(1447251247.592382) can0 1B5#2FFFC000000000F9
(1447251247.592624) can0 1D8#6380000000000000
(1447251247.592864) can0 1E0#E016BD80C1FB0000
(1447251247.595979) can0 008#80008000943C803B
(1447251247.596247) can0 010#F831B02F80008000
(1447251247.596548) can0 291#0000000000000000
(1447251247.596764) can0 2A9#840000C0C20006AC
(1447251247.601089) can0 072#2080000027FF00F0
(1447251247.601342) can0 360#01A0000341013082
(1447251247.602084) can0 0F5#00E2477F80008000
(1447251247.602326) can0 120#8954004F80008000
(1447251247.602599) can0 130#11FFE300001C998C
(1447251247.602842) can0 150#C0E3C7FF10000000
(1447251247.603088) can0 3CA#C000000000000000
(1447251247.606038) can0 008#80008000844C803B
(1447251247.606278) can0 010#F831B02F80008000
(1447251247.606520) can0 1D0#6100ED218ADCC500
(1447251247.606764) can0 390#4F5236020000FF80
(1447251247.606980) can0 055#809C00B227FFF7FF
(1447251247.607221) can0 065#01DE8E00F7F6E000
(1447251247.607496) can0 070#000EF200F8076000
(1447251247.607740) can0 075#1854000000000000
(1447251247.608010) can0 080#802600F200804FFF
(1447251247.608278) can0 0B0#A352C200A2698352
(1447251247.608521) can0 145#211040FC8050F2FD
(1447251247.612090) can0 1B0#EC00B00000008000
(1447251247.612358) can0 1B5#2FFFC000000000F9
(1447251247.612600) can0 1D8#6380000000000000
(1447251247.612813) can0 1E0#E016BD8081FB0000
(1447251247.613063) can0 2C3#505400FFFF013082
(1447251247.616013) can0 008#80008000745C803B
(1447251247.616384) can0 010#F831B02F80008000
(1447251247.616652) can0 072#20A0000027FF00F0
(1447251247.616868) can0 210#4E0C09D0A000DFA7
(1447251247.617141) can0 330#0000000000000000
(1447251247.617383) can0 3D0#C28001A3006109A0
(1447251247.622088) can0 0F5#00D24B7F80008000
(1447251247.622357) can0 120#8954004F80008000
(1447251247.622601) can0 130#11FFD300001C9994
(1447251247.622818) can0 150#C0D3C7FF20000000
(1447251247.626012) can0 008#80008000646C803B
(1447251247.626383) can0 010#F831B02F80008000
(1447251247.626626) can0 1D0#6100ED218ADCC500
(1447251247.626896) can0 291#0000000000000000
(1447251247.627254) can0 055#809C00B227FFF7FF
(1447251247.627522) can0 065#01DE8E00F7F6E000
(1447251247.627818) can0 070#000EF200F8076000
(1447251247.627819) can0 075#1854000000000000
(1447251247.628094) can0 080#802600F200804FFF
(1447251247.628337) can0 0B0#A352C200A2698352
(1447251247.628549) can0 145#210040FC8050F2FD
(1447251247.628792) can0 28C#00BE3700000040A0
(1447251247.629042) can0 2B5#0022ADB35200004B
(1447251247.629285) can0 2C0#E5A0000000000000
(1447251247.629501) can0 2C5#0000E00000008700
(1447251247.629743) can0 3AF#2000000000000000
(1447251247.631011) can0 072#2080000027FF00F0
(1447251247.632088) can0 1B0#EC00B00000008000
(1447251247.632357) can0 1B5#2FFFC000000000F9
(1447251247.632626) can0 1D8#6380000000000000
(1447251247.632838) can0 1E0#E016BD80C1EB0400
(1447251247.635980) can0 008#80008000547C803B
(1447251247.636384) can0 010#F931B02F80008000
(1447251247.636651) can0 2A9#840000C0DB0006AC
(1447251247.640894) can0 210#4E0C09D02000DFA7
(1447251247.642062) can0 0F5#00C24F7F80008000
(1447251247.642331) can0 120#8954004F80008000
(1447251247.642574) can0 130#11FFC300001C999C
(1447251247.642818) can0 150#C0C3C7FF30000000
(1447251247.646011) can0 008#80008000448C803B
(1447251247.646461) can0 010#F831B02F80008000
(1447251247.646731) can0 072#20A0000027FF00F0
(1447251247.647010) can0 055#809C00B227FFF7FF
(1447251247.647253) can0 065#01DE8E00F7F6E000
(1447251247.647495) can0 070#000EF200F8076000
(1447251247.647791) can0 075#1854000000000000
(1447251247.648068) can0 080#802600F200804FFF
(1447251247.648337) can0 0B0#A352C200A2698352
(1447251247.648606) can0 145#A11040FC8050F2FD
(1447251247.648607) can0 1D0#610AED218ADCC500
(1447251247.652095) can0 1B0#EC00B00000008000
(1447251247.652328) can0 1B5#2FFFC000000000F9
(1447251247.652604) can0 1D8#6380000000000000
(1447251247.652844) can0 1E0#E016BD80C1DB0800
(1447251247.653059) can0 2C3#505400FFFF013082
(1447251247.656010) can0 008#80008000349C803B
(1447251247.656435) can0 010#F831B02F80008000
(1447251247.656704) can0 291#0000000000000000
(1447251247.660791) can0 072#2080000027FF00F0
(1447251247.662036) can0 0F5#00B2537F80008000
(1447251247.662305) can0 120#8954004F80008000
(1447251247.662547) can0 130#11FFB300001C99A4
(1447251247.662817) can0 150#C0B3C7FF40000000
(1447251247.666011) can0 008#8000800024AC803B
(1447251247.666409) can0 010#F831B02F80008000
(1447251247.666651) can0 1D0#6100ED218ADCC500
(1447251247.666894) can0 210#460C09D0A000DFA7
(1447251247.667219) can0 055#809C00B227FFF7FF
(1447251247.667488) can0 065#01DE8E00F7F6E000
(1447251247.667764) can0 070#000EF200F8076000
(1447251247.668066) can0 075#1854000000000000
(1447251247.668067) can0 080#802600F200804FFF
(1447251247.668336) can0 0B0#A352C200A2698352
(1447251247.668579) can0 145#211040FC8050F2FD
(1447251247.668792) can0 28C#00BE3700000040A0
(1447251247.669040) can0 2B5#0022ADB35200004B
(1447251247.669281) can0 370#00D3435400900004
(1447251247.672061) can0 1B0#EC00B00000008000
(1447251247.672357) can0 1B5#2FFFC000000000F9
(1447251247.672598) can0 1D8#6380000000000000
(1447251247.672842) can0 1E0#E016BD8081DB0800
(1447251247.676012) can0 008#8000800014BC803B
(1447251247.676278) can0 010#F831B02F80008000
(1447251247.676547) can0 072#20A0000027FF00F0
(1447251247.676791) can0 2A9#840000C0C20006AC
(1447251247.682089) can0 0F5#00A2577F80008000
(1447251247.682356) can0 120#8954004F80008000
(1447251247.682568) can0 130#11FFA300001C99AC
(1447251247.682842) can0 150#C0A3C7FF50000000
(1447251247.686010) can0 008#8000800004CC803B
(1447251247.686409) can0 010#F831B02F80008000
(1447251247.686651) can0 1D0#6100ED218ADCC500
(1447251247.686919) can0 291#0000000000000000
(1447251247.687226) can0 055#809C00B227FFF7FF
(1447251247.687494) can0 065#01DE8E00F7F6E000
(1447251247.687732) can0 070#000EF200F8076000
(1447251247.688035) can0 075#1854000000000000
(1447251247.688330) can0 080#802600F200804FFF
(1447251247.688331) can0 0B0#A352C200A2698352
(1447251247.688548) can0 145#210040FC8050F2FD
(1447251247.688785) can0 2C0#E5A0000001000000
(1447251247.689015) can0 2C5#0000E00000008700
(1447251247.691142) can0 072#2080000027FF00F0
(1447251247.691408) can0 210#4E0C09D0A000DFA7
(1447251247.691650) can0 3B0#00C600002836D800
(1447251247.692087) can0 1B0#EC00B00000008000
(1447251247.692331) can0 1B5#2FFFC000000000F9
(1447251247.692600) can0 1D8#6380000000000000
(1447251247.692869) can0 1E0#E016BD80C1CB0C00
(1447251247.693113) can0 2C3#505400FFFF013082
(1447251247.696010) can0 008#80008000F4DC803B
(1447251247.696330) can0 010#F831B02F80008000
(1447251247.696599) can0 330#0000000000000000
(1447251247.701061) can0 360#01A0000341013082
(1447251247.702062) can0 0F5#00925B7F80008000
(1447251247.702304) can0 120#8954004F80008000
(1447251247.702516) can0 130#11FF9300001C99B4
(1447251247.702790) can0 150#C093C7FF60000000
(1447251247.706010) can0 008#80008000E4EC803B
(1447251247.706485) can0 010#F831B02F80008000
(1447251247.706754) can0 072#20A0000027FF00F0
(1447251247.707009) can0 055#809C00B227FFF7FF
(1447251247.707251) can0 065#01DE8E00F7F6E000
(1447251247.707469) can0 070#000EF200F8076000
(1447251247.707711) can0 075#1854000000000000
(1447251247.708008) can0 080#802600F200804FFF
(1447251247.708277) can0 0B0#A352C200A2698352
(1447251247.708546) can0 145#A11040FC8050F2FD
(1447251247.708815) can0 1D0#6108ED218ADCC500
(1447251247.709112) can0 28C#00BE3700000040A0
(1447251247.709113) can0 2B5#0022ADB35200004B
(1447251247.709330) can0 390#4F5332020000FF80
(1447251247.712087) can0 1B0#EC00B00000008000
(1447251247.712381) can0 1B5#2FFFC000000000F9
(1447251247.712650) can0 1D8#6380000000000000
(1447251247.712861) can0 1E0#E016BD80C1BB1000
(1447251247.716009) can0 008#80008000D4FC803B
(1447251247.716329) can0 010#F931B02F80008000
(1447251247.716598) can0 210#4E0C09D0A000DFA7
(1447251247.716841) can0 291#0000000000000000
(1447251247.717066) can0 2A9#840000C0DB0006AC
(1447251247.721010) can0 072#2080000027FF00F0
(1447251247.722086) can0 0F5#00825F7F80008000
(1447251247.722355) can0 120#8954004F80008000
(1447251247.722598) can0 130#11FF8300001C99BC
(1447251247.722841) can0 150#C083C7FF70000000
(1447251247.723035) can0 3CA#C000001100000000
(1447251247.725977) can0 008#80008000C40C803B
(1447251247.726459) can0 010#F831B02F80008000
(1447251247.726702) can0 1D0#6102ED218ADCC500
(1447251247.727008) can0 055#809C00B227FFF7FF
(1447251247.727277) can0 065#01DE8E00F7F6E000
(1447251247.727545) can0 070#000EF200F8076000
(1447251247.727814) can0 075#1854000000000000
(1447251247.728082) can0 080#802600F200804FFF
(1447251247.728082) can0 0B0#A352C200A2698352
(1447251247.728356) can0 145#211040FC8050F2FD
(1447251247.732061) can0 1B0#EC00B00000008000
(1447251247.732355) can0 1B5#2FFFC000000000F9
(1447251247.732598) can0 1D8#6380000000000000
(1447251247.732841) can0 1E0#E016BD8081BB1000
(1447251247.733092) can0 2C3#505400FFFF013082
(1447251247.736010) can0 008#80008000B41C803B
(1447251247.736278) can0 010#F831B02F80008000
(1447251247.736546) can0 072#20A0000027FF00F0
(1447251247.740815) can0 210#460C09D0A000DFAD
(1447251247.742060) can0 0F5#0072637F80008000
(1447251247.742329) can0 120#8954004F80008000
(1447251247.742572) can0 130#11FF7300001C99C4
(1447251247.742789) can0 150#C073C7FF80000000
(1447251247.746010) can0 008#80008000A42C803B
(1447251247.746355) can0 010#F831B02F80008000
(1447251247.746598) can0 1D0#6100ED218ADCC500
(1447251247.746841) can0 291#0000000000000000
(1447251247.747092) can0 055#809C00B227FFF7FF
(1447251247.747335) can0 065#01DE8E00F7F6E000
(1447251247.747578) can0 070#000EF200F8076000
(1447251247.747821) can0 075#1854000000000000
(1447251247.748035) can0 080#802600F200804FFF
(1447251247.748250) can0 0B0#A352C200A2698352
(1447251247.748524) can0 145#210040FC8050F2FD
(1447251247.748768) can0 28C#00BE3700000040A0
(1447251247.749007) can0 2B5#0022ADB35200004B
(1447251247.749253) can0 2C0#E5A0000001000000
(1447251247.749493) can0 2C5#0000E00000008700
(1447251247.749737) can0 3AF#2000000000000000
(1447251247.751112) can0 072#2080000027FF00F0
(1447251247.752085) can0 1B0#EC00B00000008000
(1447251247.752325) can0 1B5#2FFFC000000000F9
(1447251247.752575) can0 1D8#6380000000000000
(1447251247.752816) can0 1E0#E016BD80C1AB1400
(1447251247.756007) can0 008#80008000943C803B
(1447251247.756511) can0 010#F831B02F80008000
(1447251247.756780) can0 2A9#840000C0C20006AC
(1447251247.762061) can0 0F5#0062677F80008000
(1447251247.762328) can0 120#8954004F80008000
(1447251247.762572) can0 130#11FF6300001C99CC
(1447251247.762788) can0 150#C063C7FF90000000
(1447251247.766009) can0 008#80008000844C803B
(1447251247.766355) can0 010#F831B02F80008000
(1447251247.766623) can0 072#20A0000027FF00F0
(1447251247.766840) can0 1D0#6100ED218ADCC500
(1447251247.767091) can0 055#809C00B227FFF7FF
(1447251247.767334) can0 065#01DE8E00F7F6E000
(1447251247.767582) can0 070#000EF200F8076000
(1447251247.767825) can0 075#1854000000000000
(1447251247.768028) can0 080#802600F200804FFF
(1447251247.768270) can0 0B0#A352C200A2698352
(1447251247.768525) can0 145#A11040FC8050F2FD
(1447251247.768759) can0 210#460C09D0A000DFAD
(1447251247.768977) can0 370#00D7435400900004
(1447251247.772073) can0 1B0#EC00B00000008000
(1447251247.772352) can0 1B5#2FFFC000000000F9
(1447251247.772573) can0 1D8#6380000000000000
(1447251247.772811) can0 1E0#E016BD80C19B1800
(1447251247.773055) can0 2C3#505400FFFF013082
(1447251247.776007) can0 008#80008000745C803B
(1447251247.776380) can0 010#F831B02F80008000
(1447251247.776649) can0 291#0000000000000000
(1447251247.776892) can0 330#0000000000000000
(1447251247.777170) can0 405#023F350031013082
(1447251247.781085) can0 072#2080000027FF00F0
(1447251247.782060) can0 0F5#00526B7F80008000
(1447251247.782328) can0 120#8954004F80008000
(1447251247.782571) can0 130#11FF5300001C99D4
(1447251247.782814) can0 150#C053C7FFA0000000
(1447251247.786008) can0 008#80008000646C803B
(1447251247.786380) can0 010#F831B02F80008000
(1447251247.786623) can0 1D0#6108ED218ADCC500
(1447251247.786892) can0 055#809C00B227FFF7FF
(1447251247.787224) can0 065#01DE8E00F7F6E000
(1447251247.787492) can0 070#000EF200F8076000
(1447251247.787762) can0 075#1854000000000000
(1447251247.788039) can0 080#802600F200804FFF
(1447251247.788309) can0 0B0#A352C200A2698352
(1447251247.788309) can0 145#211040FC8050F2FD
(1447251247.788546) can0 28C#00BE3700000040A0
(1447251247.788795) can0 2B5#0022ADB35200004B
(1447251247.790983) can0 210#460C09D02000DFAD
(1447251247.792085) can0 1B0#EC00B00000008000
(1447251247.792354) can0 1B5#2FFFC000000000F9
(1447251247.792597) can0 1D8#6380000000000000
(1447251247.792814) can0 1E0#E016BD80819B1800
(1447251247.796008) can0 008#80008000547C803B
(1447251247.796406) can0 010#F831B02F80008000
(1447251247.796675) can0 072#20A0000027FF00F0
(1447251247.796918) can0 2A9#840000C0CA0006AC
(1447251247.801007) can0 360#01A0000341013082
(1447251247.802060) can0 0F5#00426F7F80008000
(1447251247.802328) can0 120#8954004F80008000
(1447251247.802545) can0 130#11FF4300001C99DC
(1447251247.802783) can0 150#C043C7FFB0000000
(1447251247.806008) can0 008#80008000448C803B
(1447251247.806380) can0 010#F931B02F80008000
(1447251247.806623) can0 1D0#6102ED218ADCC500
(1447251247.806892) can0 291#0000000000000000
(1447251247.807250) can0 055#809C00B227FFF7FF
(1447251247.807519) can0 065#01DE8E00F7F6E000
(1447251247.807813) can0 070#000EF200F8076000
(1447251247.807814) can0 075#1854000000000000
(1447251247.808091) can0 080#802600F200804FFF
(1447251247.808334) can0 0B0#A352C200A2698352
(1447251247.808520) can0 145#210040FC8050F2FD
(1447251247.808762) can0 2C0#E5A0000001000000
(1447251247.809038) can0 2C5#0000E00000008700
(1447251247.809283) can0 390#4F542E020000FF80
(1447251247.811188) can0 072#2080000027FF00F0
(1447251247.811457) can0 3B0#00C400002C36D800
(1447251247.812085) can0 1B0#EC00B00000008000
(1447251247.812353) can0 1B5#2FFFC000000000F9
(1447251247.812596) can0 1D8#6380000000000000
(1447251247.812813) can0 1E0#E016BD80C18B1C00
(1447251247.813065) can0 2C3#505400FFFF013082
(1447251247.816006) can0 008#80008000349C803B
(1447251247.816380) can0 010#F831B02F80008000
(1447251247.816622) can0 210#4E0C09D0A000DFAD
(1447251247.816865) can0 3D0#C28001A3006109A0
(1447251247.820861) can0 430#C6370000002E0830
(1447251247.822058) can0 0F5#0032737F80008000
(1447251247.822300) can0 120#8954004F80008000
(1447251247.822543) can0 130#11FF3300001C99E4
(1447251247.822786) can0 150#C033C7FFC0000000
(1447251247.826008) can0 008#8000800024AC803B
(1447251247.826457) can0 010#F831B02F80008000
(1447251247.826726) can0 072#20A0000027FF00F0
(1447251247.827006) can0 055#809C00B227FFF7FF
(1447251247.827275) can0 065#01DE8E00F7F6E000
(1447251247.827544) can0 070#000EF200F8076000
(1447251247.827812) can0 075#1854000000000000
(1447251247.828084) can0 080#802600F200804FFF
(1447251247.828348) can0 0B0#A352C200A2698352
(1447251247.828348) can0 145#A11040FC8050F2FD
(1447251247.828591) can0 1D0#6100ED218ADCC500
(1447251247.828833) can0 28C#00BE3700000040A0
(1447251247.829065) can0 2B5#0022ADB35200004B
(1447251247.832059) can0 1B0#EC00B00000008000
(1447251247.832354) can0 1B5#2FFFC000000000F9
(1447251247.832596) can0 1D8#6380000000000000
(1447251247.832839) can0 1E0#E016BD80C17B2000
(1447251247.836007) can0 008#8000800014BC803B
(1447251247.836275) can0 010#F831B02F80008000
(1447251247.836544) can0 291#0000000000000000
(1447251247.836787) can0 2A9#840000C0D30006AC
(1447251247.837006) can0 400#0502010201010101
(1447251247.840787) can0 072#2080000027FF00F0
(1447251247.841005) can0 210#4E0C09D0A000DFAD
(1447251247.842058) can0 0F5#0022777F80008000
(1447251247.842327) can0 120#8954004F80008000
(1447251247.842570) can0 130#11FF2300001C99EC
(1447251247.842813) can0 150#C023C7FFD0000000
(1447251247.843008) can0 3CA#C000001200000000
(1447251247.846007) can0 008#8000800004CC803B
(1447251247.846405) can0 010#F831B02F80008000
(1447251247.846647) can0 1D0#6100ED218ADCC500
(1447251247.846891) can0 055#809C00B227FFF7FF
(1447251247.847249) can0 065#01DE8E00F7F6E000
(1447251247.847518) can0 070#000EF200F8076000
(1447251247.847787) can0 075#1854000000000000
(1447251247.848089) can0 080#802600F200804FFF
(1447251247.848090) can0 0B0#A352C200A2698352
(1447251247.848308) can0 145#211040FC8050F2FD
(1447251247.852040) can0 1B0#EC00B00000008000
(1447251247.852305) can0 1B5#2FFFC000000000F9
(1447251247.852547) can0 1D8#6380000000000000
(1447251247.852780) can0 1E0#E016BD80817B2000
(1447251247.853003) can0 2C3#505400FFFF013082
(1447251247.856005) can0 008#80008000F4DC803B
(1447251247.856535) can0 010#F831B02F80008000
(1447251247.856804) can0 072#20A0000027FF00F0
(1447251247.857084) can0 330#0000000000000000
(1447251247.862028) can0 0F5#00127B7F80008000
(1447251247.862326) can0 120#8954004F80008000
(1447251247.862570) can0 130#11FF1300001C99F4
(1447251247.862812) can0 150#C013C7FFE0000000
(1447251247.866007) can0 008#80008000E4EC803B
(1447251247.866404) can0 010#F831B02F80008000
(1447251247.866647) can0 1D0#6108ED218ADCC500
(1447251247.866889) can0 055#809C00B227FFF7FF
(1447251247.867249) can0 065#01DE8E00F7F6E000
(1447251247.867518) can0 070#000EF200F8076000
(1447251247.867786) can0 075#1854000000000000
(1447251247.868088) can0 080#802600F200804FFF
(1447251247.868089) can0 0B0#A352C200A2698352
(1447251247.868332) can0 145#210040FC8050F2FD
(1447251247.868574) can0 210#460C09D0A000DFAD
(1447251247.868761) can0 28C#00BE3700000040A0
(1447251247.869035) can0 291#0000000000000000
(1447251247.869277) can0 2B5#0022ADB35200004B
(1447251247.869520) can0 2C0#E5A0000001000000
(1447251247.869749) can0 2C5#0000E00000008700
(1447251247.869986) can0 370#00D7435400900004
(1447251247.870228) can0 3AF#2000000000000000
(1447251247.870497) can0 3E0#0080983F18000000
(1447251247.871184) can0 072#2080000027FF00F0
(1447251247.872053) can0 1B0#EC00B00000008000
(1447251247.872320) can0 1B5#2FFFC000000000F9
(1447251247.872576) can0 1D8#6380000000000000
(1447251247.872819) can0 1E0#E016BD80C16B2400
(1447251247.875982) can0 008#80008000D4FC803B
(1447251247.876352) can0 010#F931B02F80008000
(1447251247.876621) can0 2A9#840000C0CA0006AC
(1447251247.882059) can0 0F5#00027F7F80008000
(1447251247.882326) can0 120#8954004F80008000
(1447251247.882569) can0 130#11FF0300001C99FC
(1447251247.882812) can0 150#C003C7FFF0000000
(1447251247.886007) can0 008#80008000C40C803B
(1447251247.886456) can0 010#F831B02F80008000
(1447251247.886699) can0 072#20A0000027FF00F0
(1447251247.887005) can0 055#809C00B227FFF7FF
(1447251247.887275) can0 065#01DE8E00F7F6E000
(1447251247.887543) can0 070#000EF200F8076000
(1447251247.887812) can0 075#1854000000000000
(1447251247.888115) can0 080#802600F200804FFF
(1447251247.888115) can0 0B0#A352C200A2698352
(1447251247.888384) can0 145#A11040FC8050F2FD
(1447251247.888596) can0 1D0#6102ED218ADCC500
(1447251247.890884) can0 210#4E0C09D0A000DFAD
(1447251247.892083) can0 1B0#EC00B00000008000
(1447251247.892353) can0 1B5#2FFFC000000000F9
(1447251247.892594) can0 1D8#6380000000000000
(1447251247.892838) can0 1E0#E016BD80C15B2800
(1447251247.893037) can0 2C3#505400FFFF013082
(1447251247.896006) can0 008#80008000B41C803B
(1447251247.896326) can0 010#F831B02F80008000
(1447251247.896595) can0 291#0000000000000000
(1447251247.901004) can0 072#2080000027FF00F0
(1447251247.901223) can0 360#01A0000341013082
(1447251247.902057) can0 0F5#00F2437F80008000
(1447251247.902299) can0 120#8954004F80008000
(1447251247.902517) can0 130#11FFF300001C9984
(1447251247.902760) can0 150#C0F3C7FF00000000
(1447251247.906006) can0 008#80008000A42C803B
(1447251247.906429) can0 010#F831B02F80008000
(1447251247.906699) can0 1D0#6100ED218ADCC500
(1447251247.906916) can0 055#809C00B227FFF7FF
(1447251247.907194) can0 065#01DE8E00F7F6E000
(1447251247.907412) can0 070#000EF200F8076000
(1447251247.907655) can0 075#1854000000000000
(1447251247.907898) can0 080#802600F200804FFF
(1447251247.908191) can0 0B0#A352C200A2698352
(1447251247.908458) can0 145#211040FC8050F2FD
(1447251247.908758) can0 28C#00BE3700000040A0
(1447251247.909057) can0 2B5#0022ADB35200004B
(1447251247.909057) can0 390#6F552A020000FF80
(1447251247.912084) can0 1B0#EC00B00000008000
(1447251247.912352) can0 1B5#2FFFC000000000F9
(1447251247.912569) can0 1D8#6380000000000000
(1447251247.912811) can0 1E0#E016BD80815B2800
(1447251247.916004) can0 008#80008000943C803B
(1447251247.916274) can0 010#F831B02F80008000
(1447251247.916516) can0 072#20A0000027FF00F0
(1447251247.916733) can0 210#4E0C09D0A000DFAD
(1447251247.916973) can0 2A9#840000C0D30006AC
(1447251247.922024) can0 0F5#00E2477F80008000
(1447251247.922325) can0 120#8954004F80008000
(1447251247.922568) can0 130#11FFE300001C998C
(1447251247.922812) can0 150#C0E3C7FF10000000
(1447251247.926005) can0 008#80008000844C803B
(1447251247.926429) can0 010#F831B02F80008000
(1447251247.926672) can0 1D0#6100ED218ADCC500
(1447251247.926915) can0 055#809C00B227FFF7FF
(1447251247.927220) can0 065#01DE8E00F7F6E000
(1447251247.927489) can0 070#000EF200F8076000
(1447251247.927727) can0 075#1854000000000000
(1447251247.928030) can0 080#802600F200804FFF
(1447251247.928326) can0 0B0#A352C200A2698352
(1447251247.928327) can0 145#210040FC8050F2FD
(1447251247.928569) can0 291#0000000000000000
(1447251247.928806) can0 2C0#E5A0000001000000
(1447251247.929037) can0 2C5#0000E00000008700
(1447251247.931104) can0 072#2080000027FF00F0
(1447251247.931403) can0 3B0#00C400002836D800
(1447251247.932051) can0 1B0#EC00B00000008000
(1447251247.932351) can0 1B5#2FFFC000000000F9
(1447251247.932594) can0 1D8#6380000000000000
(1447251247.932785) can0 1E0#E016BD80C14B2C00
(1447251247.933037) can0 2C3#505400FFFF013082
(1447251247.935979) can0 008#80008000745C803B
(1447251247.936377) can0 010#F831B02F80008000
(1447251247.936645) can0 330#0000000000000000
(1447251247.940889) can0 210#460C09D02000DFAD
(1447251247.942029) can0 0F5#00D24B7F80008000
(1447251247.942299) can0 120#8954004F80008000
(1447251247.942541) can0 130#11FFD300001C9994
(1447251247.942759) can0 150#C0D3C7FF20000000
(1447251247.946005) can0 008#80008000646C803B
(1447251247.946403) can0 010#F831B02F80008000
(1447251247.946672) can0 072#20A0000027FF00F0
(1447251247.946915) can0 1D0#6108ED218ADCC500
(1447251247.947220) can0 055#809C00B227FFF7FF
(1447251247.947489) can0 065#01DE8E00F7F6E000
(1447251247.947758) can0 070#000EF200F8076000
(1447251247.948030) can0 075#1854000000000000
(1447251247.948294) can0 080#802600F200804FFF
(1447251247.948294) can0 0B0#A352C200A2698352
(1447251247.948535) can0 145#A11040FC8050F2FD
(1447251247.948810) can0 28C#00BE3700000040A0
(1447251247.949030) can0 2B5#0022ADB35200004B
(1447251247.952107) can0 1B0#EC00B00000008000
(1447251247.952350) can0 1B5#2FFFC000000000F9
(1447251247.952619) can0 1D8#6380000000000000
(1447251247.952810) can0 1E0#E016BD80C13B3000
(1447251247.956005) can0 008#80008000547C803B
(1447251247.956533) can0 010#F931B02F80008000
(1447251247.956801) can0 291#0000000000000000
(1447251247.957029) can0 2A9#840000C0CA0006AC
(1447251247.961082) can0 072#2080000027FF00F0
(1447251247.962055) can0 0F5#00C24F7F80008000
(1447251247.962324) can0 120#8954004F80008000
(1447251247.962567) can0 130#11FFC300001C999C
(1447251247.962810) can0 150#C0C3C7FF30000000
(1447251247.963035) can0 3CA#C000001300000000
(1447251247.965884) can0 008#80008000448C803B
(1447251247.966429) can0 010#F831B02F80008000
(1447251247.966671) can0 1D0#6102ED218ADCC500
(1447251247.966914) can0 055#809C00B227FFF7FF
(1447251247.967245) can0 065#01DE8E00F7F6E000
(1447251247.967492) can0 070#000EF200F8076000
(1447251247.967756) can0 075#1854000000000000
(1447251247.968053) can0 080#802600F200804FFF
(1447251247.968054) can0 0B0#A352C200A2698352
(1447251247.968323) can0 145#211040FC8050F2FD
(1447251247.968565) can0 210#460C09D0A000DFAD
(1447251247.968810) can0 370#00D3435400900004
(1447251247.972068) can0 1B0#EC00B00000008000
(1447251247.972323) can0 1B5#2FFFC000000000F9
(1447251247.972600) can0 1D8#6380000000000000
(1447251247.972784) can0 1E0#E016BD80813B3000
(1447251247.973027) can0 2C3#505400FFFF013082
(1447251247.975882) can0 008#80008000349C803B
(1447251247.976376) can0 010#F831B02F80008000
(1447251247.976645) can0 072#20A0000027FF00F0
(1447251247.982057) can0 0F5#00B2537F80008000
(1447251247.982324) can0 120#8954004F80008000
(1447251247.982567) can0 130#11FFB300001C99A4
(1447251247.982810) can0 150#C0B3C7FF40000000
(1447251247.985913) can0 008#8000800024AC803B
(1447251247.986374) can0 010#F831B02F80008000
(1447251247.986644) can0 1D0#6100ED218ADCC500
(1447251247.986886) can0 291#0000000000000000
(1447251247.987220) can0 055#809C00B227FFF7FF
(1447251247.987491) can0 065#01DE8E00F7F6E000
(1447251247.987760) can0 070#000EF200F8076000
(1447251247.988055) can0 075#1854000000000000
(1447251247.988056) can0 080#802600F200804FFF
(1447251247.988324) can0 0B0#A352C200A2698352
(1447251247.988510) can0 145#210040FC8050F2FD
(1447251247.988751) can0 28C#00BE3700000040A0
(1447251247.989009) can0 2B5#0022ADB35200004B
(1447251247.989253) can0 2C0#E5A0000001000000
(1447251247.989469) can0 2C5#0000E00000008700
(1447251247.989738) can0 3AF#2000000000000000
(1447251247.991003) can0 072#2080000027FF00F0
(1447251247.991245) can0 210#460C09D0A000DFAD
(1447251247.992055) can0 1B0#EC00B00000008000
(1447251247.992324) can0 1B5#2FFFC000000000F9
(1447251247.992587) can0 1D8#6380000000000000
(1447251247.992836) can0 1E0#E016BD80C12B3400
(1447251247.995887) can0 008#8000800014BC803B
(1447251247.996402) can0 010#F831B02F80008000
(1447251247.996670) can0 2A9#840000C0D30006AC
(1447251248.001003) can0 360#01A0000341013082
(1447251248.002029) can0 0F5#00A2577F80008000
(1447251248.002297) can0 120#8954004F80008000
(1447251248.002540) can0 130#11FFA300001C99AC
(1447251248.002758) can0 150#C0A3C7FF50000000
(1447251248.005914) can0 008#8000800004CC803B
(1447251248.006400) can0 010#F831B02F80008000
(1447251248.006643) can0 072#20A0000027FF00F0
(1447251248.006886) can0 055#809C00B227FFF7FF
(1447251248.007245) can0 065#01DE8E00F7F6E000
(1447251248.007514) can0 070#000EF200F8076000
(1447251248.007783) can0 075#1854000000000000
(1447251248.008087) can0 080#802600F200804FFF
(1447251248.008088) can0 0B0#A352C200A2698352
(1447251248.008329) can0 145#A11040FC8050F2FD
(1447251248.008572) can0 1D0#6100ED218ADCC500
(1447251248.008758) can0 390#4F5626020000FF80
(1447251248.012050) can0 1B0#EC00B00000008000
(1447251248.012323) can0 1B5#2FFFC000000000F9
(1447251248.012592) can0 1D8#6380000000000000
(1447251248.012809) can0 1E0#E016BD80C11B3800
(1447251248.013060) can0 2C3#505400FFFF013082
(1447251248.015883) can0 008#80008000F4DC803B
(1447251248.016375) can0 010#F831B02F80008000
(1447251248.016618) can0 210#4E0C09D0A000DFAD
(1447251248.016887) can0 291#0000000000000000
(1447251248.017218) can0 330#0000000000000000
(1447251248.017461) can0 3D0#C28001A3006109A0
(1447251248.020782) can0 072#2080000027FF00F0
(1447251248.022029) can0 0F5#00925B7F80008000
(1447251248.022297) can0 120#8954004F80008000
(1447251248.022540) can0 130#11FF9300001C99B4
(1447251248.022783) can0 150#C093C7FF60000000
(1447251248.025913) can0 008#80008000E4EC803B
(1447251248.026426) can0 010#F831B02F80008000
(1447251248.026669) can0 1D0#6100ED218ADCC500
(1447251248.027002) can0 055#809C00B227FFF7FF
(1447251248.027270) can0 065#01DE8E00F7F6E000
(1447251248.027539) can0 070#000EF200F8076000
(1447251248.027808) can0 075#1854000000000000
(1447251248.028106) can0 080#802600F200804FFF
(1447251248.028107) can0 0B0#A352C200A2698352
(1447251248.028349) can0 145#211040FC8050F2FD
(1447251248.028561) can0 28C#00BE3700000040A0
(1447251248.028802) can0 2B5#0022ADB35200004B
(1447251248.029054) can0 405#050000000000078F
(1447251248.032028) can0 1B0#EC00B00000008000
(1447251248.032322) can0 1B5#2FFFC000000000F9
(1447251248.032566) can0 1D8#6380000000000000
(1447251248.032808) can0 1E0#E016BD80811B3800
(1447251248.035913) can0 008#80008000D4FC803B
(1447251248.036296) can0 010#F831B02F80008000
(1447251248.036565) can0 072#20A0000027FF00F0
(1447251248.036808) can0 2A9#840000C0CA0006AC
(1447251248.040913) can0 210#4E0C09D0A000DFAC
(1447251248.042054) can0 0F5#00825F7F80008000
(1447251248.042322) can0 120#8954004F80008000
(1447251248.042567) can0 130#11FF8300001C99BC
(1447251248.042809) can0 150#C083C7FF70000000
(1447251248.045893) can0 008#80008000C40C803B
(1447251248.046375) can0 010#F931B02F80008000
(1447251248.046669) can0 1D0#610AED218ADCC500
(1447251248.046912) can0 055#809C00B227FFF7FF
(1447251248.047217) can0 065#01DE8E00F7F6E000
(1447251248.047486) can0 070#000EF200F8076000
(1447251248.047756) can0 075#1854000000000000
(1447251248.048027) can0 080#802600F200804FFF
(1447251248.048323) can0 0B0#A352C200A2698352
(1447251248.048323) can0 145#210040FC8050F2FD
(1447251248.048592) can0 291#0000000000000000
(1447251248.048804) can0 2C0#E5A0000001000000
(1447251248.049027) can0 2C5#0000E00000008700
(1447251248.051184) can0 072#2080000027FF00F0
(1447251248.051452) can0 3B0#00C400002836FC00
(1447251248.052027) can0 1B0#EC00B00000008000
(1447251248.052301) can0 1B5#2FFFC000000000F9
(1447251248.052548) can0 1D8#6380000000000000
(1447251248.052783) can0 1E0#E016BD80C10B3C00
(1447251248.053001) can0 2C3#505400FFFF013082
(1447251248.055911) can0 008#80008000B41C803B
(1447251248.056452) can0 010#F831B02F80008000
(1447251248.062028) can0 0F5#0072637F80008000
(1447251248.062271) can0 120#8954004F80008000
(1447251248.062513) can0 130#11FF7300001C99C4
(1447251248.062756) can0 150#C073C7FF80000000
(1447251248.065913) can0 008#80008000A42C803B
(1447251248.066425) can0 010#F831B02F80008000
(1447251248.066694) can0 072#20A0000027FF00F0
(1447251248.067001) can0 055#809C00B227FFF7FF
(1447251248.067270) can0 065#01DE8E00F7F6E000
(1447251248.067538) can0 070#000EF200F8076000
(1447251248.067781) can0 075#1854000000000000
(1447251248.068076) can0 080#802600F200804FFF
(1447251248.068078) can0 0B0#A352C200A2698352
(1447251248.068346) can0 145#A11040FC8050F2FD
(1447251248.068587) can0 1D0#6100ED218ADCC500
(1447251248.068830) can0 210#460C09D0A000DFAC
(1447251248.069060) can0 28C#00BE3700000040A0
(1447251248.069300) can0 2B5#0022ADB35200004B
(1447251248.069542) can0 370#00D3435400900004
(1447251248.072094) can0 1B0#EC00B00000008000
(1447251248.072361) can0 1B5#2FFFC000000000F9
(1447251248.072604) can0 1D8#6380000000000000
(1447251248.072816) can0 1E0#E016BD80C1FB0000
(1447251248.075907) can0 008#80008000943C803B
(1447251248.076336) can0 010#F831B02F80008000
(1447251248.076605) can0 291#0000000000000000
(1447251248.076808) can0 2A9#840000C0C20006AC
(1447251248.080976) can0 072#2080000027FF00F0
(1447251248.082042) can0 0F5#0062677F80008000
(1447251248.082310) can0 120#8954004F80008000
(1447251248.082553) can0 130#11FF6300001C99CC
(1447251248.082795) can0 150#C063C7FF90000000
(1447251248.083046) can0 3CA#C000001400000000
(1447251248.085855) can0 008#80008000844C803B
(1447251248.086439) can0 010#F831B02F80008000
(1447251248.086682) can0 1D0#6100ED218ADCC500
(1447251248.086881) can0 055#809C00B227FFF7FF
(1447251248.087205) can0 065#01DE8E00F7F6E000
(1447251248.087449) can0 070#000EF200F8076000
(1447251248.087652) can0 075#1854000000000000
(1447251248.087878) can0 080#802600F200804FFF
(1447251248.088190) can0 0B0#A352C200A2698352
(1447251248.088469) can0 145#211040FC8050F2FD
(1447251248.088686) can0 400#0602010102010101
(1447251248.091081) can0 210#4E0C09D02000DFAC
(1447251248.092067) can0 1B0#EC00B00000008000
(1447251248.092336) can0 1B5#2FFFC000000000F9
(1447251248.092579) can0 1D8#6380000000000000
(1447251248.092821) can0 1E0#E016BD8081FB0000
(1447251248.093033) can0 2C3#505400FFFF013082
(1447251248.095860) can0 008#80008000745C803B
(1447251248.096258) can0 010#F831B02F80008000
(1447251248.096527) can0 072#20A0000027FF00F0
(1447251248.096771) can0 330#0000000000000000
(1447251248.100854) can0 360#01A0000341013082
(1447251248.102040) can0 0F5#00526B7F80008000
(1447251248.102270) can0 120#8954004F80008000
(1447251248.102551) can0 130#11FF5300001C99D4
(1447251248.102781) can0 150#C053C7FFA0000000
(1447251248.105899) can0 008#80008000646C803B
(1447251248.106465) can0 010#F831B02F80008000
(1447251248.106694) can0 1D0#6108ED218ADCC500
(1447251248.107014) can0 055#809C00B227FFF7FF
(1447251248.107269) can0 065#01DE8E00F7F6E000
(1447251248.107551) can0 070#000EF200F8076000
(1447251248.107806) can0 075#1854000000000000
(1447251248.108118) can0 080#802600F200804FFF
(1447251248.108119) can0 0B0#A352C200A2698352
(1447251248.108342) can0 145#210040FC8050F2FD
(1447251248.108584) can0 28C#00BE3700000040A0
(1447251248.108852) can0 291#0000000000000000
(1447251248.109232) can0 2B5#0022ADB35200004B
(1447251248.109486) can0 2C0#E5A0000000000000
(1447251248.109769) can0 2C5#0000E00000008700
(1447251248.110058) can0 390#4F5722020000FF80
(1447251248.110073) can0 3AF#2000000000000000
(1447251248.111170) can0 072#2080000027FF00F0
(1447251248.112092) can0 1B0#EC00B00000008000
(1447251248.112361) can0 1B5#2FFFC000000000F9
(1447251248.112604) can0 1D8#6380000000000000
(1447251248.112847) can0 1E0#E016BD80C1EB0400
(1447251248.115854) can0 008#80008000547C803B
(1447251248.116361) can0 010#F931B02F80008000
(1447251248.116630) can0 210#4E0C09D0A000DFAC
(1447251248.116859) can0 2A9#840000C0DB0006AC
(1447251248.121995) can0 0F5#00426F7F80008000
(1447251248.122309) can0 120#8954004F80008000
(1447251248.122526) can0 130#11FF4300001C99DC
(1447251248.122769) can0 150#C043C7FFB0000000
(1447251248.125899) can0 008#80008000448C803B
(1447251248.126465) can0 010#F831B02F80008000
(1447251248.126733) can0 072#20A0000027FF00F0
(1447251248.127014) can0 055#809C00B227FFF7FF
(1447251248.127282) can0 065#01DE8E00F7F6E000
(1447251248.127537) can0 070#000EF200F8076000
(1447251248.127775) can0 075#1854000000000000
(1447251248.128091) can0 080#802600F200804FFF
(1447251248.128388) can0 0B0#A352C200A2698352
(1447251248.128388) can0 145#A11040FC8050F2FD
(1447251248.128584) can0 1D0#6102ED218ADCC500
(1447251248.132047) can0 1B0#EC00B00000008000
(1447251248.132288) can0 1B5#2FFFC000000000F9
(1447251248.132577) can0 1D8#6380000000000000
(1447251248.132821) can0 1E0#E016BD80C1DB0800
(1447251248.133072) can0 2C3#505400FFFF013082
(1447251248.135898) can0 008#80008000349C803B
(1447251248.136192) can0 010#F831B02F80008000
(1447251248.136473) can0 291#0000000000000000
(1447251248.141104) can0 072#2080000027FF00F0
(1447251248.141350) can0 210#460C09D0A000DFAC
(1447251248.142026) can0 0F5#0032737F80008000
(1447251248.142294) can0 120#8954004F80008000
(1447251248.142538) can0 130#11FF3300001C99E4
(1447251248.142755) can0 150#C033C7FFC0000000
(1447251248.145885) can0 008#8000800024AC803B
(1447251248.146242) can0 010#F831B02F80008000
(1447251248.146485) can0 1D0#6100ED218ADCC500
(1447251248.146859) can0 055#809C00B227FFF7FF
(1447251248.147135) can0 065#01DE8E00F7F6E000
(1447251248.147368) can0 070#000EF200F8076000
(1447251248.147597) can0 075#1854000000000000
(1447251248.147841) can0 080#802600F200804FFF
(1447251248.148077) can0 0B0#A352C200A2698352
(1447251248.148290) can0 145#211040FC8050F2FD
(1447251248.148545) can0 28C#00BE3700000040A0
(1447251248.148780) can0 2B5#0022ADB35200004B
(1447251248.152031) can0 1B0#EC00B00000008000
(1447251248.152263) can0 1B5#2FFFC000000000F9
(1447251248.152539) can0 1D8#6380000000000000
(1447251248.152783) can0 1E0#E016BD8081DB0800
(1447251248.155882) can0 008#8000800014BC803B
(1447251248.156529) can0 010#F831B02F80008000
(1447251248.156797) can0 072#20A0000027FF00F0
(1447251248.157051) can0 2A9#840000C0C20006AC
(1447251248.162053) can0 0F5#0022777F80008000
(1447251248.162320) can0 120#8954004F80008000
(1447251248.162563) can0 130#11FF2300001C99EC
(1447251248.162807) can0 150#C023C7FFD0000000
(1447251248.165885) can0 008#8000800004CC803B
(1447251248.166346) can0 010#F831B02F80008000
(1447251248.166615) can0 1D0#6100ED218ADCC500
(1447251248.166858) can0 210#460C09D0A000DFAC
(1447251248.167083) can0 055#809C00B227FFF7FF
(1447251248.167295) can0 065#01DE8E00F7F6E000
(1447251248.167569) can0 070#000EF200F8076000
(1447251248.167790) can0 075#1854000000000000
(1447251248.168025) can0 080#802600F200804FFF
(1447251248.168266) can0 0B0#A352C200A2698352
(1447251248.168509) can0 145#210040FC8050F2FD
(1447251248.168750) can0 291#0000000000000000
(1447251248.168968) can0 2C0#E5A0000001000000
(1447251248.169235) can0 2C5#0000E00000008700
(1447251248.169468) can0 370#00D3435400900004
(1447251248.169711) can0 3E0#0080983F18000000
(1447251248.171006) can0 072#2080000027FF00F0
(1447251248.171262) can0 3B0#00C400002836D800
(1447251248.172033) can0 1B0#EC00B00000008000
(1447251248.172301) can0 1B5#2FFFC000000000F9
(1447251248.172544) can0 1D8#6380000000000000
(1447251248.172787) can0 1E0#E016BD80C1CB0C00
(1447251248.173032) can0 2C3#505400FFFF013082
(1447251248.175858) can0 008#80008000F4DC803B
(1447251248.176374) can0 010#F831B02F80008000
(1447251248.176639) can0 330#0000000000000000
(1447251248.182000) can0 0F5#00127B7F80008000
(1447251248.182268) can0 120#8954004F80008000
(1447251248.182510) can0 130#11FF1300001C99F4
(1447251248.182728) can0 150#C013C7FFE0000000
(1447251248.185858) can0 008#80008000E4EC803B
(1447251248.186207) can0 010#F831B02F80008000
(1447251248.186476) can0 072#20A0000027FF00F0
(1447251248.186718) can0 1D0#6100ED218ADCC500
(1447251248.187000) can0 055#809C00B227FFF7FF
(1447251248.187241) can0 065#01DE8E00F7F6E000
(1447251248.187511) can0 070#000EF200F8076000
(1447251248.187780) can0 075#1854000000000000
(1447251248.188026) can0 080#802600F200804FFF
(1447251248.188319) can0 0B0#A352C200A2698352
(1447251248.188320) can0 145#A11040FC8050F2FD
(1447251248.188588) can0 28C#00BE3700000040A0
(1447251248.188837) can0 2B5#0022ADB35200004B
(1447251248.191182) can0 210#460C09D0A000DFAC
(1447251248.192077) can0 1B0#EC00B00000008000
(1447251248.192345) can0 1B5#2FFFC000000000F9
(1447251248.192588) can0 1D8#6380000000000000
(1447251248.192832) can0 1E0#E016BD80C1BB1000
(1447251248.195832) can0 008#80008000D4FC803B
(1447251248.196284) can0 010#F931B02F80008000
(1447251248.196553) can0 291#0000000000000000
(1447251248.196796) can0 2A9#840000C0CA0006AC
(1447251248.200908) can0 072#2080000027FF00F0
(1447251248.201162) can0 360#01A0000341013082
(1447251248.202024) can0 0F5#00027F7F80008000
(1447251248.202293) can0 120#8954004F80008000
(1447251248.202511) can0 130#11FF0300001C99FC
(1447251248.202805) can0 150#C003C7FFF0000000
(1447251248.203005) can0 3CA#C000001500000000
(1447251248.205858) can0 008#80008000C40C803B
(1447251248.206414) can0 010#F831B02F80008000
(1447251248.206656) can0 1D0#610AED218ADCC500
(1447251248.206899) can0 390#4F581E020000FF80
(1447251248.207216) can0 055#809C00B227FFF7FF
(1447251248.207483) can0 065#01DE8E00F7F6E000
(1447251248.207753) can0 070#000EF200F8076000
(1447251248.208030) can0 075#1854000000000000
(1447251248.208325) can0 080#802600F200804FFF
(1447251248.208326) can0 0B0#A352C200A2698352
(1447251248.208568) can0 145#211040FC8050F2FD
(1447251248.212052) can0 1B0#EC00B00000008000
(1447251248.212319) can0 1B5#2FFFC000000000F9
(1447251248.212531) can0 1D8#6380000000000000
(1447251248.212773) can0 1E0#E016BD8081BB1000
(1447251248.213029) can0 2C3#505400FFFF013082
(1447251248.215857) can0 008#80008000B41C803B
(1447251248.216388) can0 010#F831B02F80008000
(1447251248.216657) can0 072#20A0000027FF00F0
(1447251248.216900) can0 210#4E0C09D0A000DFAC
(1447251248.217191) can0 3D0#C28001A3006109A0
(1447251248.222050) can0 0F5#00F2437F80008000
(1447251248.222293) can0 120#8954004F80008000
(1447251248.222536) can0 130#11FFF300001C9984
(1447251248.222779) can0 150#C0F3C7FF00000000
(1447251248.225826) can0 008#80008000A42C803B
(1447251248.226408) can0 010#F831B02F80008000
(1447251248.226683) can0 1D0#6100ED218ADCC500
(1447251248.226998) can0 055#809C00B227FFF7FF
(1447251248.227266) can0 065#01DE8E00F7F6E000
(1447251248.227535) can0 070#000EF200F8076000
(1447251248.227804) can0 075#1854000000000000
(1447251248.228102) can0 080#802600F200804FFF
(1447251248.228103) can0 0B0#A352C200A2698352
(1447251248.228371) can0 145#210040FC8050F2FD
(1447251248.228614) can0 28C#00BE3700000040A0
(1447251248.228825) can0 291#0000000000000000
(1447251248.229075) can0 2B5#0022ADB35200004B
(1447251248.229320) can0 2C0#E5A0000001000000
(1447251248.229567) can0 2C5#0000E00000008700
(1447251248.229784) can0 3AF#2000000000000000
(1447251248.231050) can0 072#2080000027FF00F0
(1447251248.232050) can0 1B0#EC00B00000008000
(1447251248.232318) can0 1B5#2FFFC000000000F9
(1447251248.232588) can0 1D8#6380000000000000
(1447251248.232831) can0 1E0#E016BD80C1AB1400
(1447251248.235832) can0 008#80008000943C803B
(1447251248.236180) can0 010#F831B02F80008000
(1447251248.236448) can0 2A9#840000C0D30006AC
(1447251248.241025) can0 210#4E0C09D02000DFAC
(1447251248.242024) can0 0F5#00E2477F80008000
(1447251248.242292) can0 120#8954004F80008000
(1447251248.242536) can0 130#11FFE300001C998C
(1447251248.242778) can0 150#C0E3C7FF10000000
(1447251248.245855) can0 008#80008000844C803B
(1447251248.246309) can0 010#F831B02F80008000
(1447251248.246579) can0 072#20A0000027FF00F0
(1447251248.246821) can0 1D0#6100ED218ADCC500
(1447251248.247049) can0 055#809C00B227FFF7FF
(1447251248.247261) can0 065#01DE8E00F7F6E000
(1447251248.247535) can0 070#000EF200F8076000
(1447251248.247778) can0 075#1854000000000000
(1447251248.247977) can0 080#802600F200804FFF
(1447251248.248220) can0 0B0#A352C200A2698352
(1447251248.248463) can0 145#A11040FC8050F2FD
(1447251248.252021) can0 1B0#EC00B00000008000
(1447251248.252290) can0 1B5#2FFFC000000000F9
(1447251248.252565) can0 1D8#6380000000000000
(1447251248.252827) can0 1E0#E016BD80C19B1800
(1447251248.253036) can0 2C3#505400FFFF013082
(1447251248.255855) can0 008#80008000745C803B
(1447251248.256439) can0 010#F831B02F80008000
(1447251248.256708) can0 291#0000000000000000
