(1445275523.691732) vcan0 010#B831B02F00000000
(1445275523.696446) vcan0 072#2080000027FF00F0
(1445275523.701356) vcan0 581#8100FFFFFFFFFFFF
(1445275523.701618) vcan0 010#B831B02F00000000
(1445275523.701886) vcan0 1D0#6100000000000000
(1445275523.706189) vcan0 210#468409A82000DFD3
(1445275523.711732) vcan0 010#B831B02F00000000
(1445275523.711944) vcan0 072#2080000027FF00F0
(1445275523.712228) vcan0 2A9#840000C0C20006AE
(1445275523.716439) vcan0 360#01A00003D2000000
(1445275523.721633) vcan0 010#B831B02F00000000
(1445275523.721911) vcan0 1D0#6100000000000000
(1445275523.722147) vcan0 390#47552A020000FF80
(1445275523.726354) vcan0 072#2080000027FF00F0
(1445275523.726595) vcan0 3B0#0044000028B9D800
(1445275523.731632) vcan0 010#B831B02F00000000
(1445275523.731840) vcan0 210#468409A82000DFD3
(1445275523.732084) vcan0 3D0#428003380061009C
(1445275523.736281) vcan0 430#0630000000280828
(1445275523.741757) vcan0 010#F831B02F00000000
(1445275523.742037) vcan0 072#2080000027FF00F0
(1445275523.742289) vcan0 1D0#6100000000000000
(1445275523.751599) vcan0 010#F831B02F00000000
(1445275523.751809) vcan0 2A9#840000C0C20006AC
(1445275523.756349) vcan0 072#2080000027FF00F0
(1445275523.756566) vcan0 210#468409A82000DFD3
(1445275523.761813) vcan0 010#F831B02F00000000
(1445275523.762009) vcan0 1D0#6100000000000000
(1445275523.771629) vcan0 010#F831B02F00000000
(1445275523.771884) vcan0 072#2080000027FF00F0
(1445275523.781587) vcan0 010#F831B02F00000000
(1445275523.781916) vcan0 1D0#6100000000000000
(1445275523.782128) vcan0 055#8004000007FFD7FF
(1445275523.782405) vcan0 065#0200020027FF2000
(1445275523.782666) vcan0 070#0000020017FF0000
(1445275523.782939) vcan0 075#0000000000000000
(1445275523.783237) vcan0 080#0006000200000FFF
(1445275523.783535) vcan0 0B0#2000020002000000
(1445275523.783847) vcan0 145#000000FC0020F1C0
(1445275523.783848) vcan0 210#468409A82000DFD3
(1445275523.784124) vcan0 28C#0006300000000000
(1445275523.784409) vcan0 2B5#0000000000000005
(1445275523.784675) vcan0 2C0#4000000000000000
(1445275523.784974) vcan0 2C5#0000000000000000
(1445275523.785303) vcan0 370#00D1017A00000000
(1445275523.785304) vcan0 3AF#0000000000000000
(1445275523.785586) vcan0 3E0#0000182800000000
(1445275523.786385) vcan0 072#2080000027FF00F0
(1445275523.791775) vcan0 010#F831B02F00000000
(1445275523.792018) vcan0 2A9#840000C0C20006AC
(1445275523.801691) vcan0 010#F831B02F00000000
(1445275523.801954) vcan0 055#809C00B227FFF804
(1445275523.802220) vcan0 065#02008E00D7FFE000
(1445275523.802536) vcan0 070#000EF20057FF6000
(1445275523.802817) vcan0 072#2080000027FF00F0
(1445275523.803116) vcan0 075#0854000000000000
(1445275523.803476) vcan0 080#802200E200805009
(1445275523.803477) vcan0 0B0#8352C215A2008352
(1445275523.803763) vcan0 145#A110E0FC8050F2F8
(1445275523.803978) vcan0 1D0#6100000000000000
(1445275523.806399) vcan0 210#468409A82000DFD3
(1445275523.811715) vcan0 010#F831B02F00000000
(1445275523.816388) vcan0 072#2080000027FF00F0
(1445275523.816655) vcan0 360#01A00003D2000000
(1445275523.821602) vcan0 010#F831B02F00000000
(1445275523.821816) vcan0 1D0#6100000000000000
(1445275523.822084) vcan0 055#809C00B227FFF7FF
(1445275523.822436) vcan0 065#01EB8E00D7FBE000
(1445275523.822681) vcan0 070#000EF20058046000
(1445275523.822965) vcan0 075#1854000000000000
(1445275523.823287) vcan0 080#802600E200805009
(1445275523.823288) vcan0 0B0#8352C200A2768352
(1445275523.823504) vcan0 145#2110E0FC8050F2F8
(1445275523.823749) vcan0 28C#00BE300000000000
(1445275523.823996) vcan0 2B5#0000AD935200004B
(1445275523.824248) vcan0 390#475626020000FF80
(1445275523.831670) vcan0 010#F831B02F00000000
(1445275523.831884) vcan0 072#2080000027FF00F0
(1445275523.832175) vcan0 210#468409A82000DFD3
(1445275523.832458) vcan0 2A9#840000C0C20006AC
(1445275523.841731) vcan0 010#F831B02F00000000
(1445275523.841965) vcan0 055#809C00B227FFF7FF
(1445275523.842237) vcan0 065#01EB8E00D7FAE000
(1445275523.842493) vcan0 070#000EF20058046000
(1445275523.842819) vcan0 075#1854000000000000
(1445275523.843161) vcan0 080#802600E200804FFF
(1445275523.843162) vcan0 0B0#A352C200A2768352
(1445275523.843423) vcan0 145#2100C0FC8050F2FD
(1445275523.843718) vcan0 1D0#6100000000000000
(1445275523.843997) vcan0 2C0#F5E0000388000000
(1445275523.844251) vcan0 2C5#0000E00000008700
(1445275523.846521) vcan0 072#2080000027FF00F0
(1445275523.846738) vcan0 3B0#0044000028B9D800
(1445275523.851731) vcan0 010#F831B02F00000000
(1445275523.856354) vcan0 210#468409A82000DFD3
(1445275523.861809) vcan0 010#F831B02F00000000
(1445275523.862017) vcan0 055#809C00B227FFF7FF
(1445275523.862249) vcan0 065#01EB8E00D7FAE000
(1445275523.862498) vcan0 070#000EF20058046000
(1445275523.862749) vcan0 072#2080000027FF00F0
(1445275523.863000) vcan0 075#1854000000000000
(1445275523.863248) vcan0 080#802600E200804FFF
(1445275523.863579) vcan0 0B0#A352C200A2768352
(1445275523.863873) vcan0 145#A110C0FC8050F2FD
(1445275523.864229) vcan0 1D0#6100000000000000
(1445275523.864230) vcan0 28C#00BE300000005000
(1445275523.864473) vcan0 2B5#0022ADB35200004B
(1445275523.864719) vcan0 405#016438B0F05FF82A
(1445275523.871516) vcan0 010#F831B02F00000000
(1445275523.871819) vcan0 2A9#840000C0C20006AC
(1445275523.876426) vcan0 072#2080000027FF00F0
(1445275523.877493) vcan0 0F5#00821C7500000000
(1445275523.877745) vcan0 120#0800AF0500000000
(1445275523.877999) vcan0 130#01FF8300000C9938
(1445275523.878315) vcan0 150#0083C7FF75560000
(1445275523.878609) vcan0 3CA#0000004000000000
(1445275523.881689) vcan0 010#F831B02F00000000
(1445275523.881994) vcan0 1D0#6100000000000000
(1445275523.882237) vcan0 055#809C00B227FFF7FF
(1445275523.882535) vcan0 065#01EB8E00D7FAE000
(1445275523.882822) vcan0 070#000EF20058046000
(1445275523.883137) vcan0 075#1854000000000000
(1445275523.883138) vcan0 080#802600E200804FFF
(1445275523.883409) vcan0 0B0#A352C200A2768352
(1445275523.883602) vcan0 145#2110C0FC8050F2FD
(1445275523.883875) vcan0 210#468409A82000DFD3
(1445275523.884122) vcan0 370#00D3437A00900004
(1445275523.887439) vcan0 1B0#E400B00000004000
(1445275523.887691) vcan0 1B5#2FFFC000000000F9
(1445275523.887997) vcan0 1D8#63CF000000000000
(1445275523.888336) vcan0 1E0#E016BD8001BB1000
(1445275523.888628) vcan0 2C3#505400FFFF012975
(1445275523.891729) vcan0 010#F831B02F00000000
(1445275523.891994) vcan0 072#2080000027FF00F0
(1445275523.897445) vcan0 0F5#0072637580008000
(1445275523.897624) vcan0 120#89546C4580008000
(1445275523.897908) vcan0 130#11FF7300001C99C4
(1445275523.898125) vcan0 150#C073C7FF84CE0000
(1445275523.901835) vcan0 010#F831B02F00000000
(1445275523.902048) vcan0 055#809C00B227FFF7FF
(1445275523.902317) vcan0 065#01EB8E00F7F9E000
(1445275523.902625) vcan0 070#000EF200F8046000
(1445275523.902909) vcan0 075#1854000000000000
(1445275523.903193) vcan0 080#802600E200804FFF
(1445275523.903495) vcan0 0B0#A352C200A2768352
(1445275523.903496) vcan0 145#2100C0FC8050F2FD
(1445275523.903747) vcan0 1D0#6100000000000000
(1445275523.903998) vcan0 28C#00BE300000005000
(1445275523.904325) vcan0 2B5#0022ADB35200004B
(1445275523.904599) vcan0 2C0#E5E00003B0000000
(1445275523.904927) vcan0 2C5#0000E00000008700
(1445275523.904928) vcan0 3AF#2000000000000000
(1445275523.906604) vcan0 072#2080000027FF00F0
(1445275523.906852) vcan0 210#468409A82000DFD3
(1445275523.907389) vcan0 1B0#EC00B00000008000
(1445275523.907704) vcan0 1B5#2FFFC000000000F9
(1445275523.907940) vcan0 1D8#63CF000000000000
(1445275523.908210) vcan0 1E0#E016BD8041AB1400
(1445275523.911730) vcan0 010#F831B02F00000000
(1445275523.911966) vcan0 2A9#840000C0C20006AC
(1445275523.916324) vcan0 360#01A00003D2000000
(1445275523.917438) vcan0 0F5#0062677580008000
(1445275523.917729) vcan0 120#8954294580008000
(1445275523.917997) vcan0 130#11FF6300001C99CC
(1445275523.918246) vcan0 150#C063C7FF94460000
(1445275523.921853) vcan0 010#F831B02F00000000
(1445275523.922121) vcan0 055#809C00B227FFF7FF
(1445275523.922406) vcan0 065#01EB8E00F7F9E000
(1445275523.922674) vcan0 070#000EF200F8046000
(1445275523.922966) vcan0 072#2080000027FF00F0
(1445275523.923284) vcan0 075#1854000000000000
(1445275523.923285) vcan0 080#802600E200804FFF
(1445275523.923660) vcan0 0B0#A352C200A2768352
(1445275523.923937) vcan0 145#A110C0FC8050F2FD
(1445275523.924279) vcan0 1D0#6100000000000000
(1445275523.924280) vcan0 390#475722020000FF80
(1445275523.925439) vcan0 008#00000000FD0D8000
(1445275523.927469) vcan0 1B0#EC00B00000008000
(1445275523.927706) vcan0 1B5#2FFFC000000000F9
(1445275523.927980) vcan0 1D8#63CF000000000000
(1445275523.928292) vcan0 1E0#E016BD80419B1800
(1445275523.928504) vcan0 2C3#505400FFFF012975
(1445275523.931629) vcan0 010#F831B02F00000000
(1445275523.931806) vcan0 210#468409A82000DFD3
(1445275523.932089) vcan0 3D0#428003380061009C
(1445275523.936357) vcan0 008#80008000551C8199
(1445275523.936620) vcan0 072#2080000027FF00F0
(1445275523.937411) vcan0 0F5#00526B7580008000
(1445275523.937663) vcan0 120#8954004580008000
(1445275523.937958) vcan0 130#11FF5300001C99D4
(1445275523.938234) vcan0 150#C053C7FFA3BD0000
(1445275523.941889) vcan0 010#F831B02F00000000
(1445275523.942102) vcan0 055#809C00B227FFF7FF
(1445275523.942405) vcan0 065#01EB8E00F7F9E000
(1445275523.942690) vcan0 070#000EF200F8046000
(1445275523.942982) vcan0 075#1854000000000000
(1445275523.943324) vcan0 080#802600E200804FFF
(1445275523.943326) vcan0 0B0#A352C200A2768352
(1445275523.943625) vcan0 145#2110C0FC8050F2FD
(1445275523.943946) vcan0 1D0#6100000000000000
(1445275523.944247) vcan0 28C#00BE300000005000
(1445275523.944248) vcan0 2B5#0022ADB35200004B
(1445275523.946317) vcan0 008#80008000452C8199
(1445275523.947559) vcan0 1B0#EC00B00000008000
(1445275523.947829) vcan0 1B5#2FFFC000000000F9
(1445275523.948045) vcan0 1D8#63CF000000000000
(1445275523.948322) vcan0 1E0#E016BD80019B1800
(1445275523.951711) vcan0 010#F831B02F00000000
(1445275523.951998) vcan0 072#2080000027FF00F0
(1445275523.952310) vcan0 2A9#840000C0C20006AC
(1445275523.952612) vcan0 400#0161020101780201
(1445275523.956311) vcan0 008#80008000353C8199
(1445275523.956586) vcan0 210#468409A82000DFCC
(1445275523.957428) vcan0 0F5#00426F7580008000
(1445275523.957719) vcan0 120#8954004580008000
(1445275523.957998) vcan0 130#11FF4300001C99DC
(1445275523.958223) vcan0 150#C043C7FFB3350000
(1445275523.961818) vcan0 010#F831B02F00000000
(1445275523.962146) vcan0 055#809C00B227FFF7FF
(1445275523.962435) vcan0 065#01EB8E00F7F9E000
(1445275523.962702) vcan0 070#000EF200F8046000
(1445275523.962995) vcan0 075#1854000000000000
(1445275523.963315) vcan0 080#802600E200804FFF
(1445275523.963316) vcan0 0B0#A352C200A2768352
(1445275523.963624) vcan0 145#2100C0FC8050F2FD
(1445275523.963910) vcan0 1D0#6100000000000000
(1445275523.964176) vcan0 2C0#E5E00003B8000000
(1445275523.964450) vcan0 2C5#0000E00000008700
(1445275523.966295) vcan0 008#80008000254C8199
(1445275523.966595) vcan0 072#2080000027FF00F0
(1445275523.966850) vcan0 3B0#0044000028B9D800
(1445275523.967474) vcan0 1B0#EC00B00000008000
(1445275523.967764) vcan0 1B5#2FFFC000000000F9
(1445275523.967975) vcan0 1D8#63CF000000000000
(1445275523.968219) vcan0 1E0#E016BD80418B1C00
(1445275523.968474) vcan0 2C3#505400FFFF012975
(1445275523.971734) vcan0 010#F831B02F00000000
(1445275523.976309) vcan0 008#80008000155C8199
(1445275523.977389) vcan0 0F5#0032737580008000
(1445275523.977639) vcan0 120#8954004580008000
(1445275523.977873) vcan0 130#11FF3300001C99E4
(1445275523.978114) vcan0 150#C033C7FFC2AD0000
(1445275523.981762) vcan0 010#F831B02F00000000
(1445275523.982033) vcan0 055#809C00B227FFF7FF
(1445275523.982280) vcan0 065#01EB8E00F7F9E000
(1445275523.982673) vcan0 070#000EF200F8046000
(1445275523.982935) vcan0 072#2080000027FF00F0
(1445275523.983228) vcan0 075#1854000000000000
(1445275523.983229) vcan0 080#802600E200804FFF
(1445275523.983472) vcan0 0B0#A352C200A2768352
(1445275523.983719) vcan0 145#A110C0FC8050F2FD
(1445275523.983973) vcan0 1D0#6100000000000000
(1445275523.984294) vcan0 210#468409A82000DFCC
(1445275523.984633) vcan0 28C#00BE300000005000
(1445275523.984634) vcan0 2B5#0022ADB35200004B
(1445275523.984918) vcan0 370#00D3437A00900004
(1445275523.986310) vcan0 008#80008000056C8199
(1445275523.987454) vcan0 1B0#EC00B00000008000
(1445275523.987723) vcan0 1B5#2FFFC000000000F9
(1445275523.988038) vcan0 1D8#63CF000000000000
(1445275523.988313) vcan0 1E0#E016BD80417B2000
(1445275523.991796) vcan0 010#F831B02F00000000
(1445275523.992055) vcan0 2A9#840000C0C20006AC
(1445275523.996359) vcan0 008#80008000F57C8199
(1445275523.996592) vcan0 072#2080000027FF00F0
(1445275523.997412) vcan0 0F5#0022777580008000
(1445275523.997711) vcan0 120#8954004580008000
(1445275523.997912) vcan0 130#11FF2300001C99EC
(1445275523.998154) vcan0 150#C023C7FFD2250000
(1445275523.998399) vcan0 3CA#C000005100000000
(1445275524.001706) vcan0 010#F831B02F00000000
(1445275524.001963) vcan0 1D0#6100000000000000
(1445275524.002283) vcan0 055#809C00B227FFF7FF
(1445275524.002532) vcan0 065#01EB8E00F7F9E000
(1445275524.002840) vcan0 070#000EF200F8046000
(1445275524.003129) vcan0 075#1854000000000000
(1445275524.003130) vcan0 080#802600E200804FFF
(1445275524.003406) vcan0 0B0#A352C200A2768352
(1445275524.003602) vcan0 145#2110C0FC8050F2FD
(1445275524.006325) vcan0 008#80008000E58C8199
(1445275524.006625) vcan0 210#468409A82000DFCC
(1445275524.007460) vcan0 1B0#EC00B00000008000
(1445275524.007702) vcan0 1B5#2FFFC000000000F9
(1445275524.007975) vcan0 1D8#63CF000000000000
(1445275524.008246) vcan0 1E0#E016BD80017B2000
(1445275524.008492) vcan0 2C3#505400FFFF012975
(1445275524.011729) vcan0 010#F831B02F00000000
(1445275524.011995) vcan0 072#2080000027FF00F0
(1445275524.016262) vcan0 360#01A00003D2000000
(1445275524.016611) vcan0 008#80008000D59C8199
(1445275524.017464) vcan0 0F5#00127B7580008000
(1445275524.017709) vcan0 120#8954004580008000
(1445275524.017982) vcan0 130#11FF1300001C99F4
(1445275524.018248) vcan0 150#C013C7FFE19C0000
(1445275524.021759) vcan0 010#B831B02F00000000
(1445275524.022024) vcan0 055#809C00B227FFF7FF
(1445275524.022268) vcan0 065#01EB8E00F7F9E000
(1445275524.022624) vcan0 070#000EF200F8046000
(1445275524.022907) vcan0 075#1854000000000000
(1445275524.023198) vcan0 080#802600E200804FFF
(1445275524.023198) vcan0 0B0#A352C200A2768352
(1445275524.023476) vcan0 145#2100C0FC8050F2FD
(1445275524.023723) vcan0 1D0#6100000000000000
(1445275524.024010) vcan0 28C#00BE300000005000
(1445275524.024291) vcan0 2B5#0022ADB35200004B
(1445275524.024632) vcan0 2C0#E5A00003B8000000
(1445275524.024633) vcan0 2C5#0000E00000008700
(1445275524.024912) vcan0 390#47581E020000FF80
(1445275524.025182) vcan0 3AF#2000000000000000
(1445275524.026281) vcan0 008#80008000C5AC8199
(1445275524.026590) vcan0 072#2080000027FF00F0
(1445275524.027447) vcan0 1B0#EC00B00000008000
(1445275524.027718) vcan0 1B5#2FFFC000000000F9
(1445275524.028007) vcan0 1D8#63CF000000000000
(1445275524.028257) vcan0 1E0#E016BD80416B2400
(1445275524.031751) vcan0 010#B831B02F00000000
(1445275524.032079) vcan0 210#468409A82000DFCC
(1445275524.032406) vcan0 2A9#840000C0C20006AC
(1445275524.036284) vcan0 008#80008000B5BC8199
(1445275524.037400) vcan0 0F5#00027F7580008000
(1445275524.037688) vcan0 120#8954004580008000
(1445275524.037996) vcan0 130#11FF0300001C99FC
(1445275524.038281) vcan0 150#C003C7FFF1140000
(1445275524.041809) vcan0 010#F831B02F00000000
(1445275524.042060) vcan0 055#809C00B227FFF7FF
(1445275524.042342) vcan0 065#01EB8E00F7F9E000
(1445275524.042654) vcan0 070#000EF200F8046000
(1445275524.042912) vcan0 072#2080000027FF00F0
(1445275524.043225) vcan0 075#1854000000000000
(1445275524.043226) vcan0 080#802600E200804FFF
(1445275524.043471) vcan0 0B0#A352C200A2768352
(1445275524.043721) vcan0 145#A110C0FC8050F2FD
(1445275524.043975) vcan0 1D0#6100000000000000
(1445275524.046283) vcan0 008#80008000A5CC8199
(1445275524.047428) vcan0 1B0#EC00B00000008000
(1445275524.047724) vcan0 1B5#2FFFC000000000F9
(1445275524.047993) vcan0 1D8#63CF000000000000
(1445275524.048293) vcan0 1E0#E016BD80415B2800
(1445275524.048588) vcan0 2C3#505400FFFF012975
(1445275524.051585) vcan0 010#F831B02F00000000
(1445275524.056330) vcan0 008#8000800095DC8199
(1445275524.056660) vcan0 072#2080000027FF00F0
(1445275524.056908) vcan0 210#468409A82000DFCC
(1445275524.057386) vcan0 0F5#00F2437580008000
(1445275524.057659) vcan0 120#8954004580008000
(1445275524.057904) vcan0 130#11FFF300001C9984
(1445275524.058129) vcan0 150#C0F3C7FF008C0000
(1445275524.061753) vcan0 010#F831B02F00000000
(1445275524.062036) vcan0 055#809C00B227FFF7FF
(1445275524.062282) vcan0 065#01EB8E00F7F9E000
(1445275524.062473) vcan0 070#000EF200F8046000
(1445275524.062743) vcan0 075#1854000000000000
(1445275524.063073) vcan0 080#802600E200804FFF
(1445275524.063428) vcan0 0B0#A352C200A2768352
(1445275524.063714) vcan0 145#2110C0FC8050F2FD
(1445275524.063715) vcan0 1D0#6100000000000000
(1445275524.063998) vcan0 28C#00BE300000005000
(1445275524.064249) vcan0 2B5#0022ADB35200004B
(1445275524.066319) vcan0 008#8000800085EC8199
(1445275524.067468) vcan0 1B0#EC00B00000008000
(1445275524.067683) vcan0 1B5#2FFFC000000000F9
(1445275524.067940) vcan0 1D8#63CF000000000000
(1445275524.068214) vcan0 1E0#E016BD80015B2800
(1445275524.071729) vcan0 010#F831B02F00000000
(1445275524.071992) vcan0 072#2080000027FF00F0
(1445275524.072248) vcan0 2A9#840000C0C20006AC
(1445275524.076325) vcan0 008#8000800075FC8199
(1445275524.077437) vcan0 0F5#00E2477580008000
(1445275524.077704) vcan0 120#8954004580008000
(1445275524.077999) vcan0 130#11FFE300001C998C
(1445275524.078242) vcan0 150#C0E3C7FF10040000
(1445275524.081848) vcan0 010#F831B02F00000000
(1445275524.082097) vcan0 055#809C00B227FFF7FF
(1445275524.082434) vcan0 065#01EB8E00F7F9E000
(1445275524.082692) vcan0 070#000EF200F8046000
(1445275524.082991) vcan0 075#1854000000000000
(1445275524.083408) vcan0 080#802600E200804FFF
(1445275524.083409) vcan0 0B0#A352C200A2768352
(1445275524.083693) vcan0 145#2100C0FC8050F2FD
(1445275524.083995) vcan0 1D0#6100000000000000
(1445275524.083996) vcan0 210#468409A82000DFCC
(1445275524.084246) vcan0 2C0#E5A00003B9000000
(1445275524.084496) vcan0 2C5#0000E00000008700
(1445275524.084719) vcan0 370#00D3437A00900004
(1445275524.084973) vcan0 3E0#0080985218000000
(1445275524.086263) vcan0 008#80008000650C8199
(1445275524.086585) vcan0 072#2080000027FF00F0
(1445275524.086849) vcan0 3B0#0044000028B9D800
(1445275524.087426) vcan0 1B0#EC00B00000008000
(1445275524.087690) vcan0 1B5#2FFFC000000000F9
(1445275524.087974) vcan0 1D8#63CF000000000000
(1445275524.088215) vcan0 1E0#E016BD80414B2C00
(1445275524.088492) vcan0 2C3#505400FFFF012975
(1445275524.091729) vcan0 010#F831B02F00000000
(1445275524.096327) vcan0 008#80008000551C8199
(1445275524.097439) vcan0 0F5#00D24B7580008000
(1445275524.097658) vcan0 120#8954004580008000
(1445275524.097909) vcan0 130#11FFD300001C9994
(1445275524.098117) vcan0 150#C0D3C7FF20000000
(1445275524.101858) vcan0 010#F831B02F00000000
(1445275524.102121) vcan0 055#809C00B227FFF7FF
(1445275524.102396) vcan0 065#01EB8E00F7F9E000
(1445275524.102666) vcan0 070#000EF200F8046000
(1445275524.102965) vcan0 072#2080000027FF00F0
(1445275524.103286) vcan0 075#1854000000000000
(1445275524.103287) vcan0 080#802600E200804FFF
(1445275524.103546) vcan0 0B0#A352C200A2768352
(1445275524.103813) vcan0 145#A110C0FC8050F2FD
(1445275524.104085) vcan0 1D0#6100000000000000
(1445275524.104382) vcan0 28C#00BE300000005000
(1445275524.104635) vcan0 2B5#0022ADB35200004B
(1445275524.106284) vcan0 008#80008000452C8199
(1445275524.106599) vcan0 210#468409A82000DFCC
(1445275524.107425) vcan0 1B0#EC00B00000008000
(1445275524.107719) vcan0 1B5#2FFFC000000000F9
(1445275524.108010) vcan0 1D8#63CF000000000000
(1445275524.108254) vcan0 1E0#E016BD80413B3000
(1445275524.111597) vcan0 010#F831B02F00000000
(1445275524.111870) vcan0 2A9#840000C0C20006AC
(1445275524.112121) vcan0 405#023D340031012975
(1445275524.116209) vcan0 072#2080000027FF00F0
(1445275524.116484) vcan0 008#80008000353C8199
(1445275524.116708) vcan0 360#01A00003D2000000
(1445275524.117426) vcan0 0F5#00C24F7580008000
(1445275524.117663) vcan0 120#8954004580008000
(1445275524.117916) vcan0 130#11FFC300001C999C
(1445275524.118135) vcan0 150#C0C3C7FF30000000
(1445275524.118407) vcan0 3CA#C000005200000000
(1445275524.121883) vcan0 010#F831B02F00000000
(1445275524.122100) vcan0 055#809C00B227FFF7FF
(1445275524.122408) vcan0 065#01EB8E00F7F9E000
(1445275524.122621) vcan0 070#000EF200F8046000
(1445275524.122866) vcan0 075#1854000000000000
(1445275524.123189) vcan0 080#802600E200804FFF
(1445275524.123491) vcan0 0B0#A352C200A2768352
(1445275524.123492) vcan0 145#2110C0FC8050F2FD
(1445275524.123787) vcan0 1D0#6100000000000000
(1445275524.124031) vcan0 390#47591A020000FF80
(1445275524.126301) vcan0 008#80008000254C8199
(1445275524.127440) vcan0 1B0#EC00B00000008000
(1445275524.127699) vcan0 1B5#2FFFC000000000F9
(1445275524.127997) vcan0 1D8#63CF000000000000
(1445275524.128310) vcan0 1E0#E016BD80013B3000
(1445275524.128588) vcan0 2C3#505400FFFF012975
(1445275524.131678) vcan0 010#F831B02F00000000
(1445275524.131984) vcan0 072#2080000027FF00F0
(1445275524.132235) vcan0 210#468409A82000DFCC
(1445275524.132494) vcan0 3D0#428003380061009C
(1445275524.136291) vcan0 008#80008000155C8199
(1445275524.137434) vcan0 0F5#00B2537580008000
(1445275524.137680) vcan0 120#8954004580008000
(1445275524.137992) vcan0 130#11FFB300001C99A4
(1445275524.138247) vcan0 150#C0B3C7FF40000000
(1445275524.141884) vcan0 010#F831B02F00000000
(1445275524.142098) vcan0 055#809C00B227FFF7FF
(1445275524.142406) vcan0 065#01EB8E00F7F9E000
(1445275524.142690) vcan0 070#000EF200F8046000
(1445275524.142997) vcan0 075#1854000000000000
(1445275524.143407) vcan0 080#802600E200804FFF
(1445275524.143408) vcan0 0B0#A352C200A2768352
(1445275524.143688) vcan0 145#2100C0FC8050F2FD
(1445275524.143997) vcan0 1D0#6100000000000000
(1445275524.143998) vcan0 28C#00BE300000005000
(1445275524.144247) vcan0 2B5#0022ADB35200004B
(1445275524.144493) vcan0 2C0#E5A00003BB000000
(1445275524.144726) vcan0 2C5#0000E00000008700
(1445275524.144975) vcan0 3AF#2000000000000000
(1445275524.146307) vcan0 008#80008000056C8199
(1445275524.146556) vcan0 072#2080000027FF00F0
(1445275524.147425) vcan0 1B0#EC00B00000008000
(1445275524.147655) vcan0 1B5#2FFFC000000000F9
(1445275524.147888) vcan0 1D8#63CF000000000000
(1445275524.148164) vcan0 1E0#E016BD80412B3400
(1445275524.151579) vcan0 010#F831B02F00000000
(1445275524.151874) vcan0 2A9#840000C0C20006AC
(1445275524.156304) vcan0 008#80008000F57C8199
(1445275524.156571) vcan0 210#468409A82000DFCC
(1445275524.157426) vcan0 0F5#00A2577580008000
(1445275524.157670) vcan0 120#8954004580008000
(1445275524.157967) vcan0 130#11FFA300001C99AC
(1445275524.158239) vcan0 150#C0A3C7FF50000000
(1445275524.161758) vcan0 010#F831B02F00000000
(1445275524.161971) vcan0 055#809C00B227FFF7FF
(1445275524.162233) vcan0 065#01EB8E00F7F9E000
(1445275524.162495) vcan0 070#000EF200F8046000
(1445275524.162744) vcan0 072#2080000027FF00F0
(1445275524.163069) vcan0 075#1854000000000000
(1445275524.163406) vcan0 080#802600E200804FFF
(1445275524.163718) vcan0 0B0#A352C200A2768352
(1445275524.163719) vcan0 145#A110C0FC8050F2FD
(1445275524.163989) vcan0 1D0#6100000000000000
(1445275524.166293) vcan0 008#80008000E58C8199
(1445275524.167464) vcan0 1B0#EC00B00000008000
(1445275524.167700) vcan0 1B5#2FFFC000000000F9
(1445275524.167971) vcan0 1D8#63CF000000000000
(1445275524.168248) vcan0 1E0#E016BD80411B3800
(1445275524.168491) vcan0 2C3#505400FFFF012975
(1445275524.171800) vcan0 010#F831B02F00000000
(1445275524.176252) vcan0 008#80008000D59C8199
(1445275524.176529) vcan0 072#2080000027FF00F0
(1445275524.177399) vcan0 0F5#00925B7580008000
(1445275524.177645) vcan0 120#8954004580008000
(1445275524.177863) vcan0 130#11FF9300001C99B4
(1445275524.178107) vcan0 150#C093C7FF60000000
(1445275524.181790) vcan0 010#F831B02F00000000
(1445275524.182060) vcan0 055#809C00B227FFF7FF
(1445275524.182347) vcan0 065#01EB8E00F7F9E000
(1445275524.182624) vcan0 070#000EF200F8046000
(1445275524.182945) vcan0 075#1854000000000000
(1445275524.183279) vcan0 080#802600E200804FFF
(1445275524.183281) vcan0 0B0#A352C200A2768352
(1445275524.183655) vcan0 145#2110C0FC8050F2FD
(1445275524.183961) vcan0 1D0#6100000000000000
(1445275524.183962) vcan0 210#468409A82000DFCC
(1445275524.184184) vcan0 28C#00BE300000005000
(1445275524.184469) vcan0 2B5#0022ADB35200004B
(1445275524.184740) vcan0 370#00D3437A00900004
(1445275524.186291) vcan0 008#80008000C5AC8199
(1445275524.187422) vcan0 1B0#EC00B00000008000
(1445275524.187662) vcan0 1B5#2FFFC000000000F9
(1445275524.187908) vcan0 1D8#63CF000000000000
(1445275524.188141) vcan0 1E0#E016BD80011B3800
(1445275524.191854) vcan0 010#F831B02F00000000
(1445275524.192095) vcan0 072#2080000027FF00F0
(1445275524.192406) vcan0 2A9#840000C0C20006AC
(1445275524.196304) vcan0 008#80008000B5BC8199
(1445275524.197437) vcan0 0F5#00825F7580008000
(1445275524.197654) vcan0 120#8954004580008000
(1445275524.197906) vcan0 130#11FF8300001C99BC
(1445275524.198153) vcan0 150#C083C7FF70000000
(1445275524.201814) vcan0 010#F831B02F00000000
(1445275524.202079) vcan0 055#809C00B227FFF7FF
(1445275524.202433) vcan0 065#01EB8E00F7F9E000
(1445275524.202690) vcan0 070#000EF200F8046000
(1445275524.203029) vcan0 075#1854000000000000
(1445275524.203031) vcan0 080#802600E200804FFF
(1445275524.203262) vcan0 0B0#A352C200A2768352
(1445275524.203495) vcan0 145#2100C0FC8050F2FD
(1445275524.203779) vcan0 1D0#6100000000000000
(1445275524.203991) vcan0 2C0#E5A00003BB000000
(1445275524.204243) vcan0 2C5#0000E00000008700
(1445275524.204491) vcan0 400#0201440113010102
(1445275524.206298) vcan0 008#80008000A5CC8199
(1445275524.206669) vcan0 072#2080000027FF00F0
(1445275524.206880) vcan0 210#468409A82000DFCC
(1445275524.207121) vcan0 3B0#0044000028B9D800
(1445275524.207438) vcan0 1B0#EC00B00000008000
(1445275524.207712) vcan0 1B5#2FFFC000000000F9
(1445275524.207984) vcan0 1D8#63CF000000000000
(1445275524.208252) vcan0 1E0#E016BD80410B3C00
(1445275524.208496) vcan0 2C3#505400FFFF012975
(1445275524.211808) vcan0 010#F831B02F00000000
(1445275524.216241) vcan0 360#01A00003D2000000
(1445275524.216474) vcan0 008#8000800095DC8199
(1445275524.217433) vcan0 0F5#0072637580008000
(1445275524.217689) vcan0 120#8954004580008000
(1445275524.217963) vcan0 130#11FF7300001C99C4
(1445275524.218235) vcan0 150#C073C7FF80000000
(1445275524.221834) vcan0 010#F831B02F00000000
(1445275524.222048) vcan0 055#809C00B227FFF7FF
(1445275524.222288) vcan0 065#01EB8E00F7F9E000
(1445275524.222671) vcan0 070#000EF200F8046000
(1445275524.222937) vcan0 072#2080000027FF00F0
(1445275524.223256) vcan0 075#1854000000000000
(1445275524.223257) vcan0 080#802600E200804FFF
(1445275524.223495) vcan0 0B0#A352C200A2768352
(1445275524.223746) vcan0 145#A110C0FC8050F2FD
(1445275524.223998) vcan0 1D0#6100000000000000
(1445275524.224236) vcan0 28C#00BE300000005000
(1445275524.224705) vcan0 2B5#0022ADB35200004B
(1445275524.224706) vcan0 390#475A16020000FF80
(1445275524.226298) vcan0 008#8000800085EC8199
(1445275524.227470) vcan0 1B0#EC00B00000008000
(1445275524.227728) vcan0 1B5#2FFFC000000000F9
(1445275524.227996) vcan0 1D8#63CF000000000000
(1445275524.228281) vcan0 1E0#E016BD8041FB0000
(1445275524.231663) vcan0 010#F831B02F00000000
(1445275524.231974) vcan0 210#468409A82000DFBD
(1445275524.232239) vcan0 2A9#840000C0C20006AC
(1445275524.236254) vcan0 008#8000800075FC8199
(1445275524.236492) vcan0 072#2080000027FF00F0
(1445275524.237389) vcan0 0F5#0062677580008000
(1445275524.237628) vcan0 120#8954004580008000
(1445275524.237869) vcan0 130#11FF6300001C99CC
(1445275524.238119) vcan0 150#C063C7FF90000000
(1445275524.238382) vcan0 3CA#C000005300000000
(1445275524.241769) vcan0 010#F831B02F00000000
(1445275524.242076) vcan0 055#809C00B227FFF7FF
(1445275524.242403) vcan0 065#01EB8E00F7F9E000
(1445275524.242686) vcan0 070#000EF200F8046000
(1445275524.242993) vcan0 075#1854000000000000
(1445275524.242994) vcan0 080#802600E200804FFF
(1445275524.243220) vcan0 0B0#A352C200A2768352
(1445275524.243469) vcan0 145#2110C0FC8050F2FD
(1445275524.243720) vcan0 1D0#6100000000000000
(1445275524.246224) vcan0 008#80008000650C8199
(1445275524.247370) vcan0 1B0#EC00B00000008000
(1445275524.247668) vcan0 1B5#2FFFC000000000F9
(1445275524.247938) vcan0 1D8#63CF000000000000
(1445275524.248220) vcan0 1E0#E016BD8001FB0000
(1445275524.248468) vcan0 2C3#505400FFFF012975
(1445275524.251730) vcan0 010#F831B02F00000000
(1445275524.251994) vcan0 072#2080000027FF00F0
(1445275524.256277) vcan0 008#80008000551C8199
(1445275524.256499) vcan0 210#468409A82000DFBD
(1445275524.257433) vcan0 0F5#00526B7F80008000
(1445275524.257646) vcan0 120#8954004F80008000
(1445275524.257901) vcan0 130#11FF5300001C99D4
(1445275524.258152) vcan0 150#C053C7FFA0000000
(1445275524.261887) vcan0 010#F831B02F00000000
(1445275524.262135) vcan0 055#809C00B227FFF7FF
(1445275524.262403) vcan0 065#01EB8E00F7F9E000
(1445275524.262644) vcan0 070#000EF200F8046000
(1445275524.262915) vcan0 075#1854000000000000
(1445275524.263210) vcan0 080#802600E200804FFF
(1445275524.263510) vcan0 0B0#A352C200A2768352
(1445275524.263511) vcan0 145#2100C0FC8050F2FD
(1445275524.263801) vcan0 1D0#6100000000000000
(1445275524.264120) vcan0 28C#00BE300000005000
(1445275524.264442) vcan0 2B5#0022ADB35200004B
(1445275524.264724) vcan0 2C0#E5A00003BD000000
(1445275524.264724) vcan0 2C5#0000E00000008700
(1445275524.264963) vcan0 3AF#2000000000000000
(1445275524.266231) vcan0 008#80008000452C8199
(1445275524.266511) vcan0 072#2080000027FF00F0
(1445275524.267383) vcan0 1B0#EC00B00000008000
(1445275524.267688) vcan0 1B5#2FFFC000000000F9
(1445275524.267948) vcan0 1D8#63CF000000000000
(1445275524.268185) vcan0 1E0#E016BD8041EB0400
(1445275524.271757) vcan0 010#F831B02F00000000
(1445275524.271996) vcan0 2A9#840000C0C20006AC
(1445275524.276278) vcan0 008#80008000353C8199
(1445275524.277437) vcan0 0F5#00426F7F80008000
(1445275524.277650) vcan0 120#8954004F80008000
(1445275524.277904) vcan0 130#11FF4300001C99DC
(1445275524.278155) vcan0 150#C043C7FFB0000000
(1445275524.281756) vcan0 010#F831B02F00000000
(1445275524.281966) vcan0 055#809C00B227FFF7FF
(1445275524.282160) vcan0 065#01EB8E00F7F9E000
(1445275524.282471) vcan0 070#000EF200F8046000
(1445275524.282779) vcan0 072#2080000027FF00F0
(1445275524.283064) vcan0 075#1854000000000000
(1445275524.283405) vcan0 080#802600E200804FFF
(1445275524.283406) vcan0 0B0#A352C200A2768352
(1445275524.283662) vcan0 145#A110C0FC8050F2FD
(1445275524.283959) vcan0 1D0#6100000000000000
(1445275524.284247) vcan0 210#468409A82000DFBD
(1445275524.284537) vcan0 370#00D3437A00900004
(1445275524.286232) vcan0 008#80008000254C8199
(1445275524.287430) vcan0 1B0#EC00B00000008000
(1445275524.287718) vcan0 1B5#2FFFC000000000F9
(1445275524.288001) vcan0 1D8#63CF000000000000
(1445275524.288289) vcan0 1E0#E016BD8041DB0800
(1445275524.288588) vcan0 2C3#505400FFFF012975
(1445275524.291602) vcan0 010#F831B02F00000000
(1445275524.296249) vcan0 072#2080000027FF00F0
(1445275524.296458) vcan0 008#80008000155C8199
(1445275524.297433) vcan0 0F5#0032737F80008000
(1445275524.297665) vcan0 120#8954004F80008000
(1445275524.297910) vcan0 130#11FF3300001C99E4
(1445275524.298152) vcan0 150#C033C7FFC0000000
(1445275524.301879) vcan0 010#F831B02F00000000
(1445275524.302117) vcan0 055#809C00B227FFF7FF
(1445275524.302406) vcan0 065#01EB8E00F7F9E000
(1445275524.302617) vcan0 070#000EF200F8046000
(1445275524.302870) vcan0 075#1854000000000000
(1445275524.303137) vcan0 080#802600E200804FFF
(1445275524.303468) vcan0 0B0#A352C200A2768352
(1445275524.303781) vcan0 145#2110C0FC8050F2FD
(1445275524.303782) vcan0 1D0#6100000000000000
(1445275524.304062) vcan0 28C#00BE300000005000
(1445275524.304334) vcan0 2B5#0022ADB35200004B
(1445275524.306277) vcan0 008#80008000056C8199
(1445275524.306566) vcan0 210#468409A82000DFBD
(1445275524.307426) vcan0 1B0#EC00B00000008000
(1445275524.307715) vcan0 1B5#2FFFC000000000F9
(1445275524.307994) vcan0 1D8#63CF000000000000
(1445275524.308220) vcan0 1E0#E016BD8001DB0800
(1445275524.311683) vcan0 010#F831B02F00000000
(1445275524.311995) vcan0 072#2080000027FF00F0
(1445275524.312243) vcan0 2A9#840000C0C20006AC
(1445275524.316259) vcan0 008#80008000F57C8199
(1445275524.316500) vcan0 360#01A00003D2000000
(1445275524.317433) vcan0 0F5#0022777F80008000
(1445275524.317687) vcan0 120#8954004F80008000
(1445275524.317961) vcan0 130#11FF2300001C99EC
(1445275524.318250) vcan0 150#C023C7FFD0000000
(1445275524.321857) vcan0 010#F831B02F00000000
(1445275524.322118) vcan0 055#809C00B227FFF7FF
(1445275524.322433) vcan0 065#01EB8E00F7F9E000
(1445275524.322689) vcan0 070#000EF200F8046000
(1445275524.323005) vcan0 075#1854000000000000
(1445275524.323280) vcan0 080#802600E200804FFF
(1445275524.323281) vcan0 0B0#A352C200A2768352
(1445275524.323596) vcan0 145#2100C0FC8050F2FD
(1445275524.323959) vcan0 1D0#6100000000000000
(1445275524.324246) vcan0 2C0#E5A00003BE000000
(1445275524.324247) vcan0 2C5#0000E00000008700
(1445275524.324494) vcan0 390#475B12020000FF80
(1445275524.326271) vcan0 008#80008000E58C8199
(1445275524.326502) vcan0 072#2080000027FF00F0
(1445275524.326740) vcan0 3B0#0044000028B9D800
(1445275524.327450) vcan0 1B0#EC00B00000008000
(1445275524.327718) vcan0 1B5#2FFFC000000000F9
(1445275524.328028) vcan0 1D8#63CF000000000000
(1445275524.328323) vcan0 1E0#E016BD8041CB0C00
(1445275524.328604) vcan0 2C3#505400FFFF012975
(1445275524.331534) vcan0 010#F831B02F00000000
(1445275524.331825) vcan0 210#468409A82000DFBD
(1445275524.332064) vcan0 3D0#428003380061009C
(1445275524.336205) vcan0 008#80008000D59C8199
(1445275524.336510) vcan0 430#0630000000280828
(1445275524.337434) vcan0 0F5#00127B7F80008000
(1445275524.337617) vcan0 120#8954004F80008000
(1445275524.337908) vcan0 130#11FD1300001C99F4
(1445275524.338173) vcan0 150#C013C7FFE0000000
(1445275524.341887) vcan0 010#F831B02F00000000
(1445275524.342101) vcan0 055#809C00B227FFF7FF
(1445275524.342405) vcan0 065#01EB8E00F7F9E000
(1445275524.342619) vcan0 070#000EF200F8046000
(1445275524.342857) vcan0 072#2080000027FF00F0
(1445275524.343120) vcan0 075#1854000000000000
(1445275524.343438) vcan0 080#802600E200804FFF
(1445275524.343745) vcan0 0B0#A352C200A2768352
(1445275524.343746) vcan0 145#A110C0FC8050F2FD
(1445275524.344032) vcan0 1D0#6300000000000000
(1445275524.344279) vcan0 28C#00BE300000005080
(1445275524.344605) vcan0 2B5#0022ADB35200004B
(1445275524.346267) vcan0 008#80008000C5AC8199
(1445275524.347424) vcan0 1B0#EC00B00000008000
(1445275524.347667) vcan0 1B5#2FFFC000000000F9
(1445275524.347893) vcan0 1D8#63CF000000000000
(1445275524.348140) vcan0 1E0#E016BD80C1BB1000
(1445275524.351852) vcan0 010#F831B02F00000000
(1445275524.352156) vcan0 2A9#840000C0C200068C
(1445275524.356251) vcan0 008#80008000B5BC8199
(1445275524.356494) vcan0 072#508000004FFF00F0
(1445275524.356779) vcan0 210#468409A82000DFBD
(1445275524.357459) vcan0 0F5#00027F7F80008000
(1445275524.357715) vcan0 120#8954004F80008000
(1445275524.357988) vcan0 130#11F70300001C99FC
(1445275524.358328) vcan0 150#C003C7FFF0000000
(1445275524.358609) vcan0 3CA#C000005400000000
(1445275524.361802) vcan0 010#F831B02F00000000
(1445275524.362056) vcan0 055#809C00B227FFF7FF
(1445275524.362347) vcan0 065#01EB8E00F7F9E000
(1445275524.362618) vcan0 070#000EF200F8046000
(1445275524.362919) vcan0 075#1854000000000000
(1445275524.363299) vcan0 080#802600E200804FFF
(1445275524.363299) vcan0 0B0#A352C200A2768352
(1445275524.363615) vcan0 145#2110C0FC8050F2FD
(1445275524.363866) vcan0 1D0#6300000000000000
(1445275524.366273) vcan0 008#80008000A5CC8199
(1445275524.367458) vcan0 1B0#EC00B00000008000
(1445275524.367691) vcan0 1B5#2FFFC000000000F9
(1445275524.367964) vcan0 1D8#63CF000000000000
(1445275524.368283) vcan0 1E0#E016BD8081BB1000
(1445275524.368609) vcan0 2C3#505400FFFF012975
(1445275524.371757) vcan0 010#F931B02FC0000000
(1445275524.371988) vcan0 072#50A000004FFF00F0
(1445275524.376250) vcan0 008#8000800095DC8199
(1445275524.377464) vcan0 0F5#00F2437F80008000
(1445275524.377700) vcan0 120#8954004F80008000
(1445275524.377968) vcan0 130#11FDF300001C9984
(1445275524.378242) vcan0 150#C0F3C7FF00000000
(1445275524.381835) vcan0 010#F831B02FC0000000
(1445275524.382018) vcan0 055#809C00B2A7FFF7FF
(1445275524.382291) vcan0 065#01EB8E00F7F9E000
(1445275524.382651) vcan0 070#000EF200F8046000
(1445275524.382913) vcan0 075#1C5423098F99E900
(1445275524.383229) vcan0 080#802600E200804FFF
(1445275524.383231) vcan0 1D0#630A000000000000
(1445275524.383499) vcan0 210#4E8509A8A000DFBD
(1445275524.386273) vcan0 008#8000800085EC8199
(1445275524.386482) vcan0 072#508000004FFF00F0
(1445275524.386974) vcan0 055#800C000007FFF7FF
(1445275524.387247) vcan0 065#11EB0E0037F96000
(1445275524.387510) vcan0 070#000E0200F8046000
(1445275524.387726) vcan0 075#100023098F99E900
(1445275524.387993) vcan0 080#0006000200000FFF
(1445275524.388283) vcan0 0B0#2352020002760352
(1445275524.388680) vcan0 145#000080FC0010F2C5
(1445275524.388681) vcan0 1B0#EC00B00000008000
(1445275524.388943) vcan0 1B5#2FFFC000000000F9
(1445275524.389142) vcan0 1D8#E3CF303135303734
(1445275524.389430) vcan0 1E0#E016BD80C1AB1400
(1445275524.389628) vcan0 28C#000E300000005080
(1445275524.389870) vcan0 2B5#00222D2020000003
(1445275524.390121) vcan0 2C0#C0000003C1000000
(1445275524.390408) vcan0 2C5#0000000000000000
(1445275524.390619) vcan0 370#00D3037A00000000
(1445275524.390866) vcan0 3AF#0000000000000000
(1445275524.391113) vcan0 3E0#0000185208000000
(1445275524.391897) vcan0 010#F831B02FC0000000
(1445275524.392135) vcan0 2A9#840000C0DB00068C
(1445275524.396170) vcan0 008#8000800075FC8199
(1445275524.397464) vcan0 0F5#00E2477F80008000
(1445275524.397677) vcan0 120#8954004F80008000
(1445275524.397940) vcan0 130#11FFE300001C998C
(1445275524.398171) vcan0 150#C0E3C7FF10000000
(1445275524.401773) vcan0 010#F831B02F80000000
(1445275524.402006) vcan0 072#50A000004FFF00F0
(1445275524.402257) vcan0 1D0#6300000000000000
(1445275524.406198) vcan0 008#80008000650C8199
(1445275524.406471) vcan0 210#468509A82000DFBD
(1445275524.406944) vcan0 055#809C00B227FFF7FF
(1445275524.407217) vcan0 065#01EB8E00F7F9E000
(1445275524.407494) vcan0 070#000EF200F8046000
(1445275524.407817) vcan0 075#185423098F99E900
(1445275524.408119) vcan0 080#802600E200804FFF
(1445275524.408120) vcan0 0B0#A352C200A2768352
(1445275524.408405) vcan0 145#A100C0FC8050F2FD
(1445275524.408641) vcan0 1B0#EC00B0000000C000
(1445275524.408914) vcan0 1B5#2FFFC000000000F9
(1445275524.409211) vcan0 1D8#63CF303135303734
(1445275524.409555) vcan0 1E0#E016BD80C19B1800
(1445275524.409556) vcan0 2C3#505400FFFF012975
(1445275524.411596) vcan0 010#F831B02F80000000
(1445275524.416202) vcan0 008#80008000551C8199
(1445275524.416491) vcan0 072#508000004FFF00F0
(1445275524.416742) vcan0 360#01A00003D2000000
(1445275524.417061) vcan0 0F5#00D64B6580008000
(1445275524.417384) vcan0 120#8955DB4580008000
(1445275524.417672) vcan0 130#11FFD300001DBA94
(1445275524.417942) vcan0 150#C0D3C7FF27BB0000
(1445275524.421637) vcan0 010#F831B02F80000000
(1445275524.421925) vcan0 1D0#67000A2BD2C5EC00
(1445275524.422195) vcan0 390#675C0E020000FF80
(1445275524.426200) vcan0 008#80008000452C8199
(1445275524.426879) vcan0 1B0#EC00B0000000C000
(1445275524.427161) vcan0 055#809C00B227FFF7FF
(1445275524.427405) vcan0 065#01EB8E00F7F9E000
(1445275524.427658) vcan0 070#000EF200F8046000
(1445275524.427954) vcan0 075#285423098F99E900
(1445275524.428239) vcan0 080#802600E200804FFF
(1445275524.428562) vcan0 0B0#A352C200A2768352
(1445275524.428563) vcan0 145#2110C0FC8050F2FD
(1445275524.428792) vcan0 1B5#2FFFC000000000F9
(1445275524.429059) vcan0 1D8#63CF303135303734
(1445275524.429381) vcan0 1E0#E016BD80819B1800
(1445275524.429659) vcan0 28C#00BE300000005080
(1445275524.429929) vcan0 2B5#0022AC937200004B
(1445275524.431837) vcan0 010#F831B02F80000000
(1445275524.432096) vcan0 072#50A000004FFF00F0
(1445275524.432426) vcan0 210#468509A82000DFBD
(1445275524.432714) vcan0 2A9#840000C0C200068C
(1445275524.436203) vcan0 008#80008000353C8199
(1445275524.438004) vcan0 0F5#00C64F6580008000
(1445275524.438278) vcan0 120#8955984580008000
(1445275524.438532) vcan0 130#11FFC300001D479C
(1445275524.438742) vcan0 150#C0C3C7FF37330000
(1445275524.441802) vcan0 010#F831B02F80000000
(1445275524.442056) vcan0 1D0#63000A2BD2C5EC00
(1445275524.446251) vcan0 008#80008000254C8199
(1445275524.446490) vcan0 072#508000004FFF00F0
(1445275524.446731) vcan0 3B0#02C600002CB9FC00
(1445275524.446975) vcan0 055#809C00B227FFF7FF
(1445275524.447159) vcan0 065#01EB8E00F7F9E000
(1445275524.447408) vcan0 070#000EF200F8046000
(1445275524.447710) vcan0 075#285423098F99E900
(1445275524.447992) vcan0 080#802600E200804FFF
(1445275524.448315) vcan0 0B0#A352C200A2768352
(1445275524.448602) vcan0 145#2110C0FC8050F2FD
(1445275524.448603) vcan0 1B0#EC00B0000000C000
(1445275524.448845) vcan0 1B5#2FFFC000000000F9
(1445275524.449172) vcan0 1D8#63CF303135303734
(1445275524.449468) vcan0 1E0#E016BD80C18B1C00
(1445275524.449755) vcan0 2C0#EDB80003C1000000
(1445275524.449756) vcan0 2C3#505400FFFF012975
(1445275524.450056) vcan0 2C5#7000E0005B00C700
(1445275524.451778) vcan0 010#F831B02F80000000
(1445275524.452042) vcan0 400#0303050101010101
(1445275524.456247) vcan0 008#80008000155C8199
(1445275524.456454) vcan0 210#468509A82000DFBD
(1445275524.457881) vcan0 0F5#00B2537580008000
(1445275524.458094) vcan0 120#8955554580008000
(1445275524.458405) vcan0 130#11FFB300001CF0A4
(1445275524.458617) vcan0 150#C0B3C7FF46AB0000
(1445275524.461909) vcan0 010#F831B02F80000000
(1445275524.462116) vcan0 072#50A000004FFF00F0
(1445275524.462406) vcan0 1D0#630A0A2BD2C5EC00
(1445275524.466201) vcan0 008#80008000056C8199
(1445275524.466979) vcan0 055#809C00B227FFF7FF
(1445275524.467243) vcan0 065#01EB8E00F7F9E000
(1445275524.467534) vcan0 070#000EF200F8046000
(1445275524.467820) vcan0 075#285423098F99E900
(1445275524.468119) vcan0 080#802600E200804FFF
(1445275524.468120) vcan0 0B0#A352C200A2768352
(1445275524.468450) vcan0 145#A100C0FC8050F2FD
(1445275524.468720) vcan0 1B0#EC00B0000000C000
(1445275524.469005) vcan0 1B5#2FFFC000000000F9
(1445275524.469291) vcan0 1D8#63CF303135303734
(1445275524.469662) vcan0 1E0#E016BD80C17B2000
(1445275524.469663) vcan0 28C#00BE300000005080
(1445275524.469933) vcan0 2B5#0021ACB37200004B
(1445275524.471641) vcan0 010#F831B02F80000000
(1445275524.471884) vcan0 2A9#840000C0DB00068C
(1445275524.476176) vcan0 008#80008000F57C8199
(1445275524.476494) vcan0 072#508000004FFF00F0
(1445275524.477569) vcan0 0F5#00A2577580008000
(1445275524.477806) vcan0 120#8955134580008000
(1445275524.478120) vcan0 130#11FFA300001CADAC
(1445275524.478403) vcan0 150#C0A3C7FF56230000
(1445275524.478665) vcan0 3CA#C000004000000000
(1445275524.481845) vcan0 010#F831B02F80000000
(1445275524.482054) vcan0 1D0#63000A2BD2C5EC00
(1445275524.482406) vcan0 210#468509A82000DFBD
(1445275524.486220) vcan0 008#80008000E58C8199
(1445275524.486919) vcan0 055#809C00B227FFF7FF
(1445275524.487222) vcan0 065#01EB8E00F7F9E000
(1445275524.487430) vcan0 070#000EF200F8046000
(1445275524.487686) vcan0 075#285423098F99E900
(1445275524.487987) vcan0 080#802600E200804FFF
(1445275524.488276) vcan0 0B0#A352C200A2768352
(1445275524.488571) vcan0 145#2110C0FC8050F2FD
(1445275524.488870) vcan0 1B0#EC00B0000000C000
(1445275524.488871) vcan0 1B5#2FFFC000000000F9
(1445275524.489154) vcan0 1D8#63CF303135303734
(1445275524.489448) vcan0 1E0#E016BD80817B2000
(1445275524.489724) vcan0 2C3#505400FFFF012975
(1445275524.490046) vcan0 350#80000000000000A2
(1445275524.490047) vcan0 370#00D3437A00900004
(1445275524.491767) vcan0 010#F831B02F80000000
(1445275524.492059) vcan0 072#50A000004FFF00F0
(1445275524.496177) vcan0 008#80008000D59C8199
(1445275524.497676) vcan0 0F5#00925B7580008000
(1445275524.497952) vcan0 120#8954D04580008000
(1445275524.498173) vcan0 130#11FF9300001C99B4
(1445275524.498440) vcan0 150#C093C7FF659A0000
(1445275524.501825) vcan0 010#F831B02F80000000
(1445275524.502063) vcan0 1D0#63000A2BD2C5EC00
(1445275524.506218) vcan0 008#80008000C5AC8199
(1445275524.506468) vcan0 072#508000004FFF00F0
(1445275524.506739) vcan0 210#468509A82000DFB2
(1445275524.507025) vcan0 055#809C00B227FFF7FF
(1445275524.507307) vcan0 065#01EB8E00F7F9E000
(1445275524.507649) vcan0 070#000EF200F8046000
(1445275524.507650) vcan0 075#285423098F99E900
(1445275524.507919) vcan0 080#802600E200804FFF
(1445275524.508134) vcan0 0B0#A352C200A2768352
(1445275524.508430) vcan0 145#2110C0FC8050F2FD
(1445275524.508687) vcan0 1B0#EC00B0000000C000
(1445275524.508987) vcan0 1B5#2FFFC000000000F9
(1445275524.509290) vcan0 1D8#63CF303135303734
(1445275524.509292) vcan0 1E0#E016BD80C16B2400
(1445275524.509674) vcan0 28C#00BE300000005080
(1445275524.509915) vcan0 2B5#0022ACB37200004B
(1445275524.510219) vcan0 2C0#E5B00003C0000000
(1445275524.510220) vcan0 2C5#7000E0007C00C700
(1445275524.510469) vcan0 3AF#2000000000000000
(1445275524.511769) vcan0 010#F831B02F80000000
(1445275524.512077) vcan0 2A9#840000C0C200068C
(1445275524.515833) vcan0 288#80000000000044CC
(1445275524.516251) vcan0 008#80008000B5BC8199
(1445275524.516531) vcan0 360#01A40003D2000000
(1445275524.517798) vcan0 0F5#00825F7580008000
(1445275524.518008) vcan0 120#89548D4580008000
(1445275524.518244) vcan0 130#11FF8300001C99BC
(1445275524.518488) vcan0 150#C083C7FF75120000
(1445275524.520798) vcan0 3C8#0E00B6CCCE012975
(1445275524.521879) vcan0 010#F831B02F80000000
(1445275524.522192) vcan0 072#50A000004FFF00F0
(1445275524.522494) vcan0 1D0#63080A2BD2C5EC00
(1445275524.522745) vcan0 390#47513A020000FF80
(1445275524.526220) vcan0 008#80008000A5CC8199
(1445275524.526928) vcan0 055#809C00B227FFF7FF
(1445275524.527185) vcan0 065#01EB8E00F7F9E000
(1445275524.527494) vcan0 070#000EF200F8046000
(1445275524.527816) vcan0 075#285423098F99E900
(1445275524.528122) vcan0 080#802600E200804FFF
(1445275524.528123) vcan0 0B0#A352C200A2768352
(1445275524.528404) vcan0 145#A100C0FC8050F2FD
(1445275524.528691) vcan0 1B0#EC00B0000000C000
(1445275524.528967) vcan0 1B5#2FFFC000000000F9
(1445275524.529289) vcan0 1D8#63CF303135303734
(1445275524.529289) vcan0 1E0#E016BD80C15B2800
(1445275524.529587) vcan0 2C3#505400FFFF012975
(1445275524.531732) vcan0 010#F831B02F80000000
(1445275524.531969) vcan0 210#468509A82000DFB2
(1445275524.532209) vcan0 3D0#C28003380061099C
(1445275524.536179) vcan0 008#8000800095DC8199
(1445275524.536449) vcan0 072#508000004FFF00F0
(1445275524.537729) vcan0 0F5#0072637580008000
(1445275524.538030) vcan0 120#8954D05580008000
(1445275524.538282) vcan0 130#11FF7300001C99C5
(1445275524.538609) vcan0 150#C073D7FF848A0000
(1445275524.540769) vcan0 288#80000000000044CC
(1445275524.541796) vcan0 010#F831B02F80000000
(1445275524.542030) vcan0 1D0#63020A2BD2C5EC00
(1445275524.546221) vcan0 008#8000800085EC8199
(1445275524.546924) vcan0 055#809C00B227FFF7FF
(1445275524.547186) vcan0 065#01EB8E00F7F9E000
(1445275524.547458) vcan0 070#000EF200F8046000
(1445275524.547726) vcan0 075#285423098F99E900
(1445275524.547994) vcan0 080#802600E200804FFF
(1445275524.548309) vcan0 0B0#A352C200A2768352
(1445275524.548311) vcan0 145#2110C0FC8050F2FD
(1445275524.548561) vcan0 1B0#EC00B0000000C000
(1445275524.548842) vcan0 1B5#2FFFC000000000F9
(1445275524.549016) vcan0 1D8#63CF303135303734
(1445275524.549313) vcan0 1E0#E016BD80815B2800
(1445275524.549653) vcan0 28C#00BE300000005080
(1445275524.549876) vcan0 2B5#0022ABB37200004B
(1445275524.551839) vcan0 010#F831B02F80000000
(1445275524.552119) vcan0 072#50A000004FFF00F0
(1445275524.552403) vcan0 2A9#840000C0CA00068C
(1445275524.556224) vcan0 008#8000800075FC8199
(1445275524.556433) vcan0 210#468509A82000DFB2
(1445275524.557829) vcan0 0F5#0062677580008000
(1445275524.558061) vcan0 120#8955135580008000
(1445275524.558275) vcan0 130#11FF6300001C99CD
(1445275524.558498) vcan0 150#C063D7FF94020000
(1445275524.561792) vcan0 010#F831B02F80000000
(1445275524.562024) vcan0 1D0#63000A2BD2C5EC00
(1445275524.565834) vcan0 288#80000000000044CC
(1445275524.566201) vcan0 008#80008000650C8199
(1445275524.566514) vcan0 072#508000004FFF00F0
(1445275524.566756) vcan0 3B0#02C4000028B9D800
(1445275524.566994) vcan0 055#809C00B227FFF7FF
(1445275524.567243) vcan0 065#01EB8E00F7F9E000
(1445275524.567585) vcan0 070#000EF200F8046000
(1445275524.567897) vcan0 075#285423098F99E900
(1445275524.568194) vcan0 080#802600F200804FFF
(1445275524.568196) vcan0 0B0#A352C200A2768352
(1445275524.568443) vcan0 145#2110C0FC8050F2FD
(1445275524.568686) vcan0 1B0#EC00B0000000C000
(1445275524.568955) vcan0 1B5#2FFFC000000000F9
(1445275524.569226) vcan0 1D8#63CF303135303734
(1445275524.569553) vcan0 1E0#E016BD80C14B2C00
(1445275524.569554) vcan0 2C0#E5B00003BF000000
(1445275524.569849) vcan0 2C3#505400FFFF012975
(1445275524.570097) vcan0 2C5#7000E000AB00C700
(1445275524.571837) vcan0 010#F831B02F80000000
(1445275524.576192) vcan0 008#80008000551C8199
(1445275524.577772) vcan0 0F5#00526B7580008000
(1445275524.578005) vcan0 120#8955555580008000
(1445275524.578244) vcan0 130#11FF5300001C99D5
(1445275524.578528) vcan0 150#C053D7FFA3790000
(1445275524.579720) vcan0 350#80000000000000A2
(1445275524.581761) vcan0 010#F831B02F80000000
(1445275524.581980) vcan0 072#50A000004FFF00F0
(1445275524.582243) vcan0 1D0#63000A2BD2C5EC00
(1445275524.582494) vcan0 210#468509A82000DFB2
(1445275524.586193) vcan0 008#80008000452C8199
(1445275524.586910) vcan0 055#809C00B227FFF7FF
(1445275524.587155) vcan0 065#01EB8E00F7F9E000
(1445275524.587442) vcan0 070#000EF200F8046000
(1445275524.587746) vcan0 075#285423098F99E900
(1445275524.588091) vcan0 080#802600F200804FFF
(1445275524.588093) vcan0 0B0#A352C200A2768352
(1445275524.588401) vcan0 145#A100C0FC8050F2FD
(1445275524.588686) vcan0 1B0#EC00B0000000C000
(1445275524.589033) vcan0 1B5#2FFFC000000000F9
(1445275524.589034) vcan0 1D8#63CF303135303734
(1445275524.589298) vcan0 1E0#E016BD80C13B3000
(1445275524.589596) vcan0 28C#00BE300000005080
(1445275524.589921) vcan0 2B5#0022ABB37200004B
(1445275524.590194) vcan0 370#00D3437A00900004
(1445275524.590814) vcan0 288#80000000000044CC
(1445275524.591844) vcan0 010#F831B02F80000000
(1445275524.592117) vcan0 2A9#840000C0D300068C
(1445275524.595223) vcan0 260#3087E8495500FFD0
(1445275524.596215) vcan0 008#80008000353C8199
(1445275524.596425) vcan0 072#508000004FFF00F0
(1445275524.597804) vcan0 0F5#00426F7580008000
(1445275524.598011) vcan0 120#8955985580008000
(1445275524.598266) vcan0 130#11FF4300001C99DD
(1445275524.598492) vcan0 150#C043D7FFB2F10000
(1445275524.598746) vcan0 3CA#C000004100000000
(1445275524.601800) vcan0 010#F831B02F80000000
(1445275524.602054) vcan0 1D0#63000A2BD2C5EC00
(1445275524.606195) vcan0 008#80008000254C8199
(1445275524.606444) vcan0 210#468509A82000DFB2
(1445275524.606868) vcan0 055#809C00B227FFF7FF
(1445275524.607156) vcan0 065#01EB8E00F7F9E000
(1445275524.607406) vcan0 070#000EF200F8046000
(1445275524.607660) vcan0 075#285423098F99E900
(1445275524.607971) vcan0 080#802600F200804FFF
(1445275524.608239) vcan0 0B0#A352C200A2768352
(1445275524.608551) vcan0 145#2110C0FC8050F2FD
(1445275524.608552) vcan0 1B0#EC00B0000000C000
(1445275524.608864) vcan0 1B5#2FFFC000000000F9
(1445275524.609153) vcan0 1D8#63CF303135303734
(1445275524.609422) vcan0 1E0#E016BD80813B3000
(1445275524.609690) vcan0 2C3#505400FFFF012975
(1445275524.611819) vcan0 010#F931B02F80000000
(1445275524.612082) vcan0 072#50A000004FFF00F0
(1445275524.612379) vcan0 405#1232303136333335
(1445275524.615852) vcan0 288#80000000000044CC
(1445275524.616191) vcan0 008#80008000155C8199
(1445275524.616443) vcan0 360#01A40003D2000000
(1445275524.617728) vcan0 0F5#0032737580008000
(1445275524.618029) vcan0 120#8955DB5580008000
(1445275524.618257) vcan0 130#11FF3300001C99E5
(1445275524.618580) vcan0 150#C033D7FFC2690000
(1445275524.621756) vcan0 010#F831B02F80000000
(1445275524.621987) vcan0 1D0#630A0A2BD2C5EC00
(1445275524.622227) vcan0 390#475236020000FF80
(1445275524.625194) vcan0 260#3087E8495500FFD0
(1445275524.626215) vcan0 008#80008000056C8199
(1445275524.626425) vcan0 072#508000004FFF00F0
(1445275524.626907) vcan0 055#809C00B227FFF7FF
(1445275524.627153) vcan0 065#01EB8E00F7F9E000
(1445275524.627405) vcan0 070#000EF200F8046000
(1445275524.627659) vcan0 075#285423098F99E900
(1445275524.627958) vcan0 080#802600F200804FFF
(1445275524.628265) vcan0 0B0#A352C200A2768352
(1445275524.628499) vcan0 145#2110C0FC8050F2FD
(1445275524.628863) vcan0 1B0#EC00B0000000C000
(1445275524.628864) vcan0 1B5#2FFFC000000000F9
(1445275524.629121) vcan0 1D8#63CF303135303734
(1445275524.629402) vcan0 1E0#E016BD80C12B3400
(1445275524.629674) vcan0 28C#00BE300000004080
(1445275524.629973) vcan0 2B5#0022AAB37200004B
(1445275524.629974) vcan0 2C0#E5B00003BF000000
(1445275524.630220) vcan0 2C5#7000E000BB00C700
(1445275524.630470) vcan0 3AF#2000000000000000
(1445275524.631814) vcan0 010#F831B02F80000000
(1445275524.632138) vcan0 210#468509A82000DFB2
(1445275524.632378) vcan0 2A9#840000C0CA00068C
(1445275524.636132) vcan0 008#80008000F57C8199
(1445275524.637724) vcan0 0F5#0022777580008000
(1445275524.637993) vcan0 120#8955DB5580008000
(1445275524.638241) vcan0 130#11FF2300001C99ED
(1445275524.638492) vcan0 150#C023D7FFD1E10000
(1445275524.640930) vcan0 288#80000000000054F4
(1445275524.641184) vcan0 3C8#0E006FCCCE012975
(1445275524.641655) vcan0 010#F831B02F80000000
(1445275524.641900) vcan0 072#50A000004FFF00F0
(1445275524.642154) vcan0 1D0#63000A2BD2C5EC00
(1445275524.646133) vcan0 008#80008000E58C8199
(1445275524.646929) vcan0 055#809C00B227FFF7FF
(1445275524.647181) vcan0 065#01EB8E00F7F9E000
(1445275524.647509) vcan0 070#000EF200F8044000
(1445275524.647756) vcan0 075#285423098F99E900
(1445275524.648088) vcan0 080#802600F200804FFF
(1445275524.648089) vcan0 0B0#A352C200A2768352
(1445275524.648373) vcan0 145#A100C0FC8050F2FD
(1445275524.648641) vcan0 1B0#EC00B0000000C000
(1445275524.648941) vcan0 1B5#2FFFC000000000F9
(1445275524.649256) vcan0 1D8#63CF303135303734
(1445275524.649257) vcan0 1E0#E016BD80C11B3800
(1445275524.649503) vcan0 2C3#505400FFFF012975
(1445275524.651726) vcan0 010#F831B02F80000000
(1445275524.655218) vcan0 260#3087E8495500FFD0
(1445275524.656185) vcan0 008#80008000D59C8199
(1445275524.656394) vcan0 072#508000004FFF00F0
(1445275524.656661) vcan0 210#468509A82000DFB2
(1445275524.657768) vcan0 0F5#00127B7580008000
(1445275524.658003) vcan0 120#8955FF5580008000
(1445275524.658243) vcan0 130#11FF1300001CD1F5
(1445275524.658535) vcan0 150#C013D7FFE2690000
(1445275524.660318) vcan0 0E0#00E48000C0037062
(1445275524.661810) vcan0 010#F831B02F80000000
(1445275524.662101) vcan0 1D0#63000A2BD2C5EC00
(1445275524.665216) vcan0 125#25C7D0C000FFFFF4
(1445275524.665904) vcan0 288#8000000000005FCC
(1445275524.666172) vcan0 008#80008000C5AC8199
(1445275524.666889) vcan0 055#809C00B227FFF7FF
(1445275524.667180) vcan0 065#01EB8E00F7F9E000
(1445275524.667490) vcan0 070#000EF200F8044000
(1445275524.667775) vcan0 075#285423098F99E900
(1445275524.668088) vcan0 080#802600F200804FFF
(1445275524.668089) vcan0 0B0#A352C200A2768352
(1445275524.668401) vcan0 145#2110C0FC8050F2FD
(1445275524.668666) vcan0 1B0#EC00B0000000C000
(1445275524.668960) vcan0 1B5#2FFFC000000000F9
(1445275524.669264) vcan0 1D8#63CF303135303734
(1445275524.669264) vcan0 1E0#E016BD80811B3800
(1445275524.669626) vcan0 28C#00BE300000004080
(1445275524.669907) vcan0 2B5#0022AAB37200004B
(1445275524.670180) vcan0 350#80000000000000A2
(1445275524.671834) vcan0 010#F831B02F80000000
(1445275524.672143) vcan0 072#50A000004FFF00F0
(1445275524.672377) vcan0 2A9#840000C0D300068C
(1445275524.676131) vcan0 008#80008000B5BC8199
(1445275524.677727) vcan0 0F5#00027F7580008000
(1445275524.677992) vcan0 120#8955FF5580008000
(1445275524.678241) vcan0 130#11FF0300001D15FD
(1445275524.678489) vcan0 150#C003D7FFF2F10000
(1445275524.680296) vcan0 0E0#00C68000C8017062
(1445275524.681765) vcan0 010#F831B02F80000000
(1445275524.682032) vcan0 1D0#63000A2BD2C5EC00
(1445275524.682275) vcan0 210#468509A82000DFB2
(1445275524.685217) vcan0 260#3087E8495500FFD0
(1445275524.685429) vcan0 125#35C7D0C0007EB7E4
(1445275524.686137) vcan0 008#80008000A5CC8199
(1445275524.686466) vcan0 072#508000004FFF00F0
(1445275524.686739) vcan0 3B0#00C4000028B9D800
(1445275524.687041) vcan0 055#809C00B227FFF7FF
(1445275524.687334) vcan0 065#01EB8E00F7F9E000
(1445275524.687683) vcan0 070#000EF200F8044000
(1445275524.687684) vcan0 075#385423098F99E900
(1445275524.687982) vcan0 080#802A00F200804FFF
(1445275524.688247) vcan0 0B0#A352C200A2768352
(1445275524.688547) vcan0 145#2110C0FC8050F2FD
(1445275524.688549) vcan0 1B0#EC00B0000000C000
(1445275524.688844) vcan0 1B5#2FFFC000000000F9
(1445275524.689131) vcan0 1D8#63CF303135303734
(1445275524.689420) vcan0 1E0#E016BD80C10B3C00
(1445275524.689718) vcan0 2C0#E5B00003BF000000
(1445275524.689718) vcan0 2C3#505400FFFF012975
(1445275524.690006) vcan0 2C5#7000E000D300C700
(1445275524.690258) vcan0 370#00D3437A00900004
(1445275524.690469) vcan0 3E0#0080985210000000
(1445275524.690886) vcan0 288#8000000000005FA8
(1445275524.691843) vcan0 010#F931B02F80000000
(1445275524.696131) vcan0 008#8000800095DC8199
(1445275524.697740) vcan0 0F5#00F2437580008000
(1445275524.697975) vcan0 120#8955FF5580008000
(1445275524.698244) vcan0 130#11FFF300001D4C85
(1445275524.698528) vcan0 150#C0F3D7FF03790000
(1445275524.700295) vcan0 0E0#00A78000D0007062
(1445275524.701591) vcan0 581#8100FFFFFFFFFFFF
(1445275524.701835) vcan0 010#F831B02F80000000
(1445275524.702106) vcan0 072#50A000004FFF00F0
(1445275524.702403) vcan0 1D0#630A0A2BD2C5EC00
(1445275524.702618) vcan0 400#0401020101040201
(1445275524.705295) vcan0 125#35C7D0C0007EB7E4
(1445275524.706156) vcan0 008#8000800085EC8199
(1445275524.706415) vcan0 210#468509A82000DFB2
(1445275524.706912) vcan0 055#809C00B227FFF7FF
(1445275524.707171) vcan0 065#01EB8E00F7F9E000
(1445275524.707467) vcan0 070#000EF200F8044000
(1445275524.707779) vcan0 075#485423098F99E900
(1445275524.708091) vcan0 080#802A00F200804FFF
(1445275524.708092) vcan0 0B0#A352C200A2768352
(1445275524.708404) vcan0 145#A100C0FC8050F2FD
(1445275524.708685) vcan0 1B0#EC00B0000000C000
(1445275524.708983) vcan0 1B5#2FFFC000000000F9
(1445275524.709286) vcan0 1D8#63CF303135303734
(1445275524.709287) vcan0 1E0#E016BD80C1FB0000
(1445275524.709627) vcan0 28C#00BE300000000080
(1445275524.709875) vcan0 2B5#0022AAB37200004B
(1445275524.711725) vcan0 010#F831B02F80000000
(1445275524.712004) vcan0 2A9#840000C0CA00068C
(1445275524.715147) vcan0 260#3087E8495500FFD0
(1445275524.715947) vcan0 288#80000000EF105FB8
(1445275524.716238) vcan0 008#8000800075FC8199
(1445275524.716529) vcan0 072#508000004FFF00F0
(1445275524.716775) vcan0 360#01A40003D2000000
(1445275524.717793) vcan0 0F5#00E2477580008000
(1445275524.718052) vcan0 120#8955FF5580008000
(1445275524.718404) vcan0 130#11FFE300001D748D
(1445275524.718689) vcan0 150#C0E3D7FF14020000
(1445275524.718964) vcan0 3CA#C000004200000000
(1445275524.720254) vcan0 0E0#00868000D80170E2
(1445275524.721813) vcan0 010#F831B02F80000000
(1445275524.722060) vcan0 1D0#63000A2BD2C5EC00
(1445275524.722420) vcan0 390#475332020000FF80
(1445275524.725242) vcan0 125#35C7D0C0007EB7E4
(1445275524.726160) vcan0 008#80008000650C8199
(1445275524.726978) vcan0 055#809C00B227FFF7FF
(1445275524.727218) vcan0 065#01EB8E00F7F9E000
(1445275524.727494) vcan0 070#000EF200F8044000
(1445275524.727810) vcan0 075#485423098F99E900
(1445275524.728119) vcan0 080#802A00F200804FFF
(1445275524.728120) vcan0 0B0#A352C200A2768352
(1445275524.728402) vcan0 145#2110C0FC8050F2FD
(1445275524.728618) vcan0 1B0#EC00B0000000C000
(1445275524.728867) vcan0 1B5#2FFFC000000000F9
(1445275524.729174) vcan0 1D8#63CF303135303734
(1445275524.729469) vcan0 1E0#E016BD8081FB0000
(1445275524.729718) vcan0 2C3#505400FFFF012975
(1445275524.731727) vcan0 010#F831B02F80000000
(1445275524.731997) vcan0 072#50A000004FFF00F0
(1445275524.732313) vcan0 210#4E8509A82000DFB2
(1445275524.732603) vcan0 3D0#428003380061099C
(1445275524.736096) vcan0 008#80008000551C8199
(1445275524.737727) vcan0 0F5#00D24B7580008000
(1445275524.737993) vcan0 120#8955FF5580008000
(1445275524.738244) vcan0 130#11FFD300001D9295
(1445275524.738489) vcan0 150#C0D3D7FF248A0000
(1445275524.740227) vcan0 0E0#00658000E00270E2
(1445275524.741005) vcan0 288#80000000EF105FB8
(1445275524.741847) vcan0 010#F831B02F80000000
(1445275524.742090) vcan0 1D0#63000A2BD2C5EC00
(1445275524.745247) vcan0 125#35C7D0C0007EB7E4
(1445275524.745495) vcan0 260#3087E8495500FFD0
(1445275524.746172) vcan0 008#80008000452C8199
(1445275524.746467) vcan0 072#508000004FFF00F0
(1445275524.746946) vcan0 055#809C00B227FFF7FF
(1445275524.747220) vcan0 065#01EB8E00F7F9E000
(1445275524.747491) vcan0 070#000EF200F8044000
(1445275524.747777) vcan0 075#485423098F99E900
(1445275524.748059) vcan0 080#802A00F200804FFF
(1445275524.748365) vcan0 0B0#A352C200A2768352
(1445275524.748367) vcan0 145#2110C0FC8050F2FD
(1445275524.748606) vcan0 1B0#EC00B0000000C000
(1445275524.748891) vcan0 1B5#2FFFC000000000F9
(1445275524.749180) vcan0 1D8#63CF303135303734
(1445275524.749506) vcan0 1E0#E016BD80C1EB0400
(1445275524.749507) vcan0 28C#00BE300000000080
(1445275524.749795) vcan0 2B5#0022A9B37200004B
(1445275524.750096) vcan0 2C0#E5B00003B6000000
(1445275524.750381) vcan0 2C5#7000E000DC00C700
(1445275524.750629) vcan0 3AF#2000000000000000
(1445275524.751878) vcan0 010#F831B02F80000000
(1445275524.752129) vcan0 2A9#840000C0C200068C
(1445275524.756097) vcan0 008#80008000353C8199
(1445275524.756377) vcan0 210#468509A82000DFB2
(1445275524.757721) vcan0 0F5#00C24F7580008000
(1445275524.757992) vcan0 120#8955FF5580008000
(1445275524.758246) vcan0 130#11FFC300001DAC9D
(1445275524.758491) vcan0 150#C0C3D7FF35120000
(1445275524.759689) vcan0 350#80000000000000A2
(1445275524.760259) vcan0 0E0#00468000E80170E2
(1445275524.760979) vcan0 3C8#8E006F888E012975
(1445275524.761823) vcan0 010#F831B02F80000000
(1445275524.762065) vcan0 072#50A000004FFF00F0
(1445275524.762339) vcan0 1D0#61080A2BD2C5EC00
(1445275524.765237) vcan0 125#35C7D0C0007EB7E4
(1445275524.765998) vcan0 288#80000000EF105FB8
(1445275524.766210) vcan0 008#80008000254C8199
(1445275524.766955) vcan0 055#809C00B227FFF7FF
(1445275524.767212) vcan0 065#01EB8E00F7F8E09B
(1445275524.767491) vcan0 070#0014F200F8064000
(1445275524.767778) vcan0 075#485423098F99E900
(1445275524.768040) vcan0 080#802A00F200804FFF
(1445275524.768404) vcan0 0B0#A352C200A2768352
(1445275524.768405) vcan0 145#A100C0FC8050F2FD
(1445275524.768684) vcan0 1B0#EC00B0000000C000
(1445275524.768992) vcan0 1B5#2FFFC000000000F9
(1445275524.769381) vcan0 1D8#63CF303135303734
(1445275524.769382) vcan0 1E0#E016BD80C1DB0800
(1445275524.769593) vcan0 2C3#505400FFFF012975
(1445275524.771680) vcan0 010#F931B02F80000000
(1445275524.775247) vcan0 260#3087E8495500FFD0
(1445275524.776155) vcan0 008#80008000155C8199
(1445275524.776553) vcan0 072#508000004FFF00F0
(1445275524.777767) vcan0 0F5#00B2537580008000
(1445275524.777975) vcan0 120#8955FF5580008000
(1445275524.778219) vcan0 130#11FFB300001DBFA5
(1445275524.778471) vcan0 150#C0B3D7FF459A0000
(1445275524.780222) vcan0 0E0#00278000F0007062
(1445275524.781624) vcan0 010#F831B02F80000000
(1445275524.781945) vcan0 1D0#61020A2BD2C5EC00
(1445275524.782217) vcan0 210#468509A82000DEEC
(1445275524.785222) vcan0 125#35C7D0C0007EB7E4
(1445275524.786157) vcan0 008#80008000056C8199
(1445275524.786934) vcan0 055#809C00B227FFF7FF
(1445275524.787205) vcan0 065#01EB8E00F7F2E0B9
(1445275524.787479) vcan0 070#002BF200F80F4000
(1445275524.787764) vcan0 075#485423098F99E900
(1445275524.788007) vcan0 080#802A00F200805000
(1445275524.788280) vcan0 0B0#A352C200A2768352
(1445275524.788670) vcan0 145#2110C0FC8050F2FD
(1445275524.788671) vcan0 1B0#EC00B0000000C000
(1445275524.788930) vcan0 1B5#2FFFC000000000F9
(1445275524.789171) vcan0 1D8#63CF303135303734
(1445275524.789460) vcan0 1E0#E016BD8081DB0800
(1445275524.789757) vcan0 28C#00BE300000000080
(1445275524.789758) vcan0 2B5#0022A9B37200004B
(1445275524.790044) vcan0 370#00D3437A00900024
(1445275524.790965) vcan0 288#80000000EF105FB8
(1445275524.791896) vcan0 010#F831B02F80000000
(1445275524.792170) vcan0 072#50A000004FFF00F0
(1445275524.792418) vcan0 2A9#840000C0DB00068C
(1445275524.796098) vcan0 008#80008000F57C8199
(1445275524.797792) vcan0 0F5#00A2577580008000
(1445275524.798005) vcan0 120#8955FF5580008000
(1445275524.798242) vcan0 130#11FFA300001DCDAD
(1445275524.798490) vcan0 150#C0A3D7FF56230000
(1445275524.800241) vcan0 0E0#00078000F8007062
(1445275524.801770) vcan0 010#F831B02F80000000
(1445275524.802001) vcan0 1D0#61000A2BD2C5EC00
(1445275524.805218) vcan0 125#35C7D0C0007EB7E4
(1445275524.805466) vcan0 260#3087E8495500FFD0
(1445275524.806117) vcan0 008#80008000E58C8199
(1445275524.806430) vcan0 072#508000004FFF00F0
(1445275524.806663) vcan0 210#4E8509A82000DEEC
(1445275524.806910) vcan0 3B0#00C4000028B9D800
(1445275524.807204) vcan0 055#809C00B22800F7FF
(1445275524.807487) vcan0 065#01EB8E00F7EBE0D1
(1445275524.807808) vcan0 070#003EF200F8164000
(1445275524.807809) vcan0 075#485423098F99E900
(1445275524.808079) vcan0 080#802A00F200805000
(1445275524.808403) vcan0 0B0#A352C200A2768352
(1445275524.808718) vcan0 145#2110C0FC8050F2FD
(1445275524.808719) vcan0 1B0#EC00B0000000C000
(1445275524.809003) vcan0 1B5#2FFFC000000000F9
(1445275524.809297) vcan0 1D8#63CF303135303734
(1445275524.809625) vcan0 1E0#E016BD80C1CB0C00
(1445275524.809933) vcan0 2C0#E5B00003B8000000
(1445275524.809934) vcan0 2C3#505400FFFF012975
(1445275524.810207) vcan0 2C5#7000E000E700C700
(1445275524.811837) vcan0 010#F831B02F80000000
(1445275524.815980) vcan0 288#80000000DF205FB8
(1445275524.816221) vcan0 008#80008000D59C8199
(1445275524.816468) vcan0 360#01A40003D2000000
(1445275524.817769) vcan0 0F5#00925B7580008000
(1445275524.818004) vcan0 120#8955FF5580008000
(1445275524.818242) vcan0 130#11FF9300001DD8B5
(1445275524.818492) vcan0 150#C093D7FF66AB0000
(1445275524.820247) vcan0 0E0#00E78000C0007062
(1445275524.821796) vcan0 010#F831B02F80000000
(1445275524.822049) vcan0 072#50A000004FFF00F0
(1445275524.822400) vcan0 1D0#61000A2BD2C5EC00
(1445275524.822663) vcan0 390#47542E020000FF80
(1445275524.825217) vcan0 125#35C7D0C0007EB7E4
(1445275524.826158) vcan0 008#80008000C5AC8199
(1445275524.826927) vcan0 055#809C00B22800F7FF
(1445275524.827184) vcan0 065#01EB8E00F7E5E0D3
(1445275524.827491) vcan0 070#004DF200F81B4000
(1445275524.827813) vcan0 075#485423098F99E900
(1445275524.828153) vcan0 080#802A00F200805001
(1445275524.828153) vcan0 0B0#A352C200A2768352
(1445275524.828437) vcan0 145#A100C0FC8050F2FD
(1445275524.828742) vcan0 1B0#EC00B0000000C000
(1445275524.829070) vcan0 1B5#2FFFC000000000F9
(1445275524.829071) vcan0 1D8#63CF303135303734
(1445275524.829379) vcan0 1E0#E016BD80C1BB1000
(1445275524.829637) vcan0 28C#00BE300000000080
(1445275524.829886) vcan0 2B5#0022A9B37200004B
(1445275524.831810) vcan0 010#F831B02F80000000
(1445275524.832063) vcan0 210#468509A82000DEEC
(1445275524.832368) vcan0 2A9#840000C0C200068C
(1445275524.835199) vcan0 260#3087E8495500FFD0
(1445275524.836092) vcan0 008#80008000B5BC8199
(1445275524.836401) vcan0 072#508000004FFF00F0
(1445275524.837792) vcan0 0F5#00825F7580008000
(1445275524.838005) vcan0 120#8955FF5580008000
(1445275524.838241) vcan0 130#11FF8300001DDEBD
(1445275524.838490) vcan0 150#C083D7FF77330000
(1445275524.838776) vcan0 3CA#C000004300000000
(1445275524.840240) vcan0 0E0#00C68000C80170E2
(1445275524.840968) vcan0 288#80000000DF205FB8
(1445275524.841844) vcan0 010#F831B02F80000000
(1445275524.842176) vcan0 1D0#61000A2BD2C5EC00
(1445275524.845190) vcan0 125#35C7D0C0007EB7E4
(1445275524.846134) vcan0 008#80008000A5CC8199
(1445275524.846925) vcan0 055#809C00B22800F7FF
(1445275524.847139) vcan0 065#01EB8E00F7E0E0E5
(1445275524.847402) vcan0 070#005AF200F8204000
(1445275524.847658) vcan0 075#485423098F99E900
(1445275524.847951) vcan0 080#802A00F200805001
(1445275524.848202) vcan0 0B0#A352C200A2768352
(1445275524.848543) vcan0 145#2110C0FC8050F2FD
(1445275524.848544) vcan0 1B0#EC00B0000000C000
(1445275524.848814) vcan0 1B5#2FFFC000000000F9
(1445275524.849117) vcan0 1D8#63CF303135303734
(1445275524.849403) vcan0 1E0#E016BD8081BB1000
(1445275524.849672) vcan0 2C3#505400FFFF012975
(1445275524.849939) vcan0 350#80000000000000A2
(1445275524.851768) vcan0 010#F931B02F80000000
(1445275524.852055) vcan0 072#50A000004FFF00F0
(1445275524.856098) vcan0 008#8000800095DC8199
(1445275524.856379) vcan0 210#4E8509A82000DEEC
(1445275524.857723) vcan0 0F5#0072637580008000
(1445275524.857992) vcan0 120#8955FF5580008000
(1445275524.858240) vcan0 130#11FF7300001DE6C5
(1445275524.858490) vcan0 150#C073D7FF87BB0000
(1445275524.860214) vcan0 0E0#00A78000D0007062
(1445275524.861876) vcan0 010#F831B02F80000000
(1445275524.862111) vcan0 1D0#610A0A2BD2C5EC00
(1445275524.862402) vcan0 405#016A38B0F06907D5
(1445275524.865209) vcan0 125#35C7D0C0007EB7E4
(1445275524.865419) vcan0 260#3087E8495500FFD0
(1445275524.866037) vcan0 288#80000000DF205FB8
(1445275524.866295) vcan0 008#8000800085EC8199
(1445275524.866607) vcan0 072#508000004FFF00F0
(1445275524.866901) vcan0 055#809C00B22800F7FF
(1445275524.867156) vcan0 065#02008E00F7EFE0E5
(1445275524.867400) vcan0 070#005BF200F8204000
(1445275524.867613) vcan0 075#485423098F99E900
(1445275524.867868) vcan0 080#802A00F200805001
(1445275524.868081) vcan0 0B0#A352C200A2768352
(1445275524.868355) vcan0 145#2110C0FC8050F2FD
(1445275524.868626) vcan0 1B0#EC00B0000000C000
(1445275524.868897) vcan0 1B5#2FFFC000000000F9
(1445275524.869217) vcan0 1D8#63CF303135303734
(1445275524.869218) vcan0 1E0#E016BD80C1AB1400
(1445275524.869496) vcan0 28C#00BE300000000080
(1445275524.869758) vcan0 2B5#0022A9B37200004B
(1445275524.869970) vcan0 2C0#E5B00003B8000000
(1445275524.870219) vcan0 2C5#7000E000E900C700
(1445275524.870470) vcan0 3AF#2000000000000000
(1445275524.871836) vcan0 010#F831B02F80000000
(1445275524.872094) vcan0 2A9#840000C0DB00068C
(1445275524.876093) vcan0 008#8000800075FC8199
(1445275524.877702) vcan0 0F5#0062677580008000
(1445275524.877988) vcan0 120#8955FF5580008000
(1445275524.878240) vcan0 130#11FF6300001DE9CD
(1445275524.878489) vcan0 150#C063D7FF97E80000
(1445275524.880164) vcan0 0E0#00878000D8007062
(1445275524.880981) vcan0 3C8#8E006F888E012975
(1445275524.881779) vcan0 010#F831B02F80000000
(1445275524.882070) vcan0 072#50A000004FFF00F0
(1445275524.882400) vcan0 1D0#61000A2BD2C5EC00
(1445275524.882656) vcan0 210#468509A82000DEEC
(1445275524.885216) vcan0 125#35C7D0C0007EB7E4
(1445275524.886134) vcan0 008#80008000650C8199
(1445275524.886910) vcan0 055#809C00B22800F7FF
(1445275524.887181) vcan0 065#02008E00F7FCE0E5
(1445275524.887490) vcan0 070#005BF200F8204000
(1445275524.887831) vcan0 075#485423098F99E900
(1445275524.888115) vcan0 080#802A00F200805001
(1445275524.888116) vcan0 0B0#A352C200A2768352
(1445275524.888401) vcan0 145#A100C0FC8050F2FD
(1445275524.888685) vcan0 1B0#EC00B0000000C000
(1445275524.889006) vcan0 1B5#2FFFC000000000F9
(1445275524.889007) vcan0 1D8#63CF303135303734
(1445275524.889252) vcan0 1E0#E016BD80C19B1800
(1445275524.889506) vcan0 2C3#505400FFFF012975
(1445275524.889720) vcan0 370#00D3437A00910024
(1445275524.890969) vcan0 288#80000000DF205FB8
(1445275524.891836) vcan0 010#F831B02F80000000
(1445275524.895252) vcan0 260#3087E8495500FFD0
(1445275524.896102) vcan0 008#80008000551C8199
(1445275524.896457) vcan0 072#508000004FFF00F0
(1445275524.897734) vcan0 0F5#00526B7580008000
(1445275524.897951) vcan0 120#8955FF5580008000
(1445275524.898242) vcan0 130#11FF5300001DEFD5
(1445275524.898492) vcan0 150#C053D7FFA7E80000
(1445275524.900214) vcan0 0E0#00678000E0007062
(1445275524.901690) vcan0 010#F831B02F80000000
(1445275524.901923) vcan0 1D0#61000A2BD2C5EC00
(1445275524.905189) vcan0 125#35C7D0C0007EB7E4
(1445275524.906134) vcan0 008#80008000452C8199
(1445275524.906491) vcan0 210#4E8509A82000DEEC
(1445275524.906905) vcan0 055#809C00B22800F7FF
(1445275524.907150) vcan0 065#02008E00F7FFE0E5
(1445275524.907405) vcan0 070#005BF200F8204000
(1445275524.907616) vcan0 075#485423098F99E900
(1445275524.907861) vcan0 080#802A00F200805001
(1445275524.908181) vcan0 0B0#A352C200A2768352
(1445275524.908487) vcan0 145#2110C0FC8050F2FD
(1445275524.908816) vcan0 1B0#EC00B0000000C000
(1445275524.908817) vcan0 1B5#2FFFC000000000F9
(1445275524.909127) vcan0 1D8#63CF303135303734
(1445275524.909424) vcan0 1E0#E016BD80819B1800
(1445275524.909759) vcan0 28C#00BE300000000080
(1445275524.909760) vcan0 2B5#0022A9B37200004B
(1445275524.911681) vcan0 010#F831B02F80000000
(1445275524.911952) vcan0 072#50A000004FFF00F0
(1445275524.912221) vcan0 2A9#840000C0C200068C
(1445275524.916014) vcan0 288#80000000CF305FB8
(1445275524.916280) vcan0 008#80008000353C8199
(1445275524.916529) vcan0 360#01A40003D2000000
(1445275524.917732) vcan0 0F5#00426F7F80008000
(1445275524.918004) vcan0 120#8955FF5F80008000
(1445275524.918221) vcan0 130#11FF4300001DF2DD
(1445275524.918472) vcan0 150#C043D7FFB7E80000
(1445275524.920138) vcan0 0E0#00458000E8027062
(1445275524.921812) vcan0 010#F831B02F80000000
(1445275524.922074) vcan0 1D0#61080A2BD2C5EC00
(1445275524.922366) vcan0 390#47552A020000FF80
(1445275524.925113) vcan0 125#35C7D0C0007EB7E4
(1445275524.925386) vcan0 260#3087E8495500FFD0
(1445275524.926074) vcan0 008#80008000254C8199
(1445275524.926383) vcan0 072#508000004FFF00F0
(1445275524.926610) vcan0 3B0#00C4000028B9D800
(1445275524.926910) vcan0 055#809C00B22800F7FF
(1445275524.927121) vcan0 065#02008E00F800E0E5
(1445275524.927382) vcan0 070#005BF200F8204000
(1445275524.927622) vcan0 075#485423098F99E900
(1445275524.927823) vcan0 080#802A00F200805001
(1445275524.928134) vcan0 0B0#A352C200A2768352
(1445275524.928412) vcan0 145#2110C0FC8050F2FD
(1445275524.928681) vcan0 1B0#EC00B0000000C000
(1445275524.928931) vcan0 1B5#2FFFC000000000F9
(1445275524.929228) vcan0 1D8#63CF303135303734
(1445275524.929229) vcan0 1E0#E016BD80C18B1C00
(1445275524.929496) vcan0 2C0#E5B00003B9000000
(1445275524.929717) vcan0 2C3#505400FFFF012975
(1445275524.929964) vcan0 2C5#7000E000E701C700
(1445275524.931785) vcan0 010#F931B02F80000000
(1445275524.932026) vcan0 210#4E8509A82000DEEC
(1445275524.932277) vcan0 3D0#428003380061099C
(1445275524.936059) vcan0 008#80008000155C8199
(1445275524.936356) vcan0 430#8630000000280828
(1445275524.937675) vcan0 0F5#0032737F80008000
(1445275524.937936) vcan0 120#8955FF5F80008000
(1445275524.938181) vcan0 130#11FF3300001DF4E5
(1445275524.938435) vcan0 150#C033D7FFC7E80000
(1445275524.939657) vcan0 350#80000000000000A2
(1445275524.940171) vcan0 0E0#00228000F0057062
(1445275524.941055) vcan0 288#80000000CF305FB8
(1445275524.941850) vcan0 010#F831B02F80000000
(1445275524.942105) vcan0 072#50A000004FFF00F0
(1445275524.942401) vcan0 1D0#61020A2BD2C5EC00
(1445275524.945162) vcan0 125#35C7D0C0007EB7E4
(1445275524.946133) vcan0 008#80008000056C8199
(1445275524.946925) vcan0 055#809C00B22800F7FF
(1445275524.947184) vcan0 065#02008E00F800E0E5
(1445275524.947488) vcan0 070#005BF200F8204000
(1445275524.947780) vcan0 075#485423098F99E900
(1445275524.948077) vcan0 080#802A00F200805001
(1445275524.948079) vcan0 0B0#A352C200A2768352
(1445275524.948312) vcan0 145#A100C0FC8050F2FD
(1445275524.948585) vcan0 1B0#EC00B0000000C000
(1445275524.948822) vcan0 1B5#2FFFC000000000F9
(1445275524.949091) vcan0 1D8#63CF303135303734
(1445275524.949376) vcan0 1E0#E016BD80C17B2000
(1445275524.949666) vcan0 28C#00BE300000000080
(1445275524.949937) vcan0 2B5#2722A9B37200004B
(1445275524.951596) vcan0 010#F831B02F80000000
(1445275524.951903) vcan0 2A9#840000C0CA00068C
(1445275524.952127) vcan0 400#0502010201010101
(1445275524.955288) vcan0 260#3087E8495500FFD0
(1445275524.956094) vcan0 008#80008000F57C8199
(1445275524.956558) vcan0 072#508000004FFF00F0
(1445275524.956816) vcan0 210#468509A82000DEEC
(1445275524.957765) vcan0 0F5#0022777F80008000
(1445275524.958003) vcan0 120#8955FF5F80008000
(1445275524.958241) vcan0 130#11FF2300001DF4ED
(1445275524.958490) vcan0 150#C023D7FFD7E80000
(1445275524.958747) vcan0 3CA#C000004400000000
(1445275524.960176) vcan0 0E0#00018000F8067062
(1445275524.961636) vcan0 010#F831B02F80000000
(1445275524.961899) vcan0 1D0#61000A2BD2C5EC00
(1445275524.965096) vcan0 125#35C7D0C0007EB7E4
(1445275524.966041) vcan0 288#80000000CF305FB8
(1445275524.966313) vcan0 008#80008000E58C8199
(1445275524.966901) vcan0 055#809C00B22800F7FF
(1445275524.967181) vcan0 065#02008E02F800E0F7
(1445275524.967485) vcan0 070#005BF200F8204000
(1445275524.967806) vcan0 075#485423098F99E900
(1445275524.968113) vcan0 080#802A00F200805001
(1445275524.968114) vcan0 0B0#A352C200A2768352
(1445275524.968417) vcan0 145#2110C0FC8050F2FD
(1445275524.968713) vcan0 1B0#EC00B0000000C000
(1445275524.969036) vcan0 1B5#2FFFC000000000F9
(1445275524.969037) vcan0 1D8#63CF303135303734
(1445275524.969305) vcan0 1E0#E016BD80817B2000
(1445275524.969582) vcan0 2C3#505400FFFF012975
(1445275524.971842) vcan0 010#F831B02F80000000
(1445275524.972094) vcan0 072#50A000004FFF00F0
(1445275524.976065) vcan0 008#80008000D59C8199
(1445275524.977718) vcan0 0F5#00127B7F80008000
(1445275524.977989) vcan0 120#8955FF5F80008000
(1445275524.978238) vcan0 130#11FF1300001DF7F5
(1445275524.978487) vcan0 150#C013D7FFE7E80000
(1445275524.980188) vcan0 0E0#00E18000C0067062
(1445275524.981758) vcan0 010#F831B02F80000000
(1445275524.981991) vcan0 1D0#61000A2BD2C5EC00
(1445275524.982273) vcan0 210#468509A82000DEEC
(1445275524.985166) vcan0 125#35C7D0C0007EB7E4
(1445275524.985395) vcan0 260#3087E8495500FFD0
(1445275524.986091) vcan0 008#80008000C5AC8199
(1445275524.986379) vcan0 072#508000004FFF00F0
(1445275524.986937) vcan0 055#809C00B22800F7FF
(1445275524.987173) vcan0 065#02008E02F800E0F7
(1445275524.987491) vcan0 070#005BF200F8204000
(1445275524.987804) vcan0 075#485423098F99E900
(1445275524.988087) vcan0 080#802A00F200805001
(1445275524.988088) vcan0 0B0#A352C200A2768352
(1445275524.988400) vcan0 145#2110C0FC8050F2FD
(1445275524.988708) vcan0 1B0#EC00B0000000C000
(1445275524.988970) vcan0 1B5#2FFFC000000000F9
(1445275524.989322) vcan0 1D8#63CF303135303734
(1445275524.989323) vcan0 1E0#E016BD80C16B2400
(1445275524.989644) vcan0 28C#00BE300000000080
(1445275524.989851) vcan0 2B5#2722A9B37200004B
(1445275524.990148) vcan0 2C0#E5B00003B9000000
(1445275524.990451) vcan0 2C5#7000E000E401C700
(1445275524.990453) vcan0 370#00D3437A00910024
(1445275524.990719) vcan0 3AF#2000000000000000
(1445275524.990966) vcan0 3E0#0080985218000000
(1445275524.991227) vcan0 288#80000000CF305FB8
(1445275524.991971) vcan0 010#F831B02F80000000
(1445275524.992212) vcan0 2A9#840000C0D300068C
(1445275524.996110) vcan0 008#80008000B5BC8199
(1445275524.997769) vcan0 0F5#00027F7F80008000
(1445275524.998004) vcan0 120#8955FF5F80008000
(1445275524.998239) vcan0 130#11FF0300001DF7FD
(1445275524.998474) vcan0 150#C003D7FFF7E80000
(1445275525.000187) vcan0 0E0#00C38000C8047062
(1445275525.001082) vcan0 3C8#8E006F888E012975
(1445275525.001635) vcan0 010#F831B02F80000000
(1445275525.001967) vcan0 072#50A000004FFF00F0
(1445275525.002199) vcan0 1D0#61000A2BD2C5EC00
(1445275525.005165) vcan0 125#35C7D0C0007EB7E4
(1445275525.006099) vcan0 008#80008000A5CC8199
(1445275525.006634) vcan0 210#4E8509A82000DEEC
(1445275525.006963) vcan0 055#809C00B22800F7FF
(1445275525.007211) vcan0 065#02008E02F800E0F7
(1445275525.007531) vcan0 070#005BF200F8204000
(1445275525.007793) vcan0 075#485423098F99E900
(1445275525.008116) vcan0 080#802A00F200805001
(1445275525.008117) vcan0 0B0#A352C200A2768352
(1445275525.008401) vcan0 145#A100C0FC8050F2FD
(1445275525.008616) vcan0 1B0#EC00B0000000C000
(1445275525.008868) vcan0 1B5#2FFFC000000000F9
(1445275525.009116) vcan0 1D8#63CF303135303734
(1445275525.009382) vcan0 1E0#E016BD80C15B2800
(1445275525.009661) vcan0 2C3#505400FFFF012975
(1445275525.011681) vcan0 010#F931B02F80000000
(1445275525.015246) vcan0 260#3087E8495500FFD0
(1445275525.016106) vcan0 288#80000000BF405FB8
(1445275525.016401) vcan0 008#8000800095DC8199
(1445275525.016683) vcan0 072#508000004FFF00F0
(1445275525.016951) vcan0 360#01A40003D2000000
(1445275525.017766) vcan0 0F5#00F2437F80008000
(1445275525.018003) vcan0 120#8955FF5F80008000
(1445275525.018240) vcan0 130#11FFF300001DF785
(1445275525.018489) vcan0 150#C0F3D7FF07E80000
(1445275525.020187) vcan0 0E0#00A38000D0047062
(1445275525.021844) vcan0 010#F831B02F80000000
(1445275525.022090) vcan0 1D0#610A0A2BD2C5EC00
(1445275525.022401) vcan0 390#675626020000FF80
(1445275525.025141) vcan0 125#35C7D0C0007EB7E4
(1445275525.026136) vcan0 008#8000800085EC8199
(1445275525.026924) vcan0 055#809C00B22800F7FF
(1445275525.027180) vcan0 065#02008E02F800E0F7
(1445275525.027507) vcan0 070#005BF200F8204000
(1445275525.027752) vcan0 075#485423098F99E900
(1445275525.028068) vcan0 080#802A00F200805001
(1445275525.028069) vcan0 0B0#A352C200A2768352
(1445275525.028400) vcan0 145#2110C0FC8050F2FD
(1445275525.028683) vcan0 1B0#EC00B0000000C000
(1445275525.028982) vcan0 1B5#2FFFC000000000F9
(1445275525.029308) vcan0 1D8#63CF303135303734
(1445275525.029309) vcan0 1E0#E016BD80815B2800
(1445275525.029645) vcan0 28C#00BE300000000080
(1445275525.029927) vcan0 2B5#2722A9B37200004B
(1445275525.030196) vcan0 350#80000000000000A2
(1445275525.031810) vcan0 010#F831B02F80000000
(1445275525.032056) vcan0 072#50A000004FFF00F0
(1445275525.032380) vcan0 210#468509A82000DEEC
(1445275525.032626) vcan0 2A9#840000C0CA00068C
(1445275525.036070) vcan0 008#8000800075FC8199
(1445275525.037720) vcan0 0F5#00E2477F80008000
(1445275525.037991) vcan0 120#8955FF5F80008000
(1445275525.038276) vcan0 130#11FFE300001DF78D
(1445275525.038484) vcan0 150#C0E3D7FF17E80000
(1445275525.040158) vcan0 0E0#00858000D8027062
(1445275525.041102) vcan0 288#80000000BF405FB8
(1445275525.041875) vcan0 010#F831B02F80000000
(1445275525.042154) vcan0 1D0#61000A2BD2C5EC00
(1445275525.045129) vcan0 125#35C7D0C0007EB7E4
(1445275525.045408) vcan0 260#3087E8495500FFD0
(1445275525.046061) vcan0 008#80008000650C8199
(1445275525.046401) vcan0 072#508000004FFF00F0
(1445275525.046661) vcan0 3B0#00C400002CB9D800
(1445275525.046929) vcan0 055#809C00B22800F7FF
(1445275525.047171) vcan0 065#02008E02F800E0F7
(1445275525.047391) vcan0 070#005BF200F8204000
(1445275525.047612) vcan0 075#485423098F99E900
(1445275525.047853) vcan0 080#802A00F200805001
(1445275525.048055) vcan0 0B0#A352C200A2768352
(1445275525.048364) vcan0 145#2110C0FC8050F2FD
(1445275525.048638) vcan0 1B0#EC00B0000000C000
(1445275525.048936) vcan0 1B5#2FFFC000000000F9
(1445275525.049236) vcan0 1D8#63CF303135303734
(1445275525.049236) vcan0 1E0#E016BD80C14B2C00
(1445275525.049510) vcan0 2C0#E5B00003BA000000
(1445275525.049737) vcan0 2C3#505400FFFF012975
(1445275525.049978) vcan0 2C5#7000E000DD02C700
(1445275525.051755) vcan0 010#F831B02F80000000
(1445275525.056048) vcan0 008#80008000551C8199
(1445275525.056466) vcan0 210#4E8509A82000D17F
(1445275525.057747) vcan0 0F5#00D24B7F80008000
(1445275525.057964) vcan0 120#8955FF5F80008000
(1445275525.058233) vcan0 130#11FFD300001DFA95
(1445275525.058488) vcan0 150#C0D3D7FF27E80000
(1445275525.060158) vcan0 0E0#00678000E0007062
(1445275525.061873) vcan0 010#F831B02F80000000
(1445275525.062065) vcan0 072#50A000004FFF00F0
(1445275525.062331) vcan0 1D0#61000A2BD2C5EC00
(1445275525.065123) vcan0 125#35C7D0C0007EB7E4
(1445275525.066080) vcan0 008#80008000452C8199
(1445275525.066399) vcan0 288#80000000BF405FB8
(1445275525.066904) vcan0 055#809C00B22800F7FF
(1445275525.067203) vcan0 065#02008E02F800E0F7
(1445275525.067438) vcan0 070#005BF200F8204000
(1445275525.067704) vcan0 075#485423098F99E900
(1445275525.067988) vcan0 080#802A00F200805001
(1445275525.068307) vcan0 0B0#A352C200A2768352
(1445275525.068653) vcan0 145#A100C0FC8050F2FD
(1445275525.068654) vcan0 1B0#EC00B0000000C000
(1445275525.068869) vcan0 1B5#2FFFC000000000F9
(1445275525.069133) vcan0 1D8#63CF303135303734
(1445275525.069399) vcan0 1E0#E016BD80C13B3000
(1445275525.069682) vcan0 28C#00BE300000000080
(1445275525.069971) vcan0 2B5#2722A9B37200004B
(1445275525.071880) vcan0 010#F831B02F80000000
(1445275525.072091) vcan0 2A9#840000C0D300068C
(1445275525.075323) vcan0 260#3087E8495500FFD0
(1445275525.076089) vcan0 008#80008000353C8199
(1445275525.076399) vcan0 072#508000004FFF00F0
(1445275525.077731) vcan0 0F5#00C24F7F80008000
(1445275525.077975) vcan0 120#8955FF5F80008000
(1445275525.078242) vcan0 130#11FFC300001DFA9D
(1445275525.078489) vcan0 150#C0C3D7FF37E80000
(1445275525.078734) vcan0 3CA#C000004500000000
(1445275525.080156) vcan0 0E0#00478000E8007062
(1445275525.081758) vcan0 010#F831B02F80000000
(1445275525.082035) vcan0 1D0#61000A2BD2C5EC00
(1445275525.082225) vcan0 210#468509A82000D17F
(1445275525.085114) vcan0 125#35C7D0C0007EB7E4
(1445275525.086076) vcan0 008#80008000254C8199
(1445275525.086919) vcan0 055#809C00B22800F7FF
(1445275525.087205) vcan0 065#02008E04F800E128
(1445275525.087530) vcan0 070#005BF200F8204000
(1445275525.087789) vcan0 075#485423098F99E900
(1445275525.088114) vcan0 080#802A00F200805001
(1445275525.088115) vcan0 0B0#A352C200A2768352
(1445275525.088400) vcan0 145#2110C0FC8050F2FD
(1445275525.088613) vcan0 1B0#EC00B0000000C000
(1445275525.088866) vcan0 1B5#2FFFC000000000F9
(1445275525.089188) vcan0 1D8#63CF303135303734
(1445275525.089501) vcan0 1E0#E016BD80813B3000
(1445275525.089761) vcan0 2C3#505400FFFF012975
(1445275525.089762) vcan0 370#00D3437A00910024
(1445275525.091042) vcan0 288#80000000BF405FB8
(1445275525.091824) vcan0 010#F931B02F80000000
(1445275525.092098) vcan0 072#50A000004FFF00F0
(1445275525.096041) vcan0 008#80008000155C8199
(1445275525.097721) vcan0 0F5#00B2537F80008000
(1445275525.097991) vcan0 120#8955FF5F80008000
(1445275525.098238) vcan0 130#11FFB300001DFAA5
(1445275525.098467) vcan0 150#C0B3D7FF47E80000
(1445275525.100131) vcan0 0E0#00278000F0007062
(1445275525.101875) vcan0 010#F831B02F80000000
(1445275525.102082) vcan0 1D0#610A0A2BD2C5EC00
(1445275525.105046) vcan0 125#35C7D0C0007EB7E4
(1445275525.105367) vcan0 260#3087E8495500FFD0
(1445275525.106027) vcan0 008#80008000056C8199
(1445275525.106392) vcan0 072#508000004FFF00F0
(1445275525.106637) vcan0 210#4E8509A82000D17F
(1445275525.106878) vcan0 055#809C00B22800F7FF
(1445275525.107133) vcan0 065#02008E04F800E128
(1445275525.107355) vcan0 070#005BF200F8204000
(1445275525.107631) vcan0 075#485423098F99E900
(1445275525.107898) vcan0 080#802A00F200805001
(1445275525.108124) vcan0 0B0#A352C200A2768352
(1445275525.108376) vcan0 145#2110C0FC8050F2FD
(1445275525.108657) vcan0 1B0#EC00B0000000C000
(1445275525.108953) vcan0 1B5#2FFFC000000000F9
(1445275525.109260) vcan0 1D8#63CF303135303734
(1445275525.109261) vcan0 1E0#E016BD80C12B3400
(1445275525.109590) vcan0 28C#00BE300000000080
(1445275525.109875) vcan0 2B5#2722A9B37200004B
(1445275525.110155) vcan0 2C0#E5B00003B9000000
(1445275525.110464) vcan0 2C5#7000E000D802C700
(1445275525.110465) vcan0 3AF#2000000000000000
(1445275525.111765) vcan0 010#F831B02F80000000
(1445275525.112051) vcan0 2A9#840000C0CA00068C
(1445275525.112374) vcan0 405#023D34002A012975
(1445275525.116065) vcan0 008#80008000F57C8199
(1445275525.116374) vcan0 288#80000000AF505FB8
(1445275525.116625) vcan0 360#01A40003D2000000
(1445275525.117703) vcan0 0F5#00A2577F80008000
(1445275525.117988) vcan0 120#8955FF5F80008000
(1445275525.118309) vcan0 130#11FFA300001DFAAD
(1445275525.118582) vcan0 150#C0A3D7FF57E80000
(1445275525.119677) vcan0 350#80000000000000A2
(1445275525.120110) vcan0 0E0#00078000F8007062
(1445275525.121105) vcan0 3C8#8E006F888E012975
(1445275525.121869) vcan0 010#F831B02F80000000
(1445275525.122113) vcan0 072#50A000004FFF00F0
(1445275525.122400) vcan0 1D0#61000A2BD2C5EC00
(1445275525.122660) vcan0 390#475722020000FF80
(1445275525.125109) vcan0 125#35C7D0C0007EB7E4
(1445275525.126081) vcan0 008#80008000E58C8199
(1445275525.126922) vcan0 055#809C00B22800F7FF
(1445275525.127137) vcan0 065#02008E04F800E128
(1445275525.127400) vcan0 070#005BF200F8204000
(1445275525.127613) vcan0 075#485423098F99E900
(1445275525.127863) vcan0 080#802A00F200805001
(1445275525.128187) vcan0 0B0#A352C200A2768352
(1445275525.128489) vcan0 145#A100C0FC8050F2FD
(1445275525.128839) vcan0 1B0#EC00B0000000C000
(1445275525.128840) vcan0 1B5#2FFFC000000000F9
(1445275525.129150) vcan0 1D8#63CF303135303734
(1445275525.129411) vcan0 1E0#E016BD80C11B3800
(1445275525.129663) vcan0 2C3#505400FFFF012975
(1445275525.131636) vcan0 010#F831B02F80000000
(1445275525.131865) vcan0 210#4E8509A82000D17F
(1445275525.132097) vcan0 3D0#428003380061099C
(1445275525.135349) vcan0 260#3087E8495500FFD0
(1445275525.136089) vcan0 008#80008000D59C8199
(1445275525.136541) vcan0 072#508000004FFF00F0
(1445275525.137742) vcan0 0F5#00925B7F80008000
(1445275525.137992) vcan0 120#8955FF5F80008000
(1445275525.138312) vcan0 130#11FF9300001DFAB5
(1445275525.138607) vcan0 150#C093D7FF67E80000
(1445275525.140133) vcan0 0E0#00E78000C0007062
(1445275525.141134) vcan0 288#80000000AF505FB8
(1445275525.141742) vcan0 010#F831B02F80000000
(1445275525.141976) vcan0 1D0#61000A2BD2C5EC00
(1445275525.145112) vcan0 125#35C7D0C0007EB7E4
(1445275525.146080) vcan0 008#80008000C5AC8199
(1445275525.146927) vcan0 055#809C00B22800F7FF
(1445275525.147138) vcan0 065#02008E04F800E128
(1445275525.147400) vcan0 070#005BF200F8214000
(1445275525.147655) vcan0 075#485423098F99E900
(1445275525.147932) vcan0 080#802A00F200805001
(1445275525.148205) vcan0 0B0#A352C200A2768352
(1445275525.148489) vcan0 145#2110C0FC8050F2FD
(1445275525.148836) vcan0 1B0#EC00B0000000C000
(1445275525.148837) vcan0 1B5#2FFFC000000000F9
(1445275525.149110) vcan0 1D8#63CF303135303734
(1445275525.149398) vcan0 1E0#E016BD80811B3800
(1445275525.149669) vcan0 28C#00BE300000000080
(1445275525.149936) vcan0 2B5#2722A9B37200004B
(1445275525.151837) vcan0 010#F831B02F80000000
(1445275525.152091) vcan0 072#50A000004FFF00F0
(1445275525.152375) vcan0 2A9#840000C0C200068C
(1445275525.156049) vcan0 008#80008000B5BC8199
(1445275525.156376) vcan0 210#468509A82000D17F
(1445275525.157719) vcan0 0F5#00825F7F80008000
(1445275525.157990) vcan0 120#8955FF5F80008000
(1445275525.158274) vcan0 130#11FF8300001DFABD
(1445275525.158469) vcan0 150#C083D7FF77E80000
(1445275525.160105) vcan0 0E0#00C68000C8017062
(1445275525.161794) vcan0 010#F831B02F80000000
(1445275525.162048) vcan0 1D0#61080A2BD2C5EC00
(1445275525.165089) vcan0 125#35C7D0C0007EB7E4
(1445275525.165390) vcan0 260#3087E8495500FFD0
(1445275525.166065) vcan0 008#80008000A5CC8199
(1445275525.166348) vcan0 288#80000000AF505FB8
(1445275525.166618) vcan0 072#508000004FFF00F0
(1445275525.166903) vcan0 3B0#00C4000028B97C00
(1445275525.167185) vcan0 055#809C00B22800F7FF
(1445275525.167464) vcan0 065#02008E08F800E170
(1445275525.167466) vcan0 070#005BF200F8214000
(1445275525.167712) vcan0 075#485423098F99E900
(1445275525.167965) vcan0 080#802A00F200805001
(1445275525.168290) vcan0 0B0#A352C200A2768352
(1445275525.168588) vcan0 145#2110C0FC8050F2FD
(1445275525.168939) vcan0 1B0#EC00B0000000C000
(1445275525.168940) vcan0 1B5#2FFFC000000000F9
(1445275525.169254) vcan0 1D8#43CF303135303734
(1445275525.169631) vcan0 1E0#E016BD80C10B3C00
(1445275525.169632) vcan0 2C0#E5B00003B6000000
(1445275525.169860) vcan0 2C3#505400FFFF012975
(1445275525.170108) vcan0 2C5#7000E000CD03C700
(1445275525.171846) vcan0 010#F931B02F80000000
(1445275525.176075) vcan0 008#8000800095DC8199
(1445275525.177821) vcan0 0F5#0072637F80008000
(1445275525.178015) vcan0 120#8955FF5F80008000
(1445275525.178250) vcan0 130#11FF7300001DFAC5
(1445275525.178488) vcan0 150#C073D7FF87E80000
(1445275525.180108) vcan0 0E0#00A58000D0027062
(1445275525.181654) vcan0 010#F831B02F80000000
(1445275525.181942) vcan0 072#50A000004FFF00F0
(1445275525.182255) vcan0 1D0#61020A2BD2C5EC00
(1445275525.182466) vcan0 210#468509A82000D17F
(1445275525.185081) vcan0 125#35C7D0C0007EB7E4
(1445275525.186081) vcan0 008#8000800085EC8199
(1445275525.186905) vcan0 055#809C00B227FFF7FF
(1445275525.187153) vcan0 065#02008E08F800E170
(1445275525.187428) vcan0 070#005BF200F8214000
(1445275525.187721) vcan0 075#485423098F99E900
(1445275525.187989) vcan0 080#802A00F200805001
(1445275525.188331) vcan0 0B0#A352C200A2768352
(1445275525.188332) vcan0 145#A100C0FC8050F2FD
(1445275525.188599) vcan0 1B0#EC00B0000000C000
(1445275525.188867) vcan0 1B5#2FFFC000000000F9
(1445275525.189132) vcan0 1D8#43CF303135303734
(1445275525.189422) vcan0 1E0#E016BD80C1FB0000
(1445275525.189717) vcan0 28C#00BE300000000080
(1445275525.189718) vcan0 2B5#2722A9B37200004B
(1445275525.189966) vcan0 370#00D3437A00910024
(1445275525.191093) vcan0 288#80000000AF505E47
(1445275525.191737) vcan0 010#F831B02F80000000
(1445275525.191985) vcan0 2A9#840000C0DB00068C
(1445275525.195435) vcan0 260#3087E8495500FFD0
(1445275525.196051) vcan0 008#8000800075FC8199
(1445275525.196305) vcan0 072#508000004FFF00F0
(1445275525.197817) vcan0 0F5#0062677F80008000
(1445275525.198051) vcan0 120#8955FF5F80008000
(1445275525.198306) vcan0 130#11FF6300001DFACD
(1445275525.198613) vcan0 150#C063D7FF97A70000
(1445275525.198879) vcan0 3CA#C000004600000000
(1445275525.200108) vcan0 0E0#00868000D8017062
(1445275525.201823) vcan0 010#F831B02F80000000
(1445275525.202033) vcan0 1D0#61000A2BD2C5EC00
(1445275525.202280) vcan0 400#0602010102010101
(1445275525.205088) vcan0 125#35C7D0C0007EB7E4
(1445275525.206077) vcan0 008#80008000650C8199
(1445275525.206434) vcan0 210#4E8509A82000D17F
(1445275525.207088) vcan0 055#809C00B227FFF7FF
(1445275525.207400) vcan0 065#02008E08F800E170
(1445275525.207682) vcan0 070#005BF200F8214000
(1445275525.207996) vcan0 075#485423098F99E900
(1445275525.208273) vcan0 080#802A00F200805000
(1445275525.208274) vcan0 0B0#A352C200A2768352
(1445275525.208645) vcan0 145#2110C0FC8050F2FD
(1445275525.208904) vcan0 1B0#EC00B0000000C000
(1445275525.209218) vcan0 1B5#2FFFC000000000F9
(1445275525.209219) vcan0 1D8#43CF303135303734
(1445275525.209466) vcan0 1E0#E016BD8081FB0000
(1445275525.209712) vcan0 2C3#505400FFFF012975
(1445275525.209952) vcan0 350#80000000000000A2
(1445275525.211837) vcan0 010#F831B02F80000000
(1445275525.212092) vcan0 072#50A000004FFF00F0
(1445275525.216006) vcan0 008#80008000551C8199
(1445275525.216288) vcan0 288#800000009F6044CC
(1445275525.216580) vcan0 360#01A40003D2000000
(1445275525.217760) vcan0 0F5#00526B7F80008000
(1445275525.218075) vcan0 120#8955FF5F80008000
(1445275525.218399) vcan0 130#11FF5300001DFAD5
(1445275525.218666) vcan0 150#C053D7FFA71F0000
(1445275525.220043) vcan0 0E0#00678000E0007062
(1445275525.221823) vcan0 010#F831B02F80000000
(1445275525.222037) vcan0 1D0#61000A2BD2C5EC00
(1445275525.222258) vcan0 390#47581E020000FF80
(1445275525.225060) vcan0 125#35C7D0C0007EB7E4
(1445275525.225400) vcan0 260#3087E8495500FFD0
(1445275525.226039) vcan0 008#80008000452C8199
(1445275525.226426) vcan0 072#508000004FFF00F0
(1445275525.226901) vcan0 055#809C00B227FFF7FF
(1445275525.227163) vcan0 065#02008E10F7FFE1E7
(1445275525.227432) vcan0 070#005BF200F8214000
(1445275525.227731) vcan0 075#485423098F99E900
(1445275525.228026) vcan0 080#802A00F200805000
(1445275525.228326) vcan0 0B0#A352C200A2768352
(1445275525.228327) vcan0 145#2110C0FC8050F2FD
(1445275525.228599) vcan0 1B0#EC00B0000000C000
(1445275525.228889) vcan0 1B5#2FFFC000000000F9
(1445275525.229182) vcan0 1D8#43CF303135303734
(1445275525.229503) vcan0 1E0#E016BD80C1EB0400
(1445275525.229504) vcan0 28C#00BE300000000080
(1445275525.229750) vcan0 2B5#2722A9B37200004B
(1445275525.230001) vcan0 2C0#E5B00003B8000000
(1445275525.230248) vcan0 2C5#7000E000C704C700
(1445275525.230466) vcan0 3AF#2000000000000000
(1445275525.231832) vcan0 010#F831B02F80000000
(1445275525.232117) vcan0 210#468509A82000D17F
(1445275525.232382) vcan0 2A9#840000C0C200068C
(1445275525.236005) vcan0 008#80008000353C8199
(1445275525.237749) vcan0 0F5#00426F7F80008000
(1445275525.238028) vcan0 120#8955FF5F80008000
(1445275525.238239) vcan0 130#11FF4300001DFADD
(1445275525.238487) vcan0 150#C043D7FFB6970000
(1445275525.240081) vcan0 0E0#00478000E8007062
(1445275525.241185) vcan0 288#800000009F6044CC
(1445275525.241395) vcan0 3C8#8E006F888E012975
(1445275525.241860) vcan0 010#F831B02F80000000
(1445275525.242181) vcan0 072#50A000004FFF00F0
(1445275525.242460) vcan0 1D0#61080A2BD2C5EC00
(1445275525.245080) vcan0 125#35C7D0C0007EB7E4
(1445275525.246052) vcan0 008#80008000254C8199
(1445275525.246926) vcan0 055#809C00B227FFF7FF
(1445275525.247139) vcan0 065#02008E10F7FFE1E7
(1445275525.247399) vcan0 070#005BF200F8214000
(1445275525.247655) vcan0 075#485423098F99E900
(1445275525.247931) vcan0 080#802A00F200805000
(1445275525.248204) vcan0 0B0#A352C200A2768352
(1445275525.248491) vcan0 145#A100C0FC8050F2FD
(1445275525.248790) vcan0 1B0#EC00B0000000C000
(1445275525.248791) vcan0 1B5#2FFFC000000000F9
(1445275525.249036) vcan0 1D8#43CF303135303734
(1445275525.249258) vcan0 1E0#E016BD80C1DB0800
(1445275525.249466) vcan0 2C3#505400FFFF012975
(1445275525.251754) vcan0 010#F931B02F80000000
(1445275525.255392) vcan0 260#3087E8495500FFD0
(1445275525.256010) vcan0 008#80008000155C8199
(1445275525.256428) vcan0 072#508000004FFF00F0
(1445275525.256609) vcan0 210#4E8509A82000D17F
(1445275525.257818) vcan0 0F5#0032737F80008000
(1445275525.258055) vcan0 120#8955FF5F80008000
(1445275525.258329) vcan0 130#11FF3300001DFAE5
(1445275525.258605) vcan0 150#C033D7FFC60F0000
(1445275525.260107) vcan0 0E0#00268000F0017062
(1445275525.261745) vcan0 010#F831B02F80000000
(1445275525.261959) vcan0 1D0#61020A2BD2C5EC00
(1445275525.265008) vcan0 125#35C7D0C0007EB7E4
(1445275525.266008) vcan0 008#80008000056C8199
(1445275525.266275) vcan0 288#800000009F6062D2
(1445275525.266862) vcan0 055#809C00B227FFF7FF
(1445275525.267146) vcan0 065#02008E1EF7FFE26A
(1445275525.267401) vcan0 070#005BF200F8214000
(1445275525.267653) vcan0 075#485423098F99E900
(1445275525.267948) vcan0 080#802A00F200805000
(1445275525.268237) vcan0 0B0#A352C200A2768352
(1445275525.268539) vcan0 145#2110C0FC8050F2FD
(1445275525.268543) vcan0 1B0#EC00B0000000C000
(1445275525.268837) vcan0 1B5#2FFFC000000000F9
(1445275525.269123) vcan0 1D8#43CF303135303734
(1445275525.269417) vcan0 1E0#E016BD8081DB0800
(1445275525.269714) vcan0 28C#00BE300000000080
(1445275525.269715) vcan0 2B5#2722A9B37200004B
(1445275525.271751) vcan0 010#F831B02F80000000
(1445275525.272011) vcan0 072#50A000004FFF00F0
(1445275525.272251) vcan0 2A9#840000C0DB00068C
(1445275525.276030) vcan0 008#80008000F57C8199
(1445275525.277793) vcan0 0F5#0022777F80008000
(1445275525.278050) vcan0 120#8955FF5F80008000
(1445275525.278401) vcan0 130#11FF2300001DFAED
(1445275525.278615) vcan0 150#C023D7FFD60F0000
(1445275525.280075) vcan0 0E0#00048000F8037062
(1445275525.281859) vcan0 010#F831B02F80000000
(1445275525.282175) vcan0 1D0#61000A2BD2C5EC00
(1445275525.282431) vcan0 210#468509A82000D17F
(1445275525.285057) vcan0 125#35C7D0C0007EB7E4
(1445275525.285400) vcan0 260#3087E8495500FFD0
(1445275525.286000) vcan0 008#80008000E58C8199
(1445275525.286531) vcan0 072#508000004FFF00F0
(1445275525.286741) vcan0 3B0#00C4000028B95800
(1445275525.286990) vcan0 055#809C00B227FFF7FF
(1445275525.287238) vcan0 065#02008E1EF7FFE26A
(1445275525.287569) vcan0 070#005BF200F8214000
(1445275525.287864) vcan0 075#485423098F99E900
(1445275525.288214) vcan0 080#802A00F200805000
(1445275525.288215) vcan0 0B0#A352C200A2768352
(1445275525.288488) vcan0 145#2110C0FC8050F2FD
(1445275525.288774) vcan0 1B0#EC00B0000000C000
(1445275525.289043) vcan0 1B5#2FFFC000000000F9
(1445275525.289377) vcan0 1D8#43CF303135303734
(1445275525.289378) vcan0 1E0#E016BD80C1CB0C00
(1445275525.289589) vcan0 2C0#E5B00003BB000000
(1445275525.289916) vcan0 2C3#505400FFFF012975
(1445275525.290212) vcan0 2C5#7000E000B705C700
(1445275525.290553) vcan0 370#00D3437A00910024
(1445275525.290554) vcan0 3E0#0080985218000000
(1445275525.291158) vcan0 288#800000009F606026
(1445275525.291805) vcan0 010#F831B02F80000000
(1445275525.296060) vcan0 008#80008000D59C8199
(1445275525.297794) vcan0 0F5#00127B7F80008000
(1445275525.298050) vcan0 120#8955FF5F80008000
(1445275525.298297) vcan0 130#11FF1300001DFAF5
(1445275525.298553) vcan0 150#C013D7FFE6970000
(1445275525.299710) vcan0 350#80000000000000A2
(1445275525.300059) vcan0 0E0#00E38000C0047062
(1445275525.301860) vcan0 010#F831B02F80000000
(1445275525.302116) vcan0 072#50A000004FFF00F0
(1445275525.302399) vcan0 1D0#61000A2BD2C5EC00
(1445275525.305055) vcan0 125#35C7D0C0007EB7E4
(1445275525.306077) vcan0 008#80008000C5AC8199
(1445275525.306398) vcan0 210#4E8509A82000D17F
(1445275525.306918) vcan0 055#809C00B227FFF7FF
(1445275525.307170) vcan0 065#02008E2AF7FFE2CE
(1445275525.307407) vcan0 070#005BF200F8214000
